 ... HEADER decoding
     line ::     0 :: Instance: uvm_test_top.top_env_i.ahbfab_env_i.mvc_ahb_slv_4_env_i.logger_handle_ahb
     line ::     1 :: AHB Clk Cycle = 40 ns; AHB Clk Frequency = 25.00 MHz; Data bus width = 32 bits
     line ::     2 :: ------------------------------------------------------------------------------------------------------------------------------------------
     line ::     3 :: |NONSEQ/SEQ Assert Time |  HREADY Assert Time   |  DIR     |   ADDR   | BEAT  |  L |   DATA   |  RESP  | BURST| BURST   | H |    HSEL    |
     line ::     4 :: |                       |                       |   -      |          |  NUM  |  E |          |        | Type | Size    | P |   (SLAVE   |
     line ::     5 :: |                       |                       | PHASE    |          |       |  N |          |        |      |= 2^HSIZE| R |    INDEX)  |
     line ::     6 :: |                       |                       |          |          |       |    |          |        |      | bytes   | O |            |
     line ::     7 :: |                       |                       |          |          |       |    |          |        |      |         | T |            |
     line ::     8 :: |                       |                       |          |          |       |    |          |        |      |         |   |            |
     line ::     9 :: ------------------------------------------------------------------------------------------------------------------------------------------
 ... HEADER decoding done
 ... TABLE  decoding ... 
     line ::    10 :: |              609326 ns|              609331 ns|WR-NONSEQ | A582D80C | ----- |  1 | -------- |  ----  |SINGLE|    4    | C |           0|
                      0 :: first command
     line ::    11 :: |              609356 ns|              609361 ns|RD-NONSEQ | A582DB20 | ----- |  1 | -------- |  ----  |SINGLE|    4    | C |           0|
                      0 :: first command
     line ::    12 :: |              609331 ns|              609361 ns|WR-DATA   | A582D80C |  1/ 1 | -- | E4EDBB39 |  OKAY  | ---- | ------- | - | ---------- |
                      ::             AHB address transfer phase detected
                      :: sequential  AHB data    transfer phase detected FIRST
                         DATA transfer assertion time :   609331 ns
                         ADDR transfer assertion time :   609356 ns
     line ::    13 :: |              609381 ns|              609386 ns|WR-NONSEQ | A582DB7C | ----- |  1 | -------- |  ----  |SINGLE|    4    | D |           0|
                      0 :: first command
     line ::    14 :: |              609361 ns|              609386 ns|RD-DATA   | A582DB20 |  1/ 1 | -- | 00000000 |  OKAY  | ---- | ------- | - | ---------- |
                      ::             AHB address transfer phase detected
                      :: sequential  AHB data    transfer phase detected FIRST
                         DATA transfer assertion time :   609361 ns
                         ADDR transfer assertion time :   609381 ns
     line ::    15 :: |              609411 ns|              609416 ns|RD-NONSEQ | A582DBA0 | ----- |  1 | -------- |  ----  |SINGLE|    4    | 4 |           0|
                      0 :: first command
     line ::    16 :: |              609386 ns|              609416 ns|WR-DATA   | A582DB7C |  1/ 1 | -- | 706E8832 |  OKAY  | ---- | ------- | - | ---------- |
                      ::             AHB address transfer phase detected
                      :: sequential  AHB data    transfer phase detected FIRST
                         DATA transfer assertion time :   609386 ns
                         ADDR transfer assertion time :   609411 ns
     line ::    17 :: |              609436 ns|              609441 ns|WR-NONSEQ | A582DB80 | ----- |  1 | -------- |  ----  |SINGLE|    4    | D |           0|
                      0 :: first command
     line ::    18 :: |              609416 ns|              609441 ns|RD-DATA   | A582DBA0 |  1/ 1 | -- | 00000000 |  OKAY  | ---- | ------- | - | ---------- |
                      ::             AHB address transfer phase detected
                      :: sequential  AHB data    transfer phase detected FIRST
                         DATA transfer assertion time :   609416 ns
                         ADDR transfer assertion time :   609436 ns
     line ::    19 :: |              609466 ns|              609471 ns|RD-NONSEQ | A582DB24 | ----- |  1 | -------- |  ----  |SINGLE|    4    | F |           0|
                      0 :: first command
     line ::    20 :: |              609441 ns|              609471 ns|WR-DATA   | A582DB80 |  1/ 1 | -- | BC8A0E66 |  OKAY  | ---- | ------- | - | ---------- |
                      ::             AHB address transfer phase detected
                      :: sequential  AHB data    transfer phase detected FIRST
                         DATA transfer assertion time :   609441 ns
                         ADDR transfer assertion time :   609466 ns
     line ::    21 :: |              609491 ns|              609496 ns|WR-NONSEQ | A582DB70 | ----- |  1 | -------- |  ----  |SINGLE|    4    | C |           0|
                      0 :: first command
     line ::    22 :: |              609471 ns|              609496 ns|RD-DATA   | A582DB24 |  1/ 1 | -- | 00000000 |  OKAY  | ---- | ------- | - | ---------- |
                      ::             AHB address transfer phase detected
                      :: sequential  AHB data    transfer phase detected FIRST
                         DATA transfer assertion time :   609471 ns
                         ADDR transfer assertion time :   609491 ns
     line ::    23 :: |              609521 ns|              609526 ns|RD-NONSEQ | A582DBB8 | ----- |  1 | -------- |  ----  |SINGLE|    4    | 1 |           0|
                      0 :: first command
     line ::    24 :: |              609496 ns|              609526 ns|WR-DATA   | A582DB70 |  1/ 1 | -- | E50789CF |  OKAY  | ---- | ------- | - | ---------- |
                      ::             AHB address transfer phase detected
                      :: sequential  AHB data    transfer phase detected FIRST
                         DATA transfer assertion time :   609496 ns
                         ADDR transfer assertion time :   609521 ns
     line ::    25 :: |              609546 ns|              609551 ns|WR-NONSEQ | A582DAE0 | ----- |  1 | -------- |  ----  |SINGLE|    4    | E |           0|
                      0 :: first command
     line ::    26 :: |              609526 ns|              609551 ns|RD-DATA   | A582DBB8 |  1/ 1 | -- | 00000000 |  OKAY  | ---- | ------- | - | ---------- |
                      ::             AHB address transfer phase detected
                      :: sequential  AHB data    transfer phase detected FIRST
                         DATA transfer assertion time :   609526 ns
                         ADDR transfer assertion time :   609546 ns
     line ::    27 :: |              609576 ns|              609581 ns|RD-NONSEQ | A582D9F4 | ----- |  1 | -------- |  ----  |SINGLE|    4    | C |           0|
                      0 :: first command
     line ::    28 :: |              609551 ns|              609581 ns|WR-DATA   | A582DAE0 |  1/ 1 | -- | D4D3D8AF |  OKAY  | ---- | ------- | - | ---------- |
                      ::             AHB address transfer phase detected
                      :: sequential  AHB data    transfer phase detected FIRST
                         DATA transfer assertion time :   609551 ns
                         ADDR transfer assertion time :   609576 ns
     line ::    29 :: |              609601 ns|              609606 ns|WR-NONSEQ | A582D9BC | ----- |  1 | -------- |  ----  |SINGLE|    4    | 1 |           0|
                      0 :: first command
     line ::    30 :: |              609581 ns|              609606 ns|RD-DATA   | A582D9F4 |  1/ 1 | -- | 00000000 |  OKAY  | ---- | ------- | - | ---------- |
                      ::             AHB address transfer phase detected
                      :: sequential  AHB data    transfer phase detected FIRST
                         DATA transfer assertion time :   609581 ns
                         ADDR transfer assertion time :   609601 ns
     line ::    31 :: |              609631 ns|              609636 ns|RD-NONSEQ | A582DA68 | ----- |  1 | -------- |  ----  |SINGLE|    4    | D |           0|
                      0 :: first command
     line ::    32 :: |              609606 ns|              609636 ns|WR-DATA   | A582D9BC |  1/ 1 | -- | BB550B2B |  OKAY  | ---- | ------- | - | ---------- |
                      ::             AHB address transfer phase detected
                      :: sequential  AHB data    transfer phase detected FIRST
                         DATA transfer assertion time :   609606 ns
                         ADDR transfer assertion time :   609631 ns
     line ::    33 :: |              609656 ns|              609661 ns|WR-NONSEQ | A582DBC4 | ----- |  1 | -------- |  ----  |SINGLE|    4    | 0 |           0|
                      0 :: first command
     line ::    34 :: |              609636 ns|              609661 ns|RD-DATA   | A582DA68 |  1/ 1 | -- | 00000000 |  OKAY  | ---- | ------- | - | ---------- |
                      ::             AHB address transfer phase detected
                      :: sequential  AHB data    transfer phase detected FIRST
                         DATA transfer assertion time :   609636 ns
                         ADDR transfer assertion time :   609656 ns
     line ::    35 :: |              609686 ns|              609691 ns|RD-NONSEQ | A582D86C | ----- |  1 | -------- |  ----  |SINGLE|    4    | 0 |           0|
                      0 :: first command
     line ::    36 :: |              609661 ns|              609691 ns|WR-DATA   | A582DBC4 |  1/ 1 | -- | 675C7178 |  OKAY  | ---- | ------- | - | ---------- |
                      ::             AHB address transfer phase detected
                      :: sequential  AHB data    transfer phase detected FIRST
                         DATA transfer assertion time :   609661 ns
                         ADDR transfer assertion time :   609686 ns
     line ::    37 :: |              609711 ns|              609716 ns|WR-NONSEQ | A582DA28 | ----- |  1 | -------- |  ----  |SINGLE|    4    | C |           0|
                      0 :: first command
     line ::    38 :: |              609691 ns|              609716 ns|RD-DATA   | A582D86C |  1/ 1 | -- | 00000000 |  OKAY  | ---- | ------- | - | ---------- |
                      ::             AHB address transfer phase detected
                      :: sequential  AHB data    transfer phase detected FIRST
                         DATA transfer assertion time :   609691 ns
                         ADDR transfer assertion time :   609711 ns
     line ::    39 :: |              609741 ns|              609746 ns|RD-NONSEQ | A582DB18 | ----- |  1 | -------- |  ----  |SINGLE|    4    | 3 |           0|
                      0 :: first command
     line ::    40 :: |              609716 ns|              609746 ns|WR-DATA   | A582DA28 |  1/ 1 | -- | 564993B8 |  OKAY  | ---- | ------- | - | ---------- |
                      ::             AHB address transfer phase detected
                      :: sequential  AHB data    transfer phase detected FIRST
                         DATA transfer assertion time :   609716 ns
                         ADDR transfer assertion time :   609741 ns
     line ::    41 :: |              609766 ns|              609771 ns|WR-NONSEQ | A582D8E4 | ----- |  1 | -------- |  ----  |SINGLE|    4    | C |           0|
                      0 :: first command
     line ::    42 :: |              609746 ns|              609771 ns|RD-DATA   | A582DB18 |  1/ 1 | -- | 00000000 |  OKAY  | ---- | ------- | - | ---------- |
                      ::             AHB address transfer phase detected
                      :: sequential  AHB data    transfer phase detected FIRST
                         DATA transfer assertion time :   609746 ns
                         ADDR transfer assertion time :   609766 ns
     line ::    43 :: |              609796 ns|              609801 ns|RD-NONSEQ | A582D80C | ----- |  1 | -------- |  ----  |SINGLE|    4    | E |           0|
                      0 :: first command
     line ::    44 :: |              609771 ns|              609801 ns|WR-DATA   | A582D8E4 |  1/ 1 | -- | 06F37190 |  OKAY  | ---- | ------- | - | ---------- |
                      ::             AHB address transfer phase detected
                      :: sequential  AHB data    transfer phase detected FIRST
                         DATA transfer assertion time :   609771 ns
                         ADDR transfer assertion time :   609796 ns
     line ::    45 :: |              609821 ns|              609826 ns|WR-NONSEQ | A582D844 | ----- |  1 | -------- |  ----  |SINGLE|    4    | D |           0|
                      0 :: first command
     line ::    46 :: |              609801 ns|              609826 ns|RD-DATA   | A582D80C |  1/ 1 | -- | E4EDBB39 |  OKAY  | ---- | ------- | - | ---------- |
                      ::             AHB address transfer phase detected
                      :: sequential  AHB data    transfer phase detected FIRST
                         DATA transfer assertion time :   609801 ns
                         ADDR transfer assertion time :   609821 ns
     line ::    47 :: |              609851 ns|              609856 ns|RD-NONSEQ | A582D954 | ----- |  1 | -------- |  ----  |SINGLE|    4    | 9 |           0|
                      0 :: first command
     line ::    48 :: |              609826 ns|              609856 ns|WR-DATA   | A582D844 |  1/ 1 | -- | 871F782C |  OKAY  | ---- | ------- | - | ---------- |
                      ::             AHB address transfer phase detected
                      :: sequential  AHB data    transfer phase detected FIRST
                         DATA transfer assertion time :   609826 ns
                         ADDR transfer assertion time :   609851 ns
     line ::    49 :: |              609876 ns|              609881 ns|WR-NONSEQ | A582D84C | ----- |  1 | -------- |  ----  |SINGLE|    4    | 9 |           0|
                      0 :: first command
     line ::    50 :: |              609856 ns|              609881 ns|RD-DATA   | A582D954 |  1/ 1 | -- | 00000000 |  OKAY  | ---- | ------- | - | ---------- |
                      ::             AHB address transfer phase detected
                      :: sequential  AHB data    transfer phase detected FIRST
                         DATA transfer assertion time :   609856 ns
                         ADDR transfer assertion time :   609876 ns
     line ::    51 :: |              609906 ns|              609911 ns|RD-NONSEQ | A582D82C | ----- |  1 | -------- |  ----  |SINGLE|    4    | C |           0|
                      0 :: first command
     line ::    52 :: |              609881 ns|              609911 ns|WR-DATA   | A582D84C |  1/ 1 | -- | C0F6F516 |  OKAY  | ---- | ------- | - | ---------- |
                      ::             AHB address transfer phase detected
                      :: sequential  AHB data    transfer phase detected FIRST
                         DATA transfer assertion time :   609881 ns
                         ADDR transfer assertion time :   609906 ns
     line ::    53 :: |              609931 ns|              609936 ns|WR-NONSEQ | A582DBC0 | ----- |  1 | -------- |  ----  |SINGLE|    4    | A |           0|
                      0 :: first command
     line ::    54 :: |              609911 ns|              609936 ns|RD-DATA   | A582D82C |  1/ 1 | -- | 00000000 |  OKAY  | ---- | ------- | - | ---------- |
                      ::             AHB address transfer phase detected
                      :: sequential  AHB data    transfer phase detected FIRST
                         DATA transfer assertion time :   609911 ns
                         ADDR transfer assertion time :   609931 ns
     line ::    55 :: |              609961 ns|              609966 ns|RD-NONSEQ | A582D8E0 | ----- |  1 | -------- |  ----  |SINGLE|    4    | E |           0|
                      0 :: first command
     line ::    56 :: |              609936 ns|              609966 ns|WR-DATA   | A582DBC0 |  1/ 1 | -- | 05BF6D37 |  OKAY  | ---- | ------- | - | ---------- |
                      ::             AHB address transfer phase detected
                      :: sequential  AHB data    transfer phase detected FIRST
                         DATA transfer assertion time :   609936 ns
                         ADDR transfer assertion time :   609961 ns
     line ::    57 :: |              609986 ns|              609991 ns|WR-NONSEQ | A582DBF4 | ----- |  1 | -------- |  ----  |SINGLE|    4    | E |           0|
                      0 :: first command
     line ::    58 :: |              609966 ns|              609991 ns|RD-DATA   | A582D8E0 |  1/ 1 | -- | 00000000 |  OKAY  | ---- | ------- | - | ---------- |
                      ::             AHB address transfer phase detected
                      :: sequential  AHB data    transfer phase detected FIRST
                         DATA transfer assertion time :   609966 ns
                         ADDR transfer assertion time :   609986 ns
     line ::    59 :: |              610016 ns|              610021 ns|RD-NONSEQ | A582D8D0 | ----- |  1 | -------- |  ----  |SINGLE|    4    | 0 |           0|
                      0 :: first command
     line ::    60 :: |              609991 ns|              610021 ns|WR-DATA   | A582DBF4 |  1/ 1 | -- | B8FAF538 |  OKAY  | ---- | ------- | - | ---------- |
                      ::             AHB address transfer phase detected
                      :: sequential  AHB data    transfer phase detected FIRST
                         DATA transfer assertion time :   609991 ns
                         ADDR transfer assertion time :   610016 ns
     line ::    61 :: |              610041 ns|              610046 ns|WR-NONSEQ | A582DA58 | ----- |  1 | -------- |  ----  |SINGLE|    4    | F |           0|
                      0 :: first command
     line ::    62 :: |              610021 ns|              610046 ns|RD-DATA   | A582D8D0 |  1/ 1 | -- | 00000000 |  OKAY  | ---- | ------- | - | ---------- |
                      ::             AHB address transfer phase detected
                      :: sequential  AHB data    transfer phase detected FIRST
                         DATA transfer assertion time :   610021 ns
                         ADDR transfer assertion time :   610041 ns
     line ::    63 :: |              610071 ns|              610076 ns|RD-NONSEQ | A582D900 | ----- |  1 | -------- |  ----  |SINGLE|    4    | B |           0|
                      0 :: first command
     line ::    64 :: |              610046 ns|              610076 ns|WR-DATA   | A582DA58 |  1/ 1 | -- | 94385A44 |  OKAY  | ---- | ------- | - | ---------- |
                      ::             AHB address transfer phase detected
                      :: sequential  AHB data    transfer phase detected FIRST
                         DATA transfer assertion time :   610046 ns
                         ADDR transfer assertion time :   610071 ns
     line ::    65 :: |              610096 ns|              610101 ns|WR-NONSEQ | A582DB1C | ----- |  1 | -------- |  ----  |SINGLE|    4    | C |           0|
                      0 :: first command
     line ::    66 :: |              610076 ns|              610101 ns|RD-DATA   | A582D900 |  1/ 1 | -- | 00000000 |  OKAY  | ---- | ------- | - | ---------- |
                      ::             AHB address transfer phase detected
                      :: sequential  AHB data    transfer phase detected FIRST
                         DATA transfer assertion time :   610076 ns
                         ADDR transfer assertion time :   610096 ns
     line ::    67 :: |              610126 ns|              610131 ns|RD-NONSEQ | A582DB54 | ----- |  1 | -------- |  ----  |SINGLE|    4    | 8 |           0|
                      0 :: first command
     line ::    68 :: |              610101 ns|              610131 ns|WR-DATA   | A582DB1C |  1/ 1 | -- | B2C9490E |  OKAY  | ---- | ------- | - | ---------- |
                      ::             AHB address transfer phase detected
                      :: sequential  AHB data    transfer phase detected FIRST
                         DATA transfer assertion time :   610101 ns
                         ADDR transfer assertion time :   610126 ns
     line ::    69 :: |              610151 ns|              610156 ns|WR-NONSEQ | A582D96C | ----- |  1 | -------- |  ----  |SINGLE|    4    | 5 |           0|
                      0 :: first command
     line ::    70 :: |              610131 ns|              610156 ns|RD-DATA   | A582DB54 |  1/ 1 | -- | 00000000 |  OKAY  | ---- | ------- | - | ---------- |
                      ::             AHB address transfer phase detected
                      :: sequential  AHB data    transfer phase detected FIRST
                         DATA transfer assertion time :   610131 ns
                         ADDR transfer assertion time :   610151 ns
     line ::    71 :: |              610181 ns|              610186 ns|RD-NONSEQ | A582D8E4 | ----- |  1 | -------- |  ----  |SINGLE|    4    | A |           0|
                      0 :: first command
     line ::    72 :: |              610156 ns|              610186 ns|WR-DATA   | A582D96C |  1/ 1 | -- | 28CF1C49 |  OKAY  | ---- | ------- | - | ---------- |
                      ::             AHB address transfer phase detected
                      :: sequential  AHB data    transfer phase detected FIRST
                         DATA transfer assertion time :   610156 ns
                         ADDR transfer assertion time :   610181 ns
     line ::    73 :: |              610206 ns|              610211 ns|WR-NONSEQ | A582DBAC | ----- |  1 | -------- |  ----  |SINGLE|    4    | 0 |           0|
                      0 :: first command
     line ::    74 :: |              610186 ns|              610211 ns|RD-DATA   | A582D8E4 |  1/ 1 | -- | 06F37190 |  OKAY  | ---- | ------- | - | ---------- |
                      ::             AHB address transfer phase detected
                      :: sequential  AHB data    transfer phase detected FIRST
                         DATA transfer assertion time :   610186 ns
                         ADDR transfer assertion time :   610206 ns
     line ::    75 :: |              610236 ns|              610241 ns|RD-NONSEQ | A582DB20 | ----- |  1 | -------- |  ----  |SINGLE|    4    | C |           0|
                      0 :: first command
     line ::    76 :: |              610211 ns|              610241 ns|WR-DATA   | A582DBAC |  1/ 1 | -- | C38216FB |  OKAY  | ---- | ------- | - | ---------- |
                      ::             AHB address transfer phase detected
                      :: sequential  AHB data    transfer phase detected FIRST
                         DATA transfer assertion time :   610211 ns
                         ADDR transfer assertion time :   610236 ns
     line ::    77 :: |              610261 ns|              610266 ns|WR-NONSEQ | A582DB94 | ----- |  1 | -------- |  ----  |SINGLE|    4    | 1 |           0|
                      0 :: first command
     line ::    78 :: |              610241 ns|              610266 ns|RD-DATA   | A582DB20 |  1/ 1 | -- | 00000000 |  OKAY  | ---- | ------- | - | ---------- |
                      ::             AHB address transfer phase detected
                      :: sequential  AHB data    transfer phase detected FIRST
                         DATA transfer assertion time :   610241 ns
                         ADDR transfer assertion time :   610261 ns
     line ::    79 :: |              610291 ns|              610296 ns|RD-NONSEQ | A582D838 | ----- |  1 | -------- |  ----  |SINGLE|    4    | 9 |           0|
                      0 :: first command
     line ::    80 :: |              610266 ns|              610296 ns|WR-DATA   | A582DB94 |  1/ 1 | -- | 77DA1F58 |  OKAY  | ---- | ------- | - | ---------- |
                      ::             AHB address transfer phase detected
                      :: sequential  AHB data    transfer phase detected FIRST
                         DATA transfer assertion time :   610266 ns
                         ADDR transfer assertion time :   610291 ns
     line ::    81 :: |              610316 ns|              610321 ns|WR-NONSEQ | A582DA80 | ----- |  1 | -------- |  ----  |SINGLE|    4    | 8 |           0|
                      0 :: first command
     line ::    82 :: |              610296 ns|              610321 ns|RD-DATA   | A582D838 |  1/ 1 | -- | 00000000 |  OKAY  | ---- | ------- | - | ---------- |
                      ::             AHB address transfer phase detected
                      :: sequential  AHB data    transfer phase detected FIRST
                         DATA transfer assertion time :   610296 ns
                         ADDR transfer assertion time :   610316 ns
     line ::    83 :: |              610346 ns|              610351 ns|RD-NONSEQ | A582DBF8 | ----- |  1 | -------- |  ----  |SINGLE|    4    | D |           0|
                      0 :: first command
     line ::    84 :: |              610321 ns|              610351 ns|WR-DATA   | A582DA80 |  1/ 1 | -- | A132F891 |  OKAY  | ---- | ------- | - | ---------- |
                      ::             AHB address transfer phase detected
                      :: sequential  AHB data    transfer phase detected FIRST
                         DATA transfer assertion time :   610321 ns
                         ADDR transfer assertion time :   610346 ns
     line ::    85 :: |              610371 ns|              610376 ns|WR-NONSEQ | A582DA70 | ----- |  1 | -------- |  ----  |SINGLE|    4    | 2 |           0|
                      0 :: first command
     line ::    86 :: |              610351 ns|              610376 ns|RD-DATA   | A582DBF8 |  1/ 1 | -- | 00000000 |  OKAY  | ---- | ------- | - | ---------- |
                      ::             AHB address transfer phase detected
                      :: sequential  AHB data    transfer phase detected FIRST
                         DATA transfer assertion time :   610351 ns
                         ADDR transfer assertion time :   610371 ns
     line ::    87 :: |              610401 ns|              610406 ns|RD-NONSEQ | A582D838 | ----- |  1 | -------- |  ----  |SINGLE|    4    | B |           0|
                      0 :: first command
     line ::    88 :: |              610376 ns|              610406 ns|WR-DATA   | A582DA70 |  1/ 1 | -- | 8B046599 |  OKAY  | ---- | ------- | - | ---------- |
                      ::             AHB address transfer phase detected
                      :: sequential  AHB data    transfer phase detected FIRST
                         DATA transfer assertion time :   610376 ns
                         ADDR transfer assertion time :   610401 ns
     line ::    89 :: |              610426 ns|              610431 ns|WR-NONSEQ | A582D908 | ----- |  1 | -------- |  ----  |SINGLE|    4    | 5 |           0|
                      0 :: first command
     line ::    90 :: |              610406 ns|              610431 ns|RD-DATA   | A582D838 |  1/ 1 | -- | 00000000 |  OKAY  | ---- | ------- | - | ---------- |
                      ::             AHB address transfer phase detected
                      :: sequential  AHB data    transfer phase detected FIRST
                         DATA transfer assertion time :   610406 ns
                         ADDR transfer assertion time :   610426 ns
     line ::    91 :: |              610456 ns|              610461 ns|RD-NONSEQ | A582DA3C | ----- |  1 | -------- |  ----  |SINGLE|    4    | B |           0|
                      0 :: first command
     line ::    92 :: |              610431 ns|              610461 ns|WR-DATA   | A582D908 |  1/ 1 | -- | FE10265A |  OKAY  | ---- | ------- | - | ---------- |
                      ::             AHB address transfer phase detected
                      :: sequential  AHB data    transfer phase detected FIRST
                         DATA transfer assertion time :   610431 ns
                         ADDR transfer assertion time :   610456 ns
     line ::    93 :: |              610481 ns|              610486 ns|WR-NONSEQ | A582DA0C | ----- |  1 | -------- |  ----  |SINGLE|    4    | 9 |           0|
                      0 :: first command
     line ::    94 :: |              610461 ns|              610486 ns|RD-DATA   | A582DA3C |  1/ 1 | -- | 00000000 |  OKAY  | ---- | ------- | - | ---------- |
                      ::             AHB address transfer phase detected
                      :: sequential  AHB data    transfer phase detected FIRST
                         DATA transfer assertion time :   610461 ns
                         ADDR transfer assertion time :   610481 ns
     line ::    95 :: |              610511 ns|              610516 ns|RD-NONSEQ | A582DB38 | ----- |  1 | -------- |  ----  |SINGLE|    4    | 8 |           0|
                      0 :: first command
     line ::    96 :: |              610486 ns|              610516 ns|WR-DATA   | A582DA0C |  1/ 1 | -- | EB385ABE |  OKAY  | ---- | ------- | - | ---------- |
                      ::             AHB address transfer phase detected
                      :: sequential  AHB data    transfer phase detected FIRST
                         DATA transfer assertion time :   610486 ns
                         ADDR transfer assertion time :   610511 ns
     line ::    97 :: |              610536 ns|              610541 ns|WR-NONSEQ | A582D894 | ----- |  1 | -------- |  ----  |SINGLE|    4    | E |           0|
                      0 :: first command
     line ::    98 :: |              610516 ns|              610541 ns|RD-DATA   | A582DB38 |  1/ 1 | -- | 00000000 |  OKAY  | ---- | ------- | - | ---------- |
                      ::             AHB address transfer phase detected
                      :: sequential  AHB data    transfer phase detected FIRST
                         DATA transfer assertion time :   610516 ns
                         ADDR transfer assertion time :   610536 ns
     line ::    99 :: |              610566 ns|              610571 ns|RD-NONSEQ | A582D8D0 | ----- |  1 | -------- |  ----  |SINGLE|    4    | C |           0|
                      0 :: first command
     line ::   100 :: |              610541 ns|              610571 ns|WR-DATA   | A582D894 |  1/ 1 | -- | B845F8A9 |  OKAY  | ---- | ------- | - | ---------- |
                      ::             AHB address transfer phase detected
                      :: sequential  AHB data    transfer phase detected FIRST
                         DATA transfer assertion time :   610541 ns
                         ADDR transfer assertion time :   610566 ns
     line ::   101 :: |              610591 ns|              610596 ns|WR-NONSEQ | A582DA40 | ----- |  1 | -------- |  ----  |SINGLE|    4    | A |           0|
                      0 :: first command
     line ::   102 :: |              610571 ns|              610596 ns|RD-DATA   | A582D8D0 |  1/ 1 | -- | 00000000 |  OKAY  | ---- | ------- | - | ---------- |
                      ::             AHB address transfer phase detected
                      :: sequential  AHB data    transfer phase detected FIRST
                         DATA transfer assertion time :   610571 ns
                         ADDR transfer assertion time :   610591 ns
     line ::   103 :: |              610621 ns|              610626 ns|RD-NONSEQ | A582DBBC | ----- |  1 | -------- |  ----  |SINGLE|    4    | A |           0|
                      0 :: first command
     line ::   104 :: |              610596 ns|              610626 ns|WR-DATA   | A582DA40 |  1/ 1 | -- | 2DB665D1 |  OKAY  | ---- | ------- | - | ---------- |
                      ::             AHB address transfer phase detected
                      :: sequential  AHB data    transfer phase detected FIRST
                         DATA transfer assertion time :   610596 ns
                         ADDR transfer assertion time :   610621 ns
     line ::   105 :: |              610646 ns|              610651 ns|WR-NONSEQ | A582D9B4 | ----- |  1 | -------- |  ----  |SINGLE|    4    | B |           0|
                      0 :: first command
     line ::   106 :: |              610626 ns|              610651 ns|RD-DATA   | A582DBBC |  1/ 1 | -- | 00000000 |  OKAY  | ---- | ------- | - | ---------- |
                      ::             AHB address transfer phase detected
                      :: sequential  AHB data    transfer phase detected FIRST
                         DATA transfer assertion time :   610626 ns
                         ADDR transfer assertion time :   610646 ns
     line ::   107 :: |              610676 ns|              610681 ns|RD-NONSEQ | A582DAEC | ----- |  1 | -------- |  ----  |SINGLE|    4    | A |           0|
                      0 :: first command
     line ::   108 :: |              610651 ns|              610681 ns|WR-DATA   | A582D9B4 |  1/ 1 | -- | 6BBFCED5 |  OKAY  | ---- | ------- | - | ---------- |
                      ::             AHB address transfer phase detected
                      :: sequential  AHB data    transfer phase detected FIRST
                         DATA transfer assertion time :   610651 ns
                         ADDR transfer assertion time :   610676 ns
     line ::   109 :: |              610701 ns|              610706 ns|WR-NONSEQ | A582DA64 | ----- |  1 | -------- |  ----  |SINGLE|    4    | 4 |           0|
                      0 :: first command
     line ::   110 :: |              610681 ns|              610706 ns|RD-DATA   | A582DAEC |  1/ 1 | -- | 00000000 |  OKAY  | ---- | ------- | - | ---------- |
                      ::             AHB address transfer phase detected
                      :: sequential  AHB data    transfer phase detected FIRST
                         DATA transfer assertion time :   610681 ns
                         ADDR transfer assertion time :   610701 ns
     line ::   111 :: |              610731 ns|              610736 ns|RD-NONSEQ | A582DA84 | ----- |  1 | -------- |  ----  |SINGLE|    4    | A |           0|
                      0 :: first command
     line ::   112 :: |              610706 ns|              610736 ns|WR-DATA   | A582DA64 |  1/ 1 | -- | 2CD0249F |  OKAY  | ---- | ------- | - | ---------- |
                      ::             AHB address transfer phase detected
                      :: sequential  AHB data    transfer phase detected FIRST
                         DATA transfer assertion time :   610706 ns
                         ADDR transfer assertion time :   610731 ns
     line ::   113 :: |              610756 ns|              610761 ns|WR-NONSEQ | A582DAF8 | ----- |  1 | -------- |  ----  |SINGLE|    4    | 1 |           0|
                      0 :: first command
     line ::   114 :: |              610736 ns|              610761 ns|RD-DATA   | A582DA84 |  1/ 1 | -- | 00000000 |  OKAY  | ---- | ------- | - | ---------- |
                      ::             AHB address transfer phase detected
                      :: sequential  AHB data    transfer phase detected FIRST
                         DATA transfer assertion time :   610736 ns
                         ADDR transfer assertion time :   610756 ns
     line ::   115 :: |              610786 ns|              610791 ns|RD-NONSEQ | A582D884 | ----- |  1 | -------- |  ----  |SINGLE|    4    | 4 |           0|
                      0 :: first command
     line ::   116 :: |              610761 ns|              610791 ns|WR-DATA   | A582DAF8 |  1/ 1 | -- | 6A110551 |  OKAY  | ---- | ------- | - | ---------- |
                      ::             AHB address transfer phase detected
                      :: sequential  AHB data    transfer phase detected FIRST
                         DATA transfer assertion time :   610761 ns
                         ADDR transfer assertion time :   610786 ns
     line ::   117 :: |              610811 ns|              610816 ns|WR-NONSEQ | A582D978 | ----- |  1 | -------- |  ----  |SINGLE|    4    | B |           0|
                      0 :: first command
     line ::   118 :: |              610791 ns|              610816 ns|RD-DATA   | A582D884 |  1/ 1 | -- | 00000000 |  OKAY  | ---- | ------- | - | ---------- |
                      ::             AHB address transfer phase detected
                      :: sequential  AHB data    transfer phase detected FIRST
                         DATA transfer assertion time :   610791 ns
                         ADDR transfer assertion time :   610811 ns
     line ::   119 :: |              610841 ns|              610846 ns|RD-NONSEQ | A582DA38 | ----- |  1 | -------- |  ----  |SINGLE|    4    | A |           0|
                      0 :: first command
     line ::   120 :: |              610816 ns|              610846 ns|WR-DATA   | A582D978 |  1/ 1 | -- | 01396073 |  OKAY  | ---- | ------- | - | ---------- |
                      ::             AHB address transfer phase detected
                      :: sequential  AHB data    transfer phase detected FIRST
                         DATA transfer assertion time :   610816 ns
                         ADDR transfer assertion time :   610841 ns
     line ::   121 :: |              610866 ns|              610871 ns|WR-NONSEQ | A582D948 | ----- |  1 | -------- |  ----  |SINGLE|    4    | 5 |           0|
                      0 :: first command
     line ::   122 :: |              610846 ns|              610871 ns|RD-DATA   | A582DA38 |  1/ 1 | -- | 00000000 |  OKAY  | ---- | ------- | - | ---------- |
                      ::             AHB address transfer phase detected
                      :: sequential  AHB data    transfer phase detected FIRST
                         DATA transfer assertion time :   610846 ns
                         ADDR transfer assertion time :   610866 ns
     line ::   123 :: |              610896 ns|              610901 ns|RD-NONSEQ | A582D9E8 | ----- |  1 | -------- |  ----  |SINGLE|    4    | 9 |           0|
                      0 :: first command
     line ::   124 :: |              610871 ns|              610901 ns|WR-DATA   | A582D948 |  1/ 1 | -- | 50A33132 |  OKAY  | ---- | ------- | - | ---------- |
                      ::             AHB address transfer phase detected
                      :: sequential  AHB data    transfer phase detected FIRST
                         DATA transfer assertion time :   610871 ns
                         ADDR transfer assertion time :   610896 ns
     line ::   125 :: |              610921 ns|              610926 ns|WR-NONSEQ | A582DA9C | ----- |  1 | -------- |  ----  |SINGLE|    4    | 2 |           0|
                      0 :: first command
     line ::   126 :: |              610901 ns|              610926 ns|RD-DATA   | A582D9E8 |  1/ 1 | -- | 00000000 |  OKAY  | ---- | ------- | - | ---------- |
                      ::             AHB address transfer phase detected
                      :: sequential  AHB data    transfer phase detected FIRST
                         DATA transfer assertion time :   610901 ns
                         ADDR transfer assertion time :   610921 ns
     line ::   127 :: |              610951 ns|              610956 ns|RD-NONSEQ | A582D8B4 | ----- |  1 | -------- |  ----  |SINGLE|    4    | 9 |           0|
                      0 :: first command
     line ::   128 :: |              610926 ns|              610956 ns|WR-DATA   | A582DA9C |  1/ 1 | -- | C7AFC5CB |  OKAY  | ---- | ------- | - | ---------- |
                      ::             AHB address transfer phase detected
                      :: sequential  AHB data    transfer phase detected FIRST
                         DATA transfer assertion time :   610926 ns
                         ADDR transfer assertion time :   610951 ns
     line ::   129 :: |              610976 ns|              610981 ns|WR-NONSEQ | A582DA04 | ----- |  1 | -------- |  ----  |SINGLE|    4    | 3 |           0|
                      0 :: first command
     line ::   130 :: |              610956 ns|              610981 ns|RD-DATA   | A582D8B4 |  1/ 1 | -- | 00000000 |  OKAY  | ---- | ------- | - | ---------- |
                      ::             AHB address transfer phase detected
                      :: sequential  AHB data    transfer phase detected FIRST
                         DATA transfer assertion time :   610956 ns
                         ADDR transfer assertion time :   610976 ns
     line ::   131 :: |              611006 ns|              611011 ns|RD-NONSEQ | A582DAD4 | ----- |  1 | -------- |  ----  |SINGLE|    4    | 9 |           0|
                      0 :: first command
     line ::   132 :: |              610981 ns|              611011 ns|WR-DATA   | A582DA04 |  1/ 1 | -- | 5A90E7ED |  OKAY  | ---- | ------- | - | ---------- |
                      ::             AHB address transfer phase detected
                      :: sequential  AHB data    transfer phase detected FIRST
                         DATA transfer assertion time :   610981 ns
                         ADDR transfer assertion time :   611006 ns
     line ::   133 :: |              611031 ns|              611036 ns|WR-NONSEQ | A582DA20 | ----- |  1 | -------- |  ----  |SINGLE|    4    | F |           0|
                      0 :: first command
     line ::   134 :: |              611011 ns|              611036 ns|RD-DATA   | A582DAD4 |  1/ 1 | -- | 00000000 |  OKAY  | ---- | ------- | - | ---------- |
                      ::             AHB address transfer phase detected
                      :: sequential  AHB data    transfer phase detected FIRST
                         DATA transfer assertion time :   611011 ns
                         ADDR transfer assertion time :   611031 ns
     line ::   135 :: |              611061 ns|              611066 ns|RD-NONSEQ | A582D848 | ----- |  1 | -------- |  ----  |SINGLE|    4    | E |           0|
                      0 :: first command
     line ::   136 :: |              611036 ns|              611066 ns|WR-DATA   | A582DA20 |  1/ 1 | -- | 8D5A0BF8 |  OKAY  | ---- | ------- | - | ---------- |
                      ::             AHB address transfer phase detected
                      :: sequential  AHB data    transfer phase detected FIRST
                         DATA transfer assertion time :   611036 ns
                         ADDR transfer assertion time :   611061 ns
     line ::   137 :: |              611086 ns|              611091 ns|WR-NONSEQ | A582D818 | ----- |  1 | -------- |  ----  |SINGLE|    4    | E |           0|
                      0 :: first command
     line ::   138 :: |              611066 ns|              611091 ns|RD-DATA   | A582D848 |  1/ 1 | -- | 00000000 |  OKAY  | ---- | ------- | - | ---------- |
                      ::             AHB address transfer phase detected
                      :: sequential  AHB data    transfer phase detected FIRST
                         DATA transfer assertion time :   611066 ns
                         ADDR transfer assertion time :   611086 ns
     line ::   139 :: |              611116 ns|              611121 ns|RD-NONSEQ | A582DB88 | ----- |  1 | -------- |  ----  |SINGLE|    4    | E |           0|
                      0 :: first command
     line ::   140 :: |              611091 ns|              611121 ns|WR-DATA   | A582D818 |  1/ 1 | -- | D207AC6A |  OKAY  | ---- | ------- | - | ---------- |
                      ::             AHB address transfer phase detected
                      :: sequential  AHB data    transfer phase detected FIRST
                         DATA transfer assertion time :   611091 ns
                         ADDR transfer assertion time :   611116 ns
     line ::   141 :: |              611141 ns|              611146 ns|WR-NONSEQ | A582DAC0 | ----- |  1 | -------- |  ----  |SINGLE|    4    | C |           0|
                      0 :: first command
     line ::   142 :: |              611121 ns|              611146 ns|RD-DATA   | A582DB88 |  1/ 1 | -- | 00000000 |  OKAY  | ---- | ------- | - | ---------- |
                      ::             AHB address transfer phase detected
                      :: sequential  AHB data    transfer phase detected FIRST
                         DATA transfer assertion time :   611121 ns
                         ADDR transfer assertion time :   611141 ns
     line ::   143 :: |              611171 ns|              611176 ns|RD-NONSEQ | A582D98C | ----- |  1 | -------- |  ----  |SINGLE|    4    | D |           0|
                      0 :: first command
     line ::   144 :: |              611146 ns|              611176 ns|WR-DATA   | A582DAC0 |  1/ 1 | -- | 03AE6918 |  OKAY  | ---- | ------- | - | ---------- |
                      ::             AHB address transfer phase detected
                      :: sequential  AHB data    transfer phase detected FIRST
                         DATA transfer assertion time :   611146 ns
                         ADDR transfer assertion time :   611171 ns
     line ::   145 :: |              611196 ns|              611201 ns|WR-NONSEQ | A582D998 | ----- |  1 | -------- |  ----  |SINGLE|    4    | 1 |           0|
                      0 :: first command
     line ::   146 :: |              611176 ns|              611201 ns|RD-DATA   | A582D98C |  1/ 1 | -- | 00000000 |  OKAY  | ---- | ------- | - | ---------- |
                      ::             AHB address transfer phase detected
                      :: sequential  AHB data    transfer phase detected FIRST
                         DATA transfer assertion time :   611176 ns
                         ADDR transfer assertion time :   611196 ns
     line ::   147 :: |              611226 ns|              611231 ns|RD-NONSEQ | A582DB14 | ----- |  1 | -------- |  ----  |SINGLE|    4    | F |           0|
                      0 :: first command
     line ::   148 :: |              611201 ns|              611231 ns|WR-DATA   | A582D998 |  1/ 1 | -- | 7B83130E |  OKAY  | ---- | ------- | - | ---------- |
                      ::             AHB address transfer phase detected
                      :: sequential  AHB data    transfer phase detected FIRST
                         DATA transfer assertion time :   611201 ns
                         ADDR transfer assertion time :   611226 ns
     line ::   149 :: |              611251 ns|              611256 ns|WR-NONSEQ | A582DB84 | ----- |  1 | -------- |  ----  |SINGLE|    4    | A |           0|
                      0 :: first command
     line ::   150 :: |              611231 ns|              611256 ns|RD-DATA   | A582DB14 |  1/ 1 | -- | 00000000 |  OKAY  | ---- | ------- | - | ---------- |
                      ::             AHB address transfer phase detected
                      :: sequential  AHB data    transfer phase detected FIRST
                         DATA transfer assertion time :   611231 ns
                         ADDR transfer assertion time :   611251 ns
     line ::   151 :: |              611281 ns|              611286 ns|RD-NONSEQ | A582D904 | ----- |  1 | -------- |  ----  |SINGLE|    4    | F |           0|
                      0 :: first command
     line ::   152 :: |              611256 ns|              611286 ns|WR-DATA   | A582DB84 |  1/ 1 | -- | 8FD2044E |  OKAY  | ---- | ------- | - | ---------- |
                      ::             AHB address transfer phase detected
                      :: sequential  AHB data    transfer phase detected FIRST
                         DATA transfer assertion time :   611256 ns
                         ADDR transfer assertion time :   611281 ns
     line ::   153 :: |              611306 ns|              611311 ns|WR-NONSEQ | A582D884 | ----- |  1 | -------- |  ----  |SINGLE|    4    | F |           0|
                      0 :: first command
     line ::   154 :: |              611286 ns|              611311 ns|RD-DATA   | A582D904 |  1/ 1 | -- | 00000000 |  OKAY  | ---- | ------- | - | ---------- |
                      ::             AHB address transfer phase detected
                      :: sequential  AHB data    transfer phase detected FIRST
                         DATA transfer assertion time :   611286 ns
                         ADDR transfer assertion time :   611306 ns
     line ::   155 :: |              611336 ns|              611341 ns|RD-NONSEQ | A582D804 | ----- |  1 | -------- |  ----  |SINGLE|    4    | 5 |           0|
                      0 :: first command
     line ::   156 :: |              611311 ns|              611341 ns|WR-DATA   | A582D884 |  1/ 1 | -- | 9F9AE76F |  OKAY  | ---- | ------- | - | ---------- |
                      ::             AHB address transfer phase detected
                      :: sequential  AHB data    transfer phase detected FIRST
                         DATA transfer assertion time :   611311 ns
                         ADDR transfer assertion time :   611336 ns
     line ::   157 :: |              611361 ns|              611366 ns|WR-NONSEQ | A582D92C | ----- |  1 | -------- |  ----  |SINGLE|    4    | 5 |           0|
                      0 :: first command
     line ::   158 :: |              611341 ns|              611366 ns|RD-DATA   | A582D804 |  1/ 1 | -- | 00000000 |  OKAY  | ---- | ------- | - | ---------- |
                      ::             AHB address transfer phase detected
                      :: sequential  AHB data    transfer phase detected FIRST
                         DATA transfer assertion time :   611341 ns
                         ADDR transfer assertion time :   611361 ns
     line ::   159 :: |              611391 ns|              611396 ns|RD-NONSEQ | A582DB7C | ----- |  1 | -------- |  ----  |SINGLE|    4    | 2 |           0|
                      0 :: first command
     line ::   160 :: |              611366 ns|              611396 ns|WR-DATA   | A582D92C |  1/ 1 | -- | 39072169 |  OKAY  | ---- | ------- | - | ---------- |
                      ::             AHB address transfer phase detected
                      :: sequential  AHB data    transfer phase detected FIRST
                         DATA transfer assertion time :   611366 ns
                         ADDR transfer assertion time :   611391 ns
     line ::   161 :: |              611416 ns|              611421 ns|WR-NONSEQ | A582DB78 | ----- |  1 | -------- |  ----  |SINGLE|    4    | A |           0|
                      0 :: first command
     line ::   162 :: |              611396 ns|              611421 ns|RD-DATA   | A582DB7C |  1/ 1 | -- | 706E8832 |  OKAY  | ---- | ------- | - | ---------- |
                      ::             AHB address transfer phase detected
                      :: sequential  AHB data    transfer phase detected FIRST
                         DATA transfer assertion time :   611396 ns
                         ADDR transfer assertion time :   611416 ns
     line ::   163 :: |              611446 ns|              611451 ns|RD-NONSEQ | A582D9EC | ----- |  1 | -------- |  ----  |SINGLE|    4    | D |           0|
                      0 :: first command
     line ::   164 :: |              611421 ns|              611451 ns|WR-DATA   | A582DB78 |  1/ 1 | -- | 01D8CEDC |  OKAY  | ---- | ------- | - | ---------- |
                      ::             AHB address transfer phase detected
                      :: sequential  AHB data    transfer phase detected FIRST
                         DATA transfer assertion time :   611421 ns
                         ADDR transfer assertion time :   611446 ns
     line ::   165 :: |              611471 ns|              611476 ns|WR-NONSEQ | A582D8C8 | ----- |  1 | -------- |  ----  |SINGLE|    4    | A |           0|
                      0 :: first command
     line ::   166 :: |              611451 ns|              611476 ns|RD-DATA   | A582D9EC |  1/ 1 | -- | 00000000 |  OKAY  | ---- | ------- | - | ---------- |
                      ::             AHB address transfer phase detected
                      :: sequential  AHB data    transfer phase detected FIRST
                         DATA transfer assertion time :   611451 ns
                         ADDR transfer assertion time :   611471 ns
     line ::   167 :: |              611501 ns|              611506 ns|RD-NONSEQ | A582DB0C | ----- |  1 | -------- |  ----  |SINGLE|    4    | C |           0|
                      0 :: first command
     line ::   168 :: |              611476 ns|              611506 ns|WR-DATA   | A582D8C8 |  1/ 1 | -- | 3E71B91B |  OKAY  | ---- | ------- | - | ---------- |
                      ::             AHB address transfer phase detected
                      :: sequential  AHB data    transfer phase detected FIRST
                         DATA transfer assertion time :   611476 ns
                         ADDR transfer assertion time :   611501 ns
     line ::   169 :: |              611526 ns|              611531 ns|WR-NONSEQ | A582DA20 | ----- |  1 | -------- |  ----  |SINGLE|    4    | B |           0|
                      0 :: first command
     line ::   170 :: |              611506 ns|              611531 ns|RD-DATA   | A582DB0C |  1/ 1 | -- | 00000000 |  OKAY  | ---- | ------- | - | ---------- |
                      ::             AHB address transfer phase detected
                      :: sequential  AHB data    transfer phase detected FIRST
                         DATA transfer assertion time :   611506 ns
                         ADDR transfer assertion time :   611526 ns
     line ::   171 :: |              611556 ns|              611561 ns|RD-NONSEQ | A582D9C0 | ----- |  1 | -------- |  ----  |SINGLE|    4    | 8 |           0|
                      0 :: first command
     line ::   172 :: |              611531 ns|              611561 ns|WR-DATA   | A582DA20 |  1/ 1 | -- | 682270B8 |  OKAY  | ---- | ------- | - | ---------- |
                      ::             AHB address transfer phase detected
                      :: sequential  AHB data    transfer phase detected FIRST
                         DATA transfer assertion time :   611531 ns
                         ADDR transfer assertion time :   611556 ns
     line ::   173 :: |              611581 ns|              611586 ns|WR-NONSEQ | A582DA4C | ----- |  1 | -------- |  ----  |SINGLE|    4    | 2 |           0|
                      0 :: first command
     line ::   174 :: |              611561 ns|              611586 ns|RD-DATA   | A582D9C0 |  1/ 1 | -- | 00000000 |  OKAY  | ---- | ------- | - | ---------- |
                      ::             AHB address transfer phase detected
                      :: sequential  AHB data    transfer phase detected FIRST
                         DATA transfer assertion time :   611561 ns
                         ADDR transfer assertion time :   611581 ns
     line ::   175 :: |              611611 ns|              611616 ns|RD-NONSEQ | A582D964 | ----- |  1 | -------- |  ----  |SINGLE|    4    | F |           0|
                      0 :: first command
     line ::   176 :: |              611586 ns|              611616 ns|WR-DATA   | A582DA4C |  1/ 1 | -- | 4958B481 |  OKAY  | ---- | ------- | - | ---------- |
                      ::             AHB address transfer phase detected
                      :: sequential  AHB data    transfer phase detected FIRST
                         DATA transfer assertion time :   611586 ns
                         ADDR transfer assertion time :   611611 ns
     line ::   177 :: |              611636 ns|              611641 ns|WR-NONSEQ | A582D9C8 | ----- |  1 | -------- |  ----  |SINGLE|    4    | 5 |           0|
                      0 :: first command
     line ::   178 :: |              611616 ns|              611641 ns|RD-DATA   | A582D964 |  1/ 1 | -- | 00000000 |  OKAY  | ---- | ------- | - | ---------- |
                      ::             AHB address transfer phase detected
                      :: sequential  AHB data    transfer phase detected FIRST
                         DATA transfer assertion time :   611616 ns
                         ADDR transfer assertion time :   611636 ns
     line ::   179 :: |              611666 ns|              611671 ns|RD-NONSEQ | A582D8A8 | ----- |  1 | -------- |  ----  |SINGLE|    4    | C |           0|
                      0 :: first command
     line ::   180 :: |              611641 ns|              611671 ns|WR-DATA   | A582D9C8 |  1/ 1 | -- | 6609E888 |  OKAY  | ---- | ------- | - | ---------- |
                      ::             AHB address transfer phase detected
                      :: sequential  AHB data    transfer phase detected FIRST
                         DATA transfer assertion time :   611641 ns
                         ADDR transfer assertion time :   611666 ns
     line ::   181 :: |              611691 ns|              611696 ns|WR-NONSEQ | A582DA54 | ----- |  1 | -------- |  ----  |SINGLE|    4    | B |           0|
                      0 :: first command
     line ::   182 :: |              611671 ns|              611696 ns|RD-DATA   | A582D8A8 |  1/ 1 | -- | 00000000 |  OKAY  | ---- | ------- | - | ---------- |
                      ::             AHB address transfer phase detected
                      :: sequential  AHB data    transfer phase detected FIRST
                         DATA transfer assertion time :   611671 ns
                         ADDR transfer assertion time :   611691 ns
     line ::   183 :: |              611721 ns|              611726 ns|RD-NONSEQ | A582D94C | ----- |  1 | -------- |  ----  |SINGLE|    4    | 4 |           0|
                      0 :: first command
     line ::   184 :: |              611696 ns|              611726 ns|WR-DATA   | A582DA54 |  1/ 1 | -- | CDF9AC12 |  OKAY  | ---- | ------- | - | ---------- |
                      ::             AHB address transfer phase detected
                      :: sequential  AHB data    transfer phase detected FIRST
                         DATA transfer assertion time :   611696 ns
                         ADDR transfer assertion time :   611721 ns
     line ::   185 :: |              611746 ns|              611751 ns|WR-NONSEQ | A582DA94 | ----- |  1 | -------- |  ----  |SINGLE|    4    | 2 |           0|
                      0 :: first command
     line ::   186 :: |              611726 ns|              611751 ns|RD-DATA   | A582D94C |  1/ 1 | -- | 00000000 |  OKAY  | ---- | ------- | - | ---------- |
                      ::             AHB address transfer phase detected
                      :: sequential  AHB data    transfer phase detected FIRST
                         DATA transfer assertion time :   611726 ns
                         ADDR transfer assertion time :   611746 ns
     line ::   187 :: |              611776 ns|              611781 ns|RD-NONSEQ | A582DBB4 | ----- |  1 | -------- |  ----  |SINGLE|    4    | C |           0|
                      0 :: first command
     line ::   188 :: |              611751 ns|              611781 ns|WR-DATA   | A582DA94 |  1/ 1 | -- | 09C2B53E |  OKAY  | ---- | ------- | - | ---------- |
                      ::             AHB address transfer phase detected
                      :: sequential  AHB data    transfer phase detected FIRST
                         DATA transfer assertion time :   611751 ns
                         ADDR transfer assertion time :   611776 ns
     line ::   189 :: |              611801 ns|              611806 ns|WR-NONSEQ | A582DB1C | ----- |  1 | -------- |  ----  |SINGLE|    4    | 6 |           0|
                      0 :: first command
     line ::   190 :: |              611781 ns|              611806 ns|RD-DATA   | A582DBB4 |  1/ 1 | -- | 00000000 |  OKAY  | ---- | ------- | - | ---------- |
                      ::             AHB address transfer phase detected
                      :: sequential  AHB data    transfer phase detected FIRST
                         DATA transfer assertion time :   611781 ns
                         ADDR transfer assertion time :   611801 ns
     line ::   191 :: |              611831 ns|              611836 ns|RD-NONSEQ | A582DA78 | ----- |  1 | -------- |  ----  |SINGLE|    4    | E |           0|
                      0 :: first command
     line ::   192 :: |              611806 ns|              611836 ns|WR-DATA   | A582DB1C |  1/ 1 | -- | A7287D93 |  OKAY  | ---- | ------- | - | ---------- |
                      ::             AHB address transfer phase detected
                      :: sequential  AHB data    transfer phase detected FIRST
                         DATA transfer assertion time :   611806 ns
                         ADDR transfer assertion time :   611831 ns
     line ::   193 :: |              611856 ns|              611861 ns|WR-NONSEQ | A582D804 | ----- |  1 | -------- |  ----  |SINGLE|    4    | B |           0|
                      0 :: first command
     line ::   194 :: |              611836 ns|              611861 ns|RD-DATA   | A582DA78 |  1/ 1 | -- | 00000000 |  OKAY  | ---- | ------- | - | ---------- |
                      ::             AHB address transfer phase detected
                      :: sequential  AHB data    transfer phase detected FIRST
                         DATA transfer assertion time :   611836 ns
                         ADDR transfer assertion time :   611856 ns
     line ::   195 :: |              611886 ns|              611891 ns|RD-NONSEQ | A582DA70 | ----- |  1 | -------- |  ----  |SINGLE|    4    | 6 |           0|
                      0 :: first command
     line ::   196 :: |              611861 ns|              611891 ns|WR-DATA   | A582D804 |  1/ 1 | -- | D69984EA |  OKAY  | ---- | ------- | - | ---------- |
                      ::             AHB address transfer phase detected
                      :: sequential  AHB data    transfer phase detected FIRST
                         DATA transfer assertion time :   611861 ns
                         ADDR transfer assertion time :   611886 ns
     line ::   197 :: |              611911 ns|              611916 ns|WR-NONSEQ | A582DAA8 | ----- |  1 | -------- |  ----  |SINGLE|    4    | E |           0|
                      0 :: first command
     line ::   198 :: |              611891 ns|              611916 ns|RD-DATA   | A582DA70 |  1/ 1 | -- | 8B046599 |  OKAY  | ---- | ------- | - | ---------- |
                      ::             AHB address transfer phase detected
                      :: sequential  AHB data    transfer phase detected FIRST
                         DATA transfer assertion time :   611891 ns
                         ADDR transfer assertion time :   611911 ns
     line ::   199 :: |              611941 ns|              611946 ns|RD-NONSEQ | A582D840 | ----- |  1 | -------- |  ----  |SINGLE|    4    | 0 |           0|
                      0 :: first command
     line ::   200 :: |              611916 ns|              611946 ns|WR-DATA   | A582DAA8 |  1/ 1 | -- | E4A1E8C1 |  OKAY  | ---- | ------- | - | ---------- |
                      ::             AHB address transfer phase detected
                      :: sequential  AHB data    transfer phase detected FIRST
                         DATA transfer assertion time :   611916 ns
                         ADDR transfer assertion time :   611941 ns
     line ::   201 :: |              611966 ns|              611971 ns|WR-NONSEQ | A582D8D0 | ----- |  1 | -------- |  ----  |SINGLE|    4    | 9 |           0|
                      0 :: first command
     line ::   202 :: |              611946 ns|              611971 ns|RD-DATA   | A582D840 |  1/ 1 | -- | 00000000 |  OKAY  | ---- | ------- | - | ---------- |
                      ::             AHB address transfer phase detected
                      :: sequential  AHB data    transfer phase detected FIRST
                         DATA transfer assertion time :   611946 ns
                         ADDR transfer assertion time :   611966 ns
     line ::   203 :: |              611996 ns|              612001 ns|RD-NONSEQ | A582DBDC | ----- |  1 | -------- |  ----  |SINGLE|    4    | D |           0|
                      0 :: first command
     line ::   204 :: |              611971 ns|              612001 ns|WR-DATA   | A582D8D0 |  1/ 1 | -- | 282B24CF |  OKAY  | ---- | ------- | - | ---------- |
                      ::             AHB address transfer phase detected
                      :: sequential  AHB data    transfer phase detected FIRST
                         DATA transfer assertion time :   611971 ns
                         ADDR transfer assertion time :   611996 ns
     line ::   205 :: |              612021 ns|              612026 ns|WR-NONSEQ | A582D9A8 | ----- |  1 | -------- |  ----  |SINGLE|    4    | 5 |           0|
                      0 :: first command
     line ::   206 :: |              612001 ns|              612026 ns|RD-DATA   | A582DBDC |  1/ 1 | -- | 00000000 |  OKAY  | ---- | ------- | - | ---------- |
                      ::             AHB address transfer phase detected
                      :: sequential  AHB data    transfer phase detected FIRST
                         DATA transfer assertion time :   612001 ns
                         ADDR transfer assertion time :   612021 ns
     line ::   207 :: |              612051 ns|              612056 ns|RD-NONSEQ | A582D824 | ----- |  1 | -------- |  ----  |SINGLE|    4    | D |           0|
                      0 :: first command
     line ::   208 :: |              612026 ns|              612056 ns|WR-DATA   | A582D9A8 |  1/ 1 | -- | A6E1D448 |  OKAY  | ---- | ------- | - | ---------- |
                      ::             AHB address transfer phase detected
                      :: sequential  AHB data    transfer phase detected FIRST
                         DATA transfer assertion time :   612026 ns
                         ADDR transfer assertion time :   612051 ns
     line ::   209 :: |              612076 ns|              612081 ns|WR-NONSEQ | A582DA0C | ----- |  1 | -------- |  ----  |SINGLE|    4    | F |           0|
                      0 :: first command
     line ::   210 :: |              612056 ns|              612081 ns|RD-DATA   | A582D824 |  1/ 1 | -- | 00000000 |  OKAY  | ---- | ------- | - | ---------- |
                      ::             AHB address transfer phase detected
                      :: sequential  AHB data    transfer phase detected FIRST
                         DATA transfer assertion time :   612056 ns
                         ADDR transfer assertion time :   612076 ns
     line ::   211 :: |              612106 ns|              612111 ns|RD-NONSEQ | A582D880 | ----- |  1 | -------- |  ----  |SINGLE|    4    | F |           0|
                      0 :: first command
     line ::   212 :: |              612081 ns|              612111 ns|WR-DATA   | A582DA0C |  1/ 1 | -- | 3D9B786B |  OKAY  | ---- | ------- | - | ---------- |
                      ::             AHB address transfer phase detected
                      :: sequential  AHB data    transfer phase detected FIRST
                         DATA transfer assertion time :   612081 ns
                         ADDR transfer assertion time :   612106 ns
     line ::   213 :: |              612131 ns|              612136 ns|WR-NONSEQ | A582DB9C | ----- |  1 | -------- |  ----  |SINGLE|    4    | 5 |           0|
                      0 :: first command
     line ::   214 :: |              612111 ns|              612136 ns|RD-DATA   | A582D880 |  1/ 1 | -- | 00000000 |  OKAY  | ---- | ------- | - | ---------- |
                      ::             AHB address transfer phase detected
                      :: sequential  AHB data    transfer phase detected FIRST
                         DATA transfer assertion time :   612111 ns
                         ADDR transfer assertion time :   612131 ns
     line ::   215 :: |              612161 ns|              612166 ns|RD-NONSEQ | A582D894 | ----- |  1 | -------- |  ----  |SINGLE|    4    | C |           0|
                      0 :: first command
     line ::   216 :: |              612136 ns|              612166 ns|WR-DATA   | A582DB9C |  1/ 1 | -- | 6A15DAF7 |  OKAY  | ---- | ------- | - | ---------- |
                      ::             AHB address transfer phase detected
                      :: sequential  AHB data    transfer phase detected FIRST
                         DATA transfer assertion time :   612136 ns
                         ADDR transfer assertion time :   612161 ns
     line ::   217 :: |              612186 ns|              612191 ns|WR-NONSEQ | A582D830 | ----- |  1 | -------- |  ----  |SINGLE|    4    | F |           0|
                      0 :: first command
     line ::   218 :: |              612166 ns|              612191 ns|RD-DATA   | A582D894 |  1/ 1 | -- | B845F8A9 |  OKAY  | ---- | ------- | - | ---------- |
                      ::             AHB address transfer phase detected
                      :: sequential  AHB data    transfer phase detected FIRST
                         DATA transfer assertion time :   612166 ns
                         ADDR transfer assertion time :   612186 ns
     line ::   219 :: |              612216 ns|              612221 ns|RD-NONSEQ | A582D828 | ----- |  1 | -------- |  ----  |SINGLE|    4    | 9 |           0|
                      0 :: first command
     line ::   220 :: |              612191 ns|              612221 ns|WR-DATA   | A582D830 |  1/ 1 | -- | D53DC5A9 |  OKAY  | ---- | ------- | - | ---------- |
                      ::             AHB address transfer phase detected
                      :: sequential  AHB data    transfer phase detected FIRST
                         DATA transfer assertion time :   612191 ns
                         ADDR transfer assertion time :   612216 ns
     line ::   221 :: |              612241 ns|              612246 ns|WR-NONSEQ | A582DA10 | ----- |  1 | -------- |  ----  |SINGLE|    4    | 8 |           0|
                      0 :: first command
     line ::   222 :: |              612221 ns|              612246 ns|RD-DATA   | A582D828 |  1/ 1 | -- | 00000000 |  OKAY  | ---- | ------- | - | ---------- |
                      ::             AHB address transfer phase detected
                      :: sequential  AHB data    transfer phase detected FIRST
                         DATA transfer assertion time :   612221 ns
                         ADDR transfer assertion time :   612241 ns
     line ::   223 :: |              612271 ns|              612276 ns|RD-NONSEQ | A582D9A4 | ----- |  1 | -------- |  ----  |SINGLE|    4    | 9 |           0|
                      0 :: first command
     line ::   224 :: |              612246 ns|              612276 ns|WR-DATA   | A582DA10 |  1/ 1 | -- | 3A4E5E79 |  OKAY  | ---- | ------- | - | ---------- |
                      ::             AHB address transfer phase detected
                      :: sequential  AHB data    transfer phase detected FIRST
                         DATA transfer assertion time :   612246 ns
                         ADDR transfer assertion time :   612271 ns
     line ::   225 :: |              612296 ns|              612301 ns|WR-NONSEQ | A582DA4C | ----- |  1 | -------- |  ----  |SINGLE|    4    | A |           0|
                      0 :: first command
     line ::   226 :: |              612276 ns|              612301 ns|RD-DATA   | A582D9A4 |  1/ 1 | -- | 00000000 |  OKAY  | ---- | ------- | - | ---------- |
                      ::             AHB address transfer phase detected
                      :: sequential  AHB data    transfer phase detected FIRST
                         DATA transfer assertion time :   612276 ns
                         ADDR transfer assertion time :   612296 ns
     line ::   227 :: |              612326 ns|              612331 ns|RD-NONSEQ | A582D9BC | ----- |  1 | -------- |  ----  |SINGLE|    4    | 1 |           0|
                      0 :: first command
     line ::   228 :: |              612301 ns|              612331 ns|WR-DATA   | A582DA4C |  1/ 1 | -- | 3D60422A |  OKAY  | ---- | ------- | - | ---------- |
                      ::             AHB address transfer phase detected
                      :: sequential  AHB data    transfer phase detected FIRST
                         DATA transfer assertion time :   612301 ns
                         ADDR transfer assertion time :   612326 ns
     line ::   229 :: |              612351 ns|              612356 ns|WR-NONSEQ | A582DAD0 | ----- |  1 | -------- |  ----  |SINGLE|    4    | C |           0|
                      0 :: first command
     line ::   230 :: |              612331 ns|              612356 ns|RD-DATA   | A582D9BC |  1/ 1 | -- | BB550B2B |  OKAY  | ---- | ------- | - | ---------- |
                      ::             AHB address transfer phase detected
                      :: sequential  AHB data    transfer phase detected FIRST
                         DATA transfer assertion time :   612331 ns
                         ADDR transfer assertion time :   612351 ns
     line ::   231 :: |              612381 ns|              612386 ns|RD-NONSEQ | A582D954 | ----- |  1 | -------- |  ----  |SINGLE|    4    | 8 |           0|
                      0 :: first command
     line ::   232 :: |              612356 ns|              612386 ns|WR-DATA   | A582DAD0 |  1/ 1 | -- | CD3FEB43 |  OKAY  | ---- | ------- | - | ---------- |
                      ::             AHB address transfer phase detected
                      :: sequential  AHB data    transfer phase detected FIRST
                         DATA transfer assertion time :   612356 ns
                         ADDR transfer assertion time :   612381 ns
     line ::   233 :: |              612406 ns|              612411 ns|WR-NONSEQ | A582DBE4 | ----- |  1 | -------- |  ----  |SINGLE|    4    | 8 |           0|
                      0 :: first command
     line ::   234 :: |              612386 ns|              612411 ns|RD-DATA   | A582D954 |  1/ 1 | -- | 00000000 |  OKAY  | ---- | ------- | - | ---------- |
                      ::             AHB address transfer phase detected
                      :: sequential  AHB data    transfer phase detected FIRST
                         DATA transfer assertion time :   612386 ns
                         ADDR transfer assertion time :   612406 ns
     line ::   235 :: |              612436 ns|              612441 ns|RD-NONSEQ | A582D9F4 | ----- |  1 | -------- |  ----  |SINGLE|    4    | 8 |           0|
                      0 :: first command
     line ::   236 :: |              612411 ns|              612441 ns|WR-DATA   | A582DBE4 |  1/ 1 | -- | 4F7EA062 |  OKAY  | ---- | ------- | - | ---------- |
                      ::             AHB address transfer phase detected
                      :: sequential  AHB data    transfer phase detected FIRST
                         DATA transfer assertion time :   612411 ns
                         ADDR transfer assertion time :   612436 ns
     line ::   237 :: |              612461 ns|              612466 ns|WR-NONSEQ | A582D9C4 | ----- |  1 | -------- |  ----  |SINGLE|    4    | 6 |           0|
                      0 :: first command
     line ::   238 :: |              612441 ns|              612466 ns|RD-DATA   | A582D9F4 |  1/ 1 | -- | 00000000 |  OKAY  | ---- | ------- | - | ---------- |
                      ::             AHB address transfer phase detected
                      :: sequential  AHB data    transfer phase detected FIRST
                         DATA transfer assertion time :   612441 ns
                         ADDR transfer assertion time :   612461 ns
     line ::   239 :: |              612491 ns|              612496 ns|RD-NONSEQ | A582D900 | ----- |  1 | -------- |  ----  |SINGLE|    4    | A |           0|
                      0 :: first command
     line ::   240 :: |              612466 ns|              612496 ns|WR-DATA   | A582D9C4 |  1/ 1 | -- | A0DA15D9 |  OKAY  | ---- | ------- | - | ---------- |
                      ::             AHB address transfer phase detected
                      :: sequential  AHB data    transfer phase detected FIRST
                         DATA transfer assertion time :   612466 ns
                         ADDR transfer assertion time :   612491 ns
     line ::   241 :: |              612516 ns|              612521 ns|WR-NONSEQ | A582D8E8 | ----- |  1 | -------- |  ----  |SINGLE|    4    | C |           0|
                      0 :: first command
     line ::   242 :: |              612496 ns|              612521 ns|RD-DATA   | A582D900 |  1/ 1 | -- | 00000000 |  OKAY  | ---- | ------- | - | ---------- |
                      ::             AHB address transfer phase detected
                      :: sequential  AHB data    transfer phase detected FIRST
                         DATA transfer assertion time :   612496 ns
                         ADDR transfer assertion time :   612516 ns
     line ::   243 :: |              612546 ns|              612551 ns|RD-NONSEQ | A582D948 | ----- |  1 | -------- |  ----  |SINGLE|    4    | F |           0|
                      0 :: first command
     line ::   244 :: |              612521 ns|              612551 ns|WR-DATA   | A582D8E8 |  1/ 1 | -- | E140F39B |  OKAY  | ---- | ------- | - | ---------- |
                      ::             AHB address transfer phase detected
                      :: sequential  AHB data    transfer phase detected FIRST
                         DATA transfer assertion time :   612521 ns
                         ADDR transfer assertion time :   612546 ns
     line ::   245 :: |              612571 ns|              612576 ns|WR-NONSEQ | A582DA48 | ----- |  1 | -------- |  ----  |SINGLE|    4    | A |           0|
                      0 :: first command
     line ::   246 :: |              612551 ns|              612576 ns|RD-DATA   | A582D948 |  1/ 1 | -- | 50A33132 |  OKAY  | ---- | ------- | - | ---------- |
                      ::             AHB address transfer phase detected
                      :: sequential  AHB data    transfer phase detected FIRST
                         DATA transfer assertion time :   612551 ns
                         ADDR transfer assertion time :   612571 ns
     line ::   247 :: |              612601 ns|              612606 ns|RD-NONSEQ | A582DA10 | ----- |  1 | -------- |  ----  |SINGLE|    4    | 9 |           0|
                      0 :: first command
     line ::   248 :: |              612576 ns|              612606 ns|WR-DATA   | A582DA48 |  1/ 1 | -- | 71F2094F |  OKAY  | ---- | ------- | - | ---------- |
                      ::             AHB address transfer phase detected
                      :: sequential  AHB data    transfer phase detected FIRST
                         DATA transfer assertion time :   612576 ns
                         ADDR transfer assertion time :   612601 ns
     line ::   249 :: |              612626 ns|              612631 ns|WR-NONSEQ | A582D944 | ----- |  1 | -------- |  ----  |SINGLE|    4    | 5 |           0|
                      0 :: first command
     line ::   250 :: |              612606 ns|              612631 ns|RD-DATA   | A582DA10 |  1/ 1 | -- | 3A4E5E79 |  OKAY  | ---- | ------- | - | ---------- |
                      ::             AHB address transfer phase detected
                      :: sequential  AHB data    transfer phase detected FIRST
                         DATA transfer assertion time :   612606 ns
                         ADDR transfer assertion time :   612626 ns
     line ::   251 :: |              612656 ns|              612661 ns|RD-NONSEQ | A582DB50 | ----- |  1 | -------- |  ----  |SINGLE|    4    | 4 |           0|
                      0 :: first command
     line ::   252 :: |              612631 ns|              612661 ns|WR-DATA   | A582D944 |  1/ 1 | -- | B2E466B7 |  OKAY  | ---- | ------- | - | ---------- |
                      ::             AHB address transfer phase detected
                      :: sequential  AHB data    transfer phase detected FIRST
                         DATA transfer assertion time :   612631 ns
                         ADDR transfer assertion time :   612656 ns
     line ::   253 :: |              612681 ns|              612686 ns|WR-NONSEQ | A582D830 | ----- |  1 | -------- |  ----  |SINGLE|    4    | 9 |           0|
                      0 :: first command
     line ::   254 :: |              612661 ns|              612686 ns|RD-DATA   | A582DB50 |  1/ 1 | -- | 00000000 |  OKAY  | ---- | ------- | - | ---------- |
                      ::             AHB address transfer phase detected
                      :: sequential  AHB data    transfer phase detected FIRST
                         DATA transfer assertion time :   612661 ns
                         ADDR transfer assertion time :   612681 ns
     line ::   255 :: |              612711 ns|              612716 ns|RD-NONSEQ | A582DAD8 | ----- |  1 | -------- |  ----  |SINGLE|    4    | E |           0|
                      0 :: first command
     line ::   256 :: |              612686 ns|              612716 ns|WR-DATA   | A582D830 |  1/ 1 | -- | 57720BD4 |  OKAY  | ---- | ------- | - | ---------- |
                      ::             AHB address transfer phase detected
                      :: sequential  AHB data    transfer phase detected FIRST
                         DATA transfer assertion time :   612686 ns
                         ADDR transfer assertion time :   612711 ns
     line ::   257 :: |              612736 ns|              612741 ns|WR-NONSEQ | A582D8B8 | ----- |  1 | -------- |  ----  |SINGLE|    4    | 2 |           0|
                      0 :: first command
     line ::   258 :: |              612716 ns|              612741 ns|RD-DATA   | A582DAD8 |  1/ 1 | -- | 00000000 |  OKAY  | ---- | ------- | - | ---------- |
                      ::             AHB address transfer phase detected
                      :: sequential  AHB data    transfer phase detected FIRST
                         DATA transfer assertion time :   612716 ns
                         ADDR transfer assertion time :   612736 ns
     line ::   259 :: |              612766 ns|              612771 ns|RD-NONSEQ | A582D960 | ----- |  1 | -------- |  ----  |SINGLE|    4    | D |           0|
                      0 :: first command
     line ::   260 :: |              612741 ns|              612771 ns|WR-DATA   | A582D8B8 |  1/ 1 | -- | 9111A852 |  OKAY  | ---- | ------- | - | ---------- |
                      ::             AHB address transfer phase detected
                      :: sequential  AHB data    transfer phase detected FIRST
                         DATA transfer assertion time :   612741 ns
                         ADDR transfer assertion time :   612766 ns
     line ::   261 :: |              612791 ns|              612796 ns|WR-NONSEQ | A582D840 | ----- |  1 | -------- |  ----  |SINGLE|    4    | D |           0|
                      0 :: first command
     line ::   262 :: |              612771 ns|              612796 ns|RD-DATA   | A582D960 |  1/ 1 | -- | 00000000 |  OKAY  | ---- | ------- | - | ---------- |
                      ::             AHB address transfer phase detected
                      :: sequential  AHB data    transfer phase detected FIRST
                         DATA transfer assertion time :   612771 ns
                         ADDR transfer assertion time :   612791 ns
     line ::   263 :: |              612821 ns|              612826 ns|RD-NONSEQ | A582D9B0 | ----- |  1 | -------- |  ----  |SINGLE|    4    | 3 |           0|
                      0 :: first command
     line ::   264 :: |              612796 ns|              612826 ns|WR-DATA   | A582D840 |  1/ 1 | -- | B55AE598 |  OKAY  | ---- | ------- | - | ---------- |
                      ::             AHB address transfer phase detected
                      :: sequential  AHB data    transfer phase detected FIRST
                         DATA transfer assertion time :   612796 ns
                         ADDR transfer assertion time :   612821 ns
     line ::   265 :: |              612846 ns|              612851 ns|WR-NONSEQ | A582D9D4 | ----- |  1 | -------- |  ----  |SINGLE|    4    | 8 |           0|
                      0 :: first command
     line ::   266 :: |              612826 ns|              612851 ns|RD-DATA   | A582D9B0 |  1/ 1 | -- | 00000000 |  OKAY  | ---- | ------- | - | ---------- |
                      ::             AHB address transfer phase detected
                      :: sequential  AHB data    transfer phase detected FIRST
                         DATA transfer assertion time :   612826 ns
                         ADDR transfer assertion time :   612846 ns
     line ::   267 :: |              612876 ns|              612881 ns|RD-NONSEQ | A582DA74 | ----- |  1 | -------- |  ----  |SINGLE|    4    | A |           0|
                      0 :: first command
     line ::   268 :: |              612851 ns|              612881 ns|WR-DATA   | A582D9D4 |  1/ 1 | -- | E12E459A |  OKAY  | ---- | ------- | - | ---------- |
                      ::             AHB address transfer phase detected
                      :: sequential  AHB data    transfer phase detected FIRST
                         DATA transfer assertion time :   612851 ns
                         ADDR transfer assertion time :   612876 ns
     line ::   269 :: |              612901 ns|              612906 ns|WR-NONSEQ | A582D934 | ----- |  1 | -------- |  ----  |SINGLE|    4    | B |           0|
                      0 :: first command
     line ::   270 :: |              612881 ns|              612906 ns|RD-DATA   | A582DA74 |  1/ 1 | -- | 00000000 |  OKAY  | ---- | ------- | - | ---------- |
                      ::             AHB address transfer phase detected
                      :: sequential  AHB data    transfer phase detected FIRST
                         DATA transfer assertion time :   612881 ns
                         ADDR transfer assertion time :   612901 ns
     line ::   271 :: |              612931 ns|              612936 ns|RD-NONSEQ | A582D95C | ----- |  1 | -------- |  ----  |SINGLE|    4    | C |           0|
                      0 :: first command
     line ::   272 :: |              612906 ns|              612936 ns|WR-DATA   | A582D934 |  1/ 1 | -- | 2B225501 |  OKAY  | ---- | ------- | - | ---------- |
                      ::             AHB address transfer phase detected
                      :: sequential  AHB data    transfer phase detected FIRST
                         DATA transfer assertion time :   612906 ns
                         ADDR transfer assertion time :   612931 ns
     line ::   273 :: |              612956 ns|              612961 ns|WR-NONSEQ | A582D9D8 | ----- |  1 | -------- |  ----  |SINGLE|    4    | 6 |           0|
                      0 :: first command
     line ::   274 :: |              612936 ns|              612961 ns|RD-DATA   | A582D95C |  1/ 1 | -- | 00000000 |  OKAY  | ---- | ------- | - | ---------- |
                      ::             AHB address transfer phase detected
                      :: sequential  AHB data    transfer phase detected FIRST
                         DATA transfer assertion time :   612936 ns
                         ADDR transfer assertion time :   612956 ns
     line ::   275 :: |              612986 ns|              612991 ns|RD-NONSEQ | A582D97C | ----- |  1 | -------- |  ----  |SINGLE|    4    | A |           0|
                      0 :: first command
     line ::   276 :: |              612961 ns|              612991 ns|WR-DATA   | A582D9D8 |  1/ 1 | -- | 73B1D70F |  OKAY  | ---- | ------- | - | ---------- |
                      ::             AHB address transfer phase detected
                      :: sequential  AHB data    transfer phase detected FIRST
                         DATA transfer assertion time :   612961 ns
                         ADDR transfer assertion time :   612986 ns
     line ::   277 :: |              613011 ns|              613016 ns|WR-NONSEQ | A582DBA0 | ----- |  1 | -------- |  ----  |SINGLE|    4    | B |           0|
                      0 :: first command
     line ::   278 :: |              612991 ns|              613016 ns|RD-DATA   | A582D97C |  1/ 1 | -- | 00000000 |  OKAY  | ---- | ------- | - | ---------- |
                      ::             AHB address transfer phase detected
                      :: sequential  AHB data    transfer phase detected FIRST
                         DATA transfer assertion time :   612991 ns
                         ADDR transfer assertion time :   613011 ns
     line ::   279 :: |              613041 ns|              613046 ns|RD-NONSEQ | A582DA3C | ----- |  1 | -------- |  ----  |SINGLE|    4    | 4 |           0|
                      0 :: first command
     line ::   280 :: |              613016 ns|              613046 ns|WR-DATA   | A582DBA0 |  1/ 1 | -- | 4C06F32C |  OKAY  | ---- | ------- | - | ---------- |
                      ::             AHB address transfer phase detected
                      :: sequential  AHB data    transfer phase detected FIRST
                         DATA transfer assertion time :   613016 ns
                         ADDR transfer assertion time :   613041 ns
     line ::   281 :: |              613066 ns|              613071 ns|WR-NONSEQ | A582D808 | ----- |  1 | -------- |  ----  |SINGLE|    4    | 1 |           0|
                      0 :: first command
     line ::   282 :: |              613046 ns|              613071 ns|RD-DATA   | A582DA3C |  1/ 1 | -- | 00000000 |  OKAY  | ---- | ------- | - | ---------- |
                      ::             AHB address transfer phase detected
                      :: sequential  AHB data    transfer phase detected FIRST
                         DATA transfer assertion time :   613046 ns
                         ADDR transfer assertion time :   613066 ns
     line ::   283 :: |              613096 ns|              613101 ns|RD-NONSEQ | A582DB3C | ----- |  1 | -------- |  ----  |SINGLE|    4    | A |           0|
                      0 :: first command
     line ::   284 :: |              613071 ns|              613101 ns|WR-DATA   | A582D808 |  1/ 1 | -- | 219709F6 |  OKAY  | ---- | ------- | - | ---------- |
                      ::             AHB address transfer phase detected
                      :: sequential  AHB data    transfer phase detected FIRST
                         DATA transfer assertion time :   613071 ns
                         ADDR transfer assertion time :   613096 ns
     line ::   285 :: |              613121 ns|              613126 ns|WR-NONSEQ | A582D868 | ----- |  1 | -------- |  ----  |SINGLE|    4    | 7 |           0|
                      0 :: first command
     line ::   286 :: |              613101 ns|              613126 ns|RD-DATA   | A582DB3C |  1/ 1 | -- | 00000000 |  OKAY  | ---- | ------- | - | ---------- |
                      ::             AHB address transfer phase detected
                      :: sequential  AHB data    transfer phase detected FIRST
                         DATA transfer assertion time :   613101 ns
                         ADDR transfer assertion time :   613121 ns
     line ::   287 :: |              613151 ns|              613156 ns|RD-NONSEQ | A582D92C | ----- |  1 | -------- |  ----  |SINGLE|    4    | 7 |           0|
                      0 :: first command
     line ::   288 :: |              613126 ns|              613156 ns|WR-DATA   | A582D868 |  1/ 1 | -- | 7C135306 |  OKAY  | ---- | ------- | - | ---------- |
                      ::             AHB address transfer phase detected
                      :: sequential  AHB data    transfer phase detected FIRST
                         DATA transfer assertion time :   613126 ns
                         ADDR transfer assertion time :   613151 ns
     line ::   289 :: |              613176 ns|              613181 ns|WR-NONSEQ | A582DBF4 | ----- |  1 | -------- |  ----  |SINGLE|    4    | E |           0|
                      0 :: first command
     line ::   290 :: |              613156 ns|              613181 ns|RD-DATA   | A582D92C |  1/ 1 | -- | 39072169 |  OKAY  | ---- | ------- | - | ---------- |
                      ::             AHB address transfer phase detected
                      :: sequential  AHB data    transfer phase detected FIRST
                         DATA transfer assertion time :   613156 ns
                         ADDR transfer assertion time :   613176 ns
     line ::   291 :: |              613206 ns|              613211 ns|RD-NONSEQ | A582D858 | ----- |  1 | -------- |  ----  |SINGLE|    4    | 2 |           0|
                      0 :: first command
     line ::   292 :: |              613181 ns|              613211 ns|WR-DATA   | A582DBF4 |  1/ 1 | -- | 797742A6 |  OKAY  | ---- | ------- | - | ---------- |
                      ::             AHB address transfer phase detected
                      :: sequential  AHB data    transfer phase detected FIRST
                         DATA transfer assertion time :   613181 ns
                         ADDR transfer assertion time :   613206 ns
     line ::   293 :: |              613231 ns|              613236 ns|WR-NONSEQ | A582D918 | ----- |  1 | -------- |  ----  |SINGLE|    4    | A |           0|
                      0 :: first command
     line ::   294 :: |              613211 ns|              613236 ns|RD-DATA   | A582D858 |  1/ 1 | -- | 00000000 |  OKAY  | ---- | ------- | - | ---------- |
                      ::             AHB address transfer phase detected
                      :: sequential  AHB data    transfer phase detected FIRST
                         DATA transfer assertion time :   613211 ns
                         ADDR transfer assertion time :   613231 ns
     line ::   295 :: |              613261 ns|              613266 ns|RD-NONSEQ | A582DA38 | ----- |  1 | -------- |  ----  |SINGLE|    4    | 6 |           0|
                      0 :: first command
     line ::   296 :: |              613236 ns|              613266 ns|WR-DATA   | A582D918 |  1/ 1 | -- | CAE67641 |  OKAY  | ---- | ------- | - | ---------- |
                      ::             AHB address transfer phase detected
                      :: sequential  AHB data    transfer phase detected FIRST
                         DATA transfer assertion time :   613236 ns
                         ADDR transfer assertion time :   613261 ns
     line ::   297 :: |              613286 ns|              613291 ns|WR-NONSEQ | A582D89C | ----- |  1 | -------- |  ----  |SINGLE|    4    | E |           0|
                      0 :: first command
     line ::   298 :: |              613266 ns|              613291 ns|RD-DATA   | A582DA38 |  1/ 1 | -- | 00000000 |  OKAY  | ---- | ------- | - | ---------- |
                      ::             AHB address transfer phase detected
                      :: sequential  AHB data    transfer phase detected FIRST
                         DATA transfer assertion time :   613266 ns
                         ADDR transfer assertion time :   613286 ns
     line ::   299 :: |              613316 ns|              613321 ns|RD-NONSEQ | A582DA38 | ----- |  1 | -------- |  ----  |SINGLE|    4    | A |           0|
                      0 :: first command
     line ::   300 :: |              613291 ns|              613321 ns|WR-DATA   | A582D89C |  1/ 1 | -- | BC977669 |  OKAY  | ---- | ------- | - | ---------- |
                      ::             AHB address transfer phase detected
                      :: sequential  AHB data    transfer phase detected FIRST
                         DATA transfer assertion time :   613291 ns
                         ADDR transfer assertion time :   613316 ns
     line ::   301 :: |              613341 ns|              613346 ns|WR-NONSEQ | A582D95C | ----- |  1 | -------- |  ----  |SINGLE|    4    | C |           0|
                      0 :: first command
     line ::   302 :: |              613321 ns|              613346 ns|RD-DATA   | A582DA38 |  1/ 1 | -- | 00000000 |  OKAY  | ---- | ------- | - | ---------- |
                      ::             AHB address transfer phase detected
                      :: sequential  AHB data    transfer phase detected FIRST
                         DATA transfer assertion time :   613321 ns
                         ADDR transfer assertion time :   613341 ns
     line ::   303 :: |              613371 ns|              613376 ns|RD-NONSEQ | A582D890 | ----- |  1 | -------- |  ----  |SINGLE|    4    | 4 |           0|
                      0 :: first command
     line ::   304 :: |              613346 ns|              613376 ns|WR-DATA   | A582D95C |  1/ 1 | -- | 05B89C1D |  OKAY  | ---- | ------- | - | ---------- |
                      ::             AHB address transfer phase detected
                      :: sequential  AHB data    transfer phase detected FIRST
                         DATA transfer assertion time :   613346 ns
                         ADDR transfer assertion time :   613371 ns
     line ::   305 :: |              613396 ns|              613401 ns|WR-NONSEQ | A582DBB4 | ----- |  1 | -------- |  ----  |SINGLE|    4    | 9 |           0|
                      0 :: first command
     line ::   306 :: |              613376 ns|              613401 ns|RD-DATA   | A582D890 |  1/ 1 | -- | 00000000 |  OKAY  | ---- | ------- | - | ---------- |
                      ::             AHB address transfer phase detected
                      :: sequential  AHB data    transfer phase detected FIRST
                         DATA transfer assertion time :   613376 ns
                         ADDR transfer assertion time :   613396 ns
     line ::   307 :: |              613426 ns|              613431 ns|RD-NONSEQ | A582DB80 | ----- |  1 | -------- |  ----  |SINGLE|    4    | 7 |           0|
                      0 :: first command
     line ::   308 :: |              613401 ns|              613431 ns|WR-DATA   | A582DBB4 |  1/ 1 | -- | 80C12170 |  OKAY  | ---- | ------- | - | ---------- |
                      ::             AHB address transfer phase detected
                      :: sequential  AHB data    transfer phase detected FIRST
                         DATA transfer assertion time :   613401 ns
                         ADDR transfer assertion time :   613426 ns
     line ::   309 :: |              613451 ns|              613456 ns|WR-NONSEQ | A582D960 | ----- |  1 | -------- |  ----  |SINGLE|    4    | A |           0|
                      0 :: first command
     line ::   310 :: |              613431 ns|              613456 ns|RD-DATA   | A582DB80 |  1/ 1 | -- | BC8A0E66 |  OKAY  | ---- | ------- | - | ---------- |
                      ::             AHB address transfer phase detected
                      :: sequential  AHB data    transfer phase detected FIRST
                         DATA transfer assertion time :   613431 ns
                         ADDR transfer assertion time :   613451 ns
     line ::   311 :: |              613481 ns|              613486 ns|RD-NONSEQ | A582D92C | ----- |  1 | -------- |  ----  |SINGLE|    4    | 6 |           0|
                      0 :: first command
     line ::   312 :: |              613456 ns|              613486 ns|WR-DATA   | A582D960 |  1/ 1 | -- | A7049EB7 |  OKAY  | ---- | ------- | - | ---------- |
                      ::             AHB address transfer phase detected
                      :: sequential  AHB data    transfer phase detected FIRST
