   Picked  : Instance: uvm_test_top.top_env_i.ahbfab_env_i.mvc_ahb_mst_9_env_i.logger_handle_ahb :: Header
             Instance: uvm_test_top.top_env_i.ahbfab_env_i.mvc_ahb_mst_9_env_i.logger_handle_ahb
   Picked  : AHB Clk Cycle = 5 ns; AHB Clk Frequency = 200.00 MHz; Data bus width = 32 bits
             AHB Clk Cycle = 5 ns; AHB Clk Frequency = 200.00 MHz; Data bus width = 32 bits
   Skipped : ------------------------------------------------------------------------------------------------------------------------------------------
   Skipped : |NONSEQ/SEQ Assert Time |  HREADY Assert Time   |  DIR     |   ADDR   | BEAT  |  L |   DATA   |  RESP  | BURST| BURST   | H |    HSEL    |
   Skipped : |                       |                       |   -      |          |  NUM  |  E |          |        | Type | Size    | P |   (SLAVE   |
   Skipped : |                       |                       | PHASE    |          |       |  N |          |        |      |= 2^HSIZE| R |    INDEX)  |
   Skipped : |                       |                       |          |          |       |    |          |        |      | bytes   | O |            |
   Skipped : |                       |                       |          |          |       |    |          |        |      |         | T |            |
   Skipped : |                       |                       |          |          |       |    |          |        |      |         |   |            |
   Skipped : ------------------------------------------------------------------------------------------------------------------------------------------
   Picked  : |              609321 ns|              609326 ns|WR-NONSEQ | A582D80C | ----- |  1 | -------- |  ----  |SINGLE|    4    | C |           0|
             |              609321 ns|              609326 ns|WR-NONSEQ | A582D80C | ----- |  1 | -------- |  ----  |SINGLE|    4    | C |           0|
   Picked  : |              609326 ns|              609361 ns|RD-NONSEQ | A582DB20 | ----- |  1 | -------- |  ----  |SINGLE|    4    | C |           0|
             |              609326 ns|              609361 ns|RD-NONSEQ | A582DB20 | ----- |  1 | -------- |  ----  |SINGLE|    4    | C |           0|
   Picked  : |              609326 ns|              609361 ns|WR-DATA   | A582D80C |  1/ 1 | -- | E4EDBB39 |  OKAY  | ---- | ------- | - | ---------- |
             |              609326 ns|              609361 ns|WR-DATA   | A582D80C |  1/ 1 | -- | E4EDBB39 |  OKAY  | ---- | ------- | - | ---------- |
   Picked  : |              609361 ns|              609386 ns|WR-NONSEQ | A582DB7C | ----- |  1 | -------- |  ----  |SINGLE|    4    | D |           0|
             |              609361 ns|              609386 ns|WR-NONSEQ | A582DB7C | ----- |  1 | -------- |  ----  |SINGLE|    4    | D |           0|
   Picked  : |              609361 ns|              609386 ns|RD-DATA   | A582DB20 |  1/ 1 | -- | 00000000 |  OKAY  | ---- | ------- | - | ---------- |
             |              609361 ns|              609386 ns|RD-DATA   | A582DB20 |  1/ 1 | -- | 00000000 |  OKAY  | ---- | ------- | - | ---------- |
   Picked  : |              609386 ns|              609416 ns|RD-NONSEQ | A582DBA0 | ----- |  1 | -------- |  ----  |SINGLE|    4    | 4 |           0|
             |              609386 ns|              609416 ns|RD-NONSEQ | A582DBA0 | ----- |  1 | -------- |  ----  |SINGLE|    4    | 4 |           0|
   Picked  : |              609386 ns|              609416 ns|WR-DATA   | A582DB7C |  1/ 1 | -- | 706E8832 |  OKAY  | ---- | ------- | - | ---------- |
             |              609386 ns|              609416 ns|WR-DATA   | A582DB7C |  1/ 1 | -- | 706E8832 |  OKAY  | ---- | ------- | - | ---------- |
   Picked  : |              609416 ns|              609441 ns|WR-NONSEQ | A582DB80 | ----- |  1 | -------- |  ----  |SINGLE|    4    | D |           0|
             |              609416 ns|              609441 ns|WR-NONSEQ | A582DB80 | ----- |  1 | -------- |  ----  |SINGLE|    4    | D |           0|
   Picked  : |              609416 ns|              609441 ns|RD-DATA   | A582DBA0 |  1/ 1 | -- | 00000000 |  OKAY  | ---- | ------- | - | ---------- |
             |              609416 ns|              609441 ns|RD-DATA   | A582DBA0 |  1/ 1 | -- | 00000000 |  OKAY  | ---- | ------- | - | ---------- |
   Picked  : |              609441 ns|              609471 ns|RD-NONSEQ | A582DB24 | ----- |  1 | -------- |  ----  |SINGLE|    4    | F |           0|
             |              609441 ns|              609471 ns|RD-NONSEQ | A582DB24 | ----- |  1 | -------- |  ----  |SINGLE|    4    | F |           0|
   Picked  : |              609441 ns|              609471 ns|WR-DATA   | A582DB80 |  1/ 1 | -- | BC8A0E66 |  OKAY  | ---- | ------- | - | ---------- |
             |              609441 ns|              609471 ns|WR-DATA   | A582DB80 |  1/ 1 | -- | BC8A0E66 |  OKAY  | ---- | ------- | - | ---------- |
   Picked  : |              609471 ns|              609496 ns|WR-NONSEQ | A582DB70 | ----- |  1 | -------- |  ----  |SINGLE|    4    | C |           0|
             |              609471 ns|              609496 ns|WR-NONSEQ | A582DB70 | ----- |  1 | -------- |  ----  |SINGLE|    4    | C |           0|
   Picked  : |              609471 ns|              609496 ns|RD-DATA   | A582DB24 |  1/ 1 | -- | 00000000 |  OKAY  | ---- | ------- | - | ---------- |
             |              609471 ns|              609496 ns|RD-DATA   | A582DB24 |  1/ 1 | -- | 00000000 |  OKAY  | ---- | ------- | - | ---------- |
   Picked  : |              609496 ns|              609526 ns|RD-NONSEQ | A582DBB8 | ----- |  1 | -------- |  ----  |SINGLE|    4    | 1 |           0|
             |              609496 ns|              609526 ns|RD-NONSEQ | A582DBB8 | ----- |  1 | -------- |  ----  |SINGLE|    4    | 1 |           0|
   Picked  : |              609496 ns|              609526 ns|WR-DATA   | A582DB70 |  1/ 1 | -- | E50789CF |  OKAY  | ---- | ------- | - | ---------- |
             |              609496 ns|              609526 ns|WR-DATA   | A582DB70 |  1/ 1 | -- | E50789CF |  OKAY  | ---- | ------- | - | ---------- |
   Picked  : |              609526 ns|              609551 ns|WR-NONSEQ | A582DAE0 | ----- |  1 | -------- |  ----  |SINGLE|    4    | E |           0|
             |              609526 ns|              609551 ns|WR-NONSEQ | A582DAE0 | ----- |  1 | -------- |  ----  |SINGLE|    4    | E |           0|
   Picked  : |              609526 ns|              609551 ns|RD-DATA   | A582DBB8 |  1/ 1 | -- | 00000000 |  OKAY  | ---- | ------- | - | ---------- |
             |              609526 ns|              609551 ns|RD-DATA   | A582DBB8 |  1/ 1 | -- | 00000000 |  OKAY  | ---- | ------- | - | ---------- |
   Picked  : |              609551 ns|              609581 ns|RD-NONSEQ | A582D9F4 | ----- |  1 | -------- |  ----  |SINGLE|    4    | C |           0|
             |              609551 ns|              609581 ns|RD-NONSEQ | A582D9F4 | ----- |  1 | -------- |  ----  |SINGLE|    4    | C |           0|
   Picked  : |              609551 ns|              609581 ns|WR-DATA   | A582DAE0 |  1/ 1 | -- | D4D3D8AF |  OKAY  | ---- | ------- | - | ---------- |
             |              609551 ns|              609581 ns|WR-DATA   | A582DAE0 |  1/ 1 | -- | D4D3D8AF |  OKAY  | ---- | ------- | - | ---------- |
   Picked  : |              609581 ns|              609606 ns|WR-NONSEQ | A582D9BC | ----- |  1 | -------- |  ----  |SINGLE|    4    | 1 |           0|
             |              609581 ns|              609606 ns|WR-NONSEQ | A582D9BC | ----- |  1 | -------- |  ----  |SINGLE|    4    | 1 |           0|
   Picked  : |              609581 ns|              609606 ns|RD-DATA   | A582D9F4 |  1/ 1 | -- | 00000000 |  OKAY  | ---- | ------- | - | ---------- |
             |              609581 ns|              609606 ns|RD-DATA   | A582D9F4 |  1/ 1 | -- | 00000000 |  OKAY  | ---- | ------- | - | ---------- |
   Picked  : |              609606 ns|              609636 ns|RD-NONSEQ | A582DA68 | ----- |  1 | -------- |  ----  |SINGLE|    4    | D |           0|
             |              609606 ns|              609636 ns|RD-NONSEQ | A582DA68 | ----- |  1 | -------- |  ----  |SINGLE|    4    | D |           0|
   Picked  : |              609606 ns|              609636 ns|WR-DATA   | A582D9BC |  1/ 1 | -- | BB550B2B |  OKAY  | ---- | ------- | - | ---------- |
             |              609606 ns|              609636 ns|WR-DATA   | A582D9BC |  1/ 1 | -- | BB550B2B |  OKAY  | ---- | ------- | - | ---------- |
   Picked  : |              609636 ns|              609661 ns|WR-NONSEQ | A582DBC4 | ----- |  1 | -------- |  ----  |SINGLE|    4    | 0 |           0|
             |              609636 ns|              609661 ns|WR-NONSEQ | A582DBC4 | ----- |  1 | -------- |  ----  |SINGLE|    4    | 0 |           0|
   Picked  : |              609636 ns|              609661 ns|RD-DATA   | A582DA68 |  1/ 1 | -- | 00000000 |  OKAY  | ---- | ------- | - | ---------- |
             |              609636 ns|              609661 ns|RD-DATA   | A582DA68 |  1/ 1 | -- | 00000000 |  OKAY  | ---- | ------- | - | ---------- |
   Picked  : |              609661 ns|              609691 ns|RD-NONSEQ | A582D86C | ----- |  1 | -------- |  ----  |SINGLE|    4    | 0 |           0|
             |              609661 ns|              609691 ns|RD-NONSEQ | A582D86C | ----- |  1 | -------- |  ----  |SINGLE|    4    | 0 |           0|
   Picked  : |              609661 ns|              609691 ns|WR-DATA   | A582DBC4 |  1/ 1 | -- | 675C7178 |  OKAY  | ---- | ------- | - | ---------- |
             |              609661 ns|              609691 ns|WR-DATA   | A582DBC4 |  1/ 1 | -- | 675C7178 |  OKAY  | ---- | ------- | - | ---------- |
   Picked  : |              609691 ns|              609716 ns|WR-NONSEQ | A582DA28 | ----- |  1 | -------- |  ----  |SINGLE|    4    | C |           0|
             |              609691 ns|              609716 ns|WR-NONSEQ | A582DA28 | ----- |  1 | -------- |  ----  |SINGLE|    4    | C |           0|
   Picked  : |              609691 ns|              609716 ns|RD-DATA   | A582D86C |  1/ 1 | -- | 00000000 |  OKAY  | ---- | ------- | - | ---------- |
             |              609691 ns|              609716 ns|RD-DATA   | A582D86C |  1/ 1 | -- | 00000000 |  OKAY  | ---- | ------- | - | ---------- |
   Picked  : |              609716 ns|              609746 ns|RD-NONSEQ | A582DB18 | ----- |  1 | -------- |  ----  |SINGLE|    4    | 3 |           0|
             |              609716 ns|              609746 ns|RD-NONSEQ | A582DB18 | ----- |  1 | -------- |  ----  |SINGLE|    4    | 3 |           0|
   Picked  : |              609716 ns|              609746 ns|WR-DATA   | A582DA28 |  1/ 1 | -- | 564993B8 |  OKAY  | ---- | ------- | - | ---------- |
             |              609716 ns|              609746 ns|WR-DATA   | A582DA28 |  1/ 1 | -- | 564993B8 |  OKAY  | ---- | ------- | - | ---------- |
   Picked  : |              609746 ns|              609771 ns|WR-NONSEQ | A582D8E4 | ----- |  1 | -------- |  ----  |SINGLE|    4    | C |           0|
             |              609746 ns|              609771 ns|WR-NONSEQ | A582D8E4 | ----- |  1 | -------- |  ----  |SINGLE|    4    | C |           0|
   Picked  : |              609746 ns|              609771 ns|RD-DATA   | A582DB18 |  1/ 1 | -- | 00000000 |  OKAY  | ---- | ------- | - | ---------- |
             |              609746 ns|              609771 ns|RD-DATA   | A582DB18 |  1/ 1 | -- | 00000000 |  OKAY  | ---- | ------- | - | ---------- |
   Picked  : |              609771 ns|              609801 ns|RD-NONSEQ | A582D80C | ----- |  1 | -------- |  ----  |SINGLE|    4    | E |           0|
             |              609771 ns|              609801 ns|RD-NONSEQ | A582D80C | ----- |  1 | -------- |  ----  |SINGLE|    4    | E |           0|
   Picked  : |              609771 ns|              609801 ns|WR-DATA   | A582D8E4 |  1/ 1 | -- | 06F37190 |  OKAY  | ---- | ------- | - | ---------- |
             |              609771 ns|              609801 ns|WR-DATA   | A582D8E4 |  1/ 1 | -- | 06F37190 |  OKAY  | ---- | ------- | - | ---------- |
   Picked  : |              609801 ns|              609826 ns|WR-NONSEQ | A582D844 | ----- |  1 | -------- |  ----  |SINGLE|    4    | D |           0|
             |              609801 ns|              609826 ns|WR-NONSEQ | A582D844 | ----- |  1 | -------- |  ----  |SINGLE|    4    | D |           0|
   Picked  : |              609801 ns|              609826 ns|RD-DATA   | A582D80C |  1/ 1 | -- | E4EDBB39 |  OKAY  | ---- | ------- | - | ---------- |
             |              609801 ns|              609826 ns|RD-DATA   | A582D80C |  1/ 1 | -- | E4EDBB39 |  OKAY  | ---- | ------- | - | ---------- |
   Picked  : |              609826 ns|              609856 ns|RD-NONSEQ | A582D954 | ----- |  1 | -------- |  ----  |SINGLE|    4    | 9 |           0|
             |              609826 ns|              609856 ns|RD-NONSEQ | A582D954 | ----- |  1 | -------- |  ----  |SINGLE|    4    | 9 |           0|
   Picked  : |              609826 ns|              609856 ns|WR-DATA   | A582D844 |  1/ 1 | -- | 871F782C |  OKAY  | ---- | ------- | - | ---------- |
             |              609826 ns|              609856 ns|WR-DATA   | A582D844 |  1/ 1 | -- | 871F782C |  OKAY  | ---- | ------- | - | ---------- |
   Picked  : |              609856 ns|              609881 ns|WR-NONSEQ | A582D84C | ----- |  1 | -------- |  ----  |SINGLE|    4    | 9 |           0|
             |              609856 ns|              609881 ns|WR-NONSEQ | A582D84C | ----- |  1 | -------- |  ----  |SINGLE|    4    | 9 |           0|
   Picked  : |              609856 ns|              609881 ns|RD-DATA   | A582D954 |  1/ 1 | -- | 00000000 |  OKAY  | ---- | ------- | - | ---------- |
             |              609856 ns|              609881 ns|RD-DATA   | A582D954 |  1/ 1 | -- | 00000000 |  OKAY  | ---- | ------- | - | ---------- |
   Picked  : |              609881 ns|              609911 ns|RD-NONSEQ | A582D82C | ----- |  1 | -------- |  ----  |SINGLE|    4    | C |           0|
             |              609881 ns|              609911 ns|RD-NONSEQ | A582D82C | ----- |  1 | -------- |  ----  |SINGLE|    4    | C |           0|
   Picked  : |              609881 ns|              609911 ns|WR-DATA   | A582D84C |  1/ 1 | -- | C0F6F516 |  OKAY  | ---- | ------- | - | ---------- |
             |              609881 ns|              609911 ns|WR-DATA   | A582D84C |  1/ 1 | -- | C0F6F516 |  OKAY  | ---- | ------- | - | ---------- |
   Picked  : |              609911 ns|              609936 ns|WR-NONSEQ | A582DBC0 | ----- |  1 | -------- |  ----  |SINGLE|    4    | A |           0|
             |              609911 ns|              609936 ns|WR-NONSEQ | A582DBC0 | ----- |  1 | -------- |  ----  |SINGLE|    4    | A |           0|
   Picked  : |              609911 ns|              609936 ns|RD-DATA   | A582D82C |  1/ 1 | -- | 00000000 |  OKAY  | ---- | ------- | - | ---------- |
             |              609911 ns|              609936 ns|RD-DATA   | A582D82C |  1/ 1 | -- | 00000000 |  OKAY  | ---- | ------- | - | ---------- |
   Picked  : |              609936 ns|              609966 ns|RD-NONSEQ | A582D8E0 | ----- |  1 | -------- |  ----  |SINGLE|    4    | E |           0|
             |              609936 ns|              609966 ns|RD-NONSEQ | A582D8E0 | ----- |  1 | -------- |  ----  |SINGLE|    4    | E |           0|
   Picked  : |              609936 ns|              609966 ns|WR-DATA   | A582DBC0 |  1/ 1 | -- | 05BF6D37 |  OKAY  | ---- | ------- | - | ---------- |
             |              609936 ns|              609966 ns|WR-DATA   | A582DBC0 |  1/ 1 | -- | 05BF6D37 |  OKAY  | ---- | ------- | - | ---------- |
   Picked  : |              609966 ns|              609991 ns|WR-NONSEQ | A582DBF4 | ----- |  1 | -------- |  ----  |SINGLE|    4    | E |           0|
             |              609966 ns|              609991 ns|WR-NONSEQ | A582DBF4 | ----- |  1 | -------- |  ----  |SINGLE|    4    | E |           0|
   Picked  : |              609966 ns|              609991 ns|RD-DATA   | A582D8E0 |  1/ 1 | -- | 00000000 |  OKAY  | ---- | ------- | - | ---------- |
             |              609966 ns|              609991 ns|RD-DATA   | A582D8E0 |  1/ 1 | -- | 00000000 |  OKAY  | ---- | ------- | - | ---------- |
   Picked  : |              609991 ns|              610021 ns|RD-NONSEQ | A582D8D0 | ----- |  1 | -------- |  ----  |SINGLE|    4    | 0 |           0|
             |              609991 ns|              610021 ns|RD-NONSEQ | A582D8D0 | ----- |  1 | -------- |  ----  |SINGLE|    4    | 0 |           0|
   Picked  : |              609991 ns|              610021 ns|WR-DATA   | A582DBF4 |  1/ 1 | -- | B8FAF538 |  OKAY  | ---- | ------- | - | ---------- |
             |              609991 ns|              610021 ns|WR-DATA   | A582DBF4 |  1/ 1 | -- | B8FAF538 |  OKAY  | ---- | ------- | - | ---------- |
   Picked  : |              610021 ns|              610046 ns|WR-NONSEQ | A582DA58 | ----- |  1 | -------- |  ----  |SINGLE|    4    | F |           0|
             |              610021 ns|              610046 ns|WR-NONSEQ | A582DA58 | ----- |  1 | -------- |  ----  |SINGLE|    4    | F |           0|
   Picked  : |              610021 ns|              610046 ns|RD-DATA   | A582D8D0 |  1/ 1 | -- | 00000000 |  OKAY  | ---- | ------- | - | ---------- |
             |              610021 ns|              610046 ns|RD-DATA   | A582D8D0 |  1/ 1 | -- | 00000000 |  OKAY  | ---- | ------- | - | ---------- |
   Picked  : |              610046 ns|              610076 ns|RD-NONSEQ | A582D900 | ----- |  1 | -------- |  ----  |SINGLE|    4    | B |           0|
             |              610046 ns|              610076 ns|RD-NONSEQ | A582D900 | ----- |  1 | -------- |  ----  |SINGLE|    4    | B |           0|
   Picked  : |              610046 ns|              610076 ns|WR-DATA   | A582DA58 |  1/ 1 | -- | 94385A44 |  OKAY  | ---- | ------- | - | ---------- |
             |              610046 ns|              610076 ns|WR-DATA   | A582DA58 |  1/ 1 | -- | 94385A44 |  OKAY  | ---- | ------- | - | ---------- |
   Picked  : |              610076 ns|              610101 ns|WR-NONSEQ | A582DB1C | ----- |  1 | -------- |  ----  |SINGLE|    4    | C |           0|
             |              610076 ns|              610101 ns|WR-NONSEQ | A582DB1C | ----- |  1 | -------- |  ----  |SINGLE|    4    | C |           0|
   Picked  : |              610076 ns|              610101 ns|RD-DATA   | A582D900 |  1/ 1 | -- | 00000000 |  OKAY  | ---- | ------- | - | ---------- |
             |              610076 ns|              610101 ns|RD-DATA   | A582D900 |  1/ 1 | -- | 00000000 |  OKAY  | ---- | ------- | - | ---------- |
   Picked  : |              610101 ns|              610131 ns|RD-NONSEQ | A582DB54 | ----- |  1 | -------- |  ----  |SINGLE|    4    | 8 |           0|
             |              610101 ns|              610131 ns|RD-NONSEQ | A582DB54 | ----- |  1 | -------- |  ----  |SINGLE|    4    | 8 |           0|
   Picked  : |              610101 ns|              610131 ns|WR-DATA   | A582DB1C |  1/ 1 | -- | B2C9490E |  OKAY  | ---- | ------- | - | ---------- |
             |              610101 ns|              610131 ns|WR-DATA   | A582DB1C |  1/ 1 | -- | B2C9490E |  OKAY  | ---- | ------- | - | ---------- |
   Picked  : |              610131 ns|              610156 ns|WR-NONSEQ | A582D96C | ----- |  1 | -------- |  ----  |SINGLE|    4    | 5 |           0|
             |              610131 ns|              610156 ns|WR-NONSEQ | A582D96C | ----- |  1 | -------- |  ----  |SINGLE|    4    | 5 |           0|
   Picked  : |              610131 ns|              610156 ns|RD-DATA   | A582DB54 |  1/ 1 | -- | 00000000 |  OKAY  | ---- | ------- | - | ---------- |
             |              610131 ns|              610156 ns|RD-DATA   | A582DB54 |  1/ 1 | -- | 00000000 |  OKAY  | ---- | ------- | - | ---------- |
   Picked  : |              610156 ns|              610186 ns|RD-NONSEQ | A582D8E4 | ----- |  1 | -------- |  ----  |SINGLE|    4    | A |           0|
             |              610156 ns|              610186 ns|RD-NONSEQ | A582D8E4 | ----- |  1 | -------- |  ----  |SINGLE|    4    | A |           0|
   Picked  : |              610156 ns|              610186 ns|WR-DATA   | A582D96C |  1/ 1 | -- | 28CF1C49 |  OKAY  | ---- | ------- | - | ---------- |
             |              610156 ns|              610186 ns|WR-DATA   | A582D96C |  1/ 1 | -- | 28CF1C49 |  OKAY  | ---- | ------- | - | ---------- |
   Picked  : |              610186 ns|              610211 ns|WR-NONSEQ | A582DBAC | ----- |  1 | -------- |  ----  |SINGLE|    4    | 0 |           0|
             |              610186 ns|              610211 ns|WR-NONSEQ | A582DBAC | ----- |  1 | -------- |  ----  |SINGLE|    4    | 0 |           0|
   Picked  : |              610186 ns|              610211 ns|RD-DATA   | A582D8E4 |  1/ 1 | -- | 06F37190 |  OKAY  | ---- | ------- | - | ---------- |
             |              610186 ns|              610211 ns|RD-DATA   | A582D8E4 |  1/ 1 | -- | 06F37190 |  OKAY  | ---- | ------- | - | ---------- |
   Picked  : |              610211 ns|              610241 ns|RD-NONSEQ | A582DB20 | ----- |  1 | -------- |  ----  |SINGLE|    4    | C |           0|
             |              610211 ns|              610241 ns|RD-NONSEQ | A582DB20 | ----- |  1 | -------- |  ----  |SINGLE|    4    | C |           0|
   Picked  : |              610211 ns|              610241 ns|WR-DATA   | A582DBAC |  1/ 1 | -- | C38216FB |  OKAY  | ---- | ------- | - | ---------- |
             |              610211 ns|              610241 ns|WR-DATA   | A582DBAC |  1/ 1 | -- | C38216FB |  OKAY  | ---- | ------- | - | ---------- |
   Picked  : |              610241 ns|              610266 ns|WR-NONSEQ | A582DB94 | ----- |  1 | -------- |  ----  |SINGLE|    4    | 1 |           0|
             |              610241 ns|              610266 ns|WR-NONSEQ | A582DB94 | ----- |  1 | -------- |  ----  |SINGLE|    4    | 1 |           0|
   Picked  : |              610241 ns|              610266 ns|RD-DATA   | A582DB20 |  1/ 1 | -- | 00000000 |  OKAY  | ---- | ------- | - | ---------- |
             |              610241 ns|              610266 ns|RD-DATA   | A582DB20 |  1/ 1 | -- | 00000000 |  OKAY  | ---- | ------- | - | ---------- |
   Picked  : |              610266 ns|              610296 ns|RD-NONSEQ | A582D838 | ----- |  1 | -------- |  ----  |SINGLE|    4    | 9 |           0|
             |              610266 ns|              610296 ns|RD-NONSEQ | A582D838 | ----- |  1 | -------- |  ----  |SINGLE|    4    | 9 |           0|
   Picked  : |              610266 ns|              610296 ns|WR-DATA   | A582DB94 |  1/ 1 | -- | 77DA1F58 |  OKAY  | ---- | ------- | - | ---------- |
             |              610266 ns|              610296 ns|WR-DATA   | A582DB94 |  1/ 1 | -- | 77DA1F58 |  OKAY  | ---- | ------- | - | ---------- |
   Picked  : |              610296 ns|              610321 ns|WR-NONSEQ | A582DA80 | ----- |  1 | -------- |  ----  |SINGLE|    4    | 8 |           0|
             |              610296 ns|              610321 ns|WR-NONSEQ | A582DA80 | ----- |  1 | -------- |  ----  |SINGLE|    4    | 8 |           0|
   Picked  : |              610296 ns|              610321 ns|RD-DATA   | A582D838 |  1/ 1 | -- | 00000000 |  OKAY  | ---- | ------- | - | ---------- |
             |              610296 ns|              610321 ns|RD-DATA   | A582D838 |  1/ 1 | -- | 00000000 |  OKAY  | ---- | ------- | - | ---------- |
   Picked  : |              610321 ns|              610351 ns|RD-NONSEQ | A582DBF8 | ----- |  1 | -------- |  ----  |SINGLE|    4    | D |           0|
             |              610321 ns|              610351 ns|RD-NONSEQ | A582DBF8 | ----- |  1 | -------- |  ----  |SINGLE|    4    | D |           0|
   Picked  : |              610321 ns|              610351 ns|WR-DATA   | A582DA80 |  1/ 1 | -- | A132F891 |  OKAY  | ---- | ------- | - | ---------- |
             |              610321 ns|              610351 ns|WR-DATA   | A582DA80 |  1/ 1 | -- | A132F891 |  OKAY  | ---- | ------- | - | ---------- |
   Picked  : |              610351 ns|              610376 ns|WR-NONSEQ | A582DA70 | ----- |  1 | -------- |  ----  |SINGLE|    4    | 2 |           0|
             |              610351 ns|              610376 ns|WR-NONSEQ | A582DA70 | ----- |  1 | -------- |  ----  |SINGLE|    4    | 2 |           0|
   Picked  : |              610351 ns|              610376 ns|RD-DATA   | A582DBF8 |  1/ 1 | -- | 00000000 |  OKAY  | ---- | ------- | - | ---------- |
             |              610351 ns|              610376 ns|RD-DATA   | A582DBF8 |  1/ 1 | -- | 00000000 |  OKAY  | ---- | ------- | - | ---------- |
   Picked  : |              610376 ns|              610406 ns|RD-NONSEQ | A582D838 | ----- |  1 | -------- |  ----  |SINGLE|    4    | B |           0|
             |              610376 ns|              610406 ns|RD-NONSEQ | A582D838 | ----- |  1 | -------- |  ----  |SINGLE|    4    | B |           0|
   Picked  : |              610376 ns|              610406 ns|WR-DATA   | A582DA70 |  1/ 1 | -- | 8B046599 |  OKAY  | ---- | ------- | - | ---------- |
             |              610376 ns|              610406 ns|WR-DATA   | A582DA70 |  1/ 1 | -- | 8B046599 |  OKAY  | ---- | ------- | - | ---------- |
   Picked  : |              610406 ns|              610431 ns|WR-NONSEQ | A582D908 | ----- |  1 | -------- |  ----  |SINGLE|    4    | 5 |           0|
             |              610406 ns|              610431 ns|WR-NONSEQ | A582D908 | ----- |  1 | -------- |  ----  |SINGLE|    4    | 5 |           0|
   Picked  : |              610406 ns|              610431 ns|RD-DATA   | A582D838 |  1/ 1 | -- | 00000000 |  OKAY  | ---- | ------- | - | ---------- |
             |              610406 ns|              610431 ns|RD-DATA   | A582D838 |  1/ 1 | -- | 00000000 |  OKAY  | ---- | ------- | - | ---------- |
   Picked  : |              610431 ns|              610461 ns|RD-NONSEQ | A582DA3C | ----- |  1 | -------- |  ----  |SINGLE|    4    | B |           0|
             |              610431 ns|              610461 ns|RD-NONSEQ | A582DA3C | ----- |  1 | -------- |  ----  |SINGLE|    4    | B |           0|
   Picked  : |              610431 ns|              610461 ns|WR-DATA   | A582D908 |  1/ 1 | -- | FE10265A |  OKAY  | ---- | ------- | - | ---------- |
             |              610431 ns|              610461 ns|WR-DATA   | A582D908 |  1/ 1 | -- | FE10265A |  OKAY  | ---- | ------- | - | ---------- |
   Picked  : |              610461 ns|              610486 ns|WR-NONSEQ | A582DA0C | ----- |  1 | -------- |  ----  |SINGLE|    4    | 9 |           0|
             |              610461 ns|              610486 ns|WR-NONSEQ | A582DA0C | ----- |  1 | -------- |  ----  |SINGLE|    4    | 9 |           0|
   Picked  : |              610461 ns|              610486 ns|RD-DATA   | A582DA3C |  1/ 1 | -- | 00000000 |  OKAY  | ---- | ------- | - | ---------- |
             |              610461 ns|              610486 ns|RD-DATA   | A582DA3C |  1/ 1 | -- | 00000000 |  OKAY  | ---- | ------- | - | ---------- |
   Picked  : |              610486 ns|              610516 ns|RD-NONSEQ | A582DB38 | ----- |  1 | -------- |  ----  |SINGLE|    4    | 8 |           0|
             |              610486 ns|              610516 ns|RD-NONSEQ | A582DB38 | ----- |  1 | -------- |  ----  |SINGLE|    4    | 8 |           0|
   Picked  : |              610486 ns|              610516 ns|WR-DATA   | A582DA0C |  1/ 1 | -- | EB385ABE |  OKAY  | ---- | ------- | - | ---------- |
             |              610486 ns|              610516 ns|WR-DATA   | A582DA0C |  1/ 1 | -- | EB385ABE |  OKAY  | ---- | ------- | - | ---------- |
   Picked  : |              610516 ns|              610541 ns|WR-NONSEQ | A582D894 | ----- |  1 | -------- |  ----  |SINGLE|    4    | E |           0|
             |              610516 ns|              610541 ns|WR-NONSEQ | A582D894 | ----- |  1 | -------- |  ----  |SINGLE|    4    | E |           0|
   Picked  : |              610516 ns|              610541 ns|RD-DATA   | A582DB38 |  1/ 1 | -- | 00000000 |  OKAY  | ---- | ------- | - | ---------- |
             |              610516 ns|              610541 ns|RD-DATA   | A582DB38 |  1/ 1 | -- | 00000000 |  OKAY  | ---- | ------- | - | ---------- |
   Picked  : |              610541 ns|              610571 ns|RD-NONSEQ | A582D8D0 | ----- |  1 | -------- |  ----  |SINGLE|    4    | C |           0|
             |              610541 ns|              610571 ns|RD-NONSEQ | A582D8D0 | ----- |  1 | -------- |  ----  |SINGLE|    4    | C |           0|
   Picked  : |              610541 ns|              610571 ns|WR-DATA   | A582D894 |  1/ 1 | -- | B845F8A9 |  OKAY  | ---- | ------- | - | ---------- |
             |              610541 ns|              610571 ns|WR-DATA   | A582D894 |  1/ 1 | -- | B845F8A9 |  OKAY  | ---- | ------- | - | ---------- |
   Picked  : |              610571 ns|              610596 ns|WR-NONSEQ | A582DA40 | ----- |  1 | -------- |  ----  |SINGLE|    4    | A |           0|
             |              610571 ns|              610596 ns|WR-NONSEQ | A582DA40 | ----- |  1 | -------- |  ----  |SINGLE|    4    | A |           0|
   Picked  : |              610571 ns|              610596 ns|RD-DATA   | A582D8D0 |  1/ 1 | -- | 00000000 |  OKAY  | ---- | ------- | - | ---------- |
             |              610571 ns|              610596 ns|RD-DATA   | A582D8D0 |  1/ 1 | -- | 00000000 |  OKAY  | ---- | ------- | - | ---------- |
   Picked  : |              610596 ns|              610626 ns|RD-NONSEQ | A582DBBC | ----- |  1 | -------- |  ----  |SINGLE|    4    | A |           0|
             |              610596 ns|              610626 ns|RD-NONSEQ | A582DBBC | ----- |  1 | -------- |  ----  |SINGLE|    4    | A |           0|
   Picked  : |              610596 ns|              610626 ns|WR-DATA   | A582DA40 |  1/ 1 | -- | 2DB665D1 |  OKAY  | ---- | ------- | - | ---------- |
             |              610596 ns|              610626 ns|WR-DATA   | A582DA40 |  1/ 1 | -- | 2DB665D1 |  OKAY  | ---- | ------- | - | ---------- |
   Picked  : |              610626 ns|              610651 ns|WR-NONSEQ | A582D9B4 | ----- |  1 | -------- |  ----  |SINGLE|    4    | B |           0|
             |              610626 ns|              610651 ns|WR-NONSEQ | A582D9B4 | ----- |  1 | -------- |  ----  |SINGLE|    4    | B |           0|
   Picked  : |              610626 ns|              610651 ns|RD-DATA   | A582DBBC |  1/ 1 | -- | 00000000 |  OKAY  | ---- | ------- | - | ---------- |
             |              610626 ns|              610651 ns|RD-DATA   | A582DBBC |  1/ 1 | -- | 00000000 |  OKAY  | ---- | ------- | - | ---------- |
   Picked  : |              610651 ns|              610681 ns|RD-NONSEQ | A582DAEC | ----- |  1 | -------- |  ----  |SINGLE|    4    | A |           0|
             |              610651 ns|              610681 ns|RD-NONSEQ | A582DAEC | ----- |  1 | -------- |  ----  |SINGLE|    4    | A |           0|
   Picked  : |              610651 ns|              610681 ns|WR-DATA   | A582D9B4 |  1/ 1 | -- | 6BBFCED5 |  OKAY  | ---- | ------- | - | ---------- |
             |              610651 ns|              610681 ns|WR-DATA   | A582D9B4 |  1/ 1 | -- | 6BBFCED5 |  OKAY  | ---- | ------- | - | ---------- |
   Picked  : |              610681 ns|              610706 ns|WR-NONSEQ | A582DA64 | ----- |  1 | -------- |  ----  |SINGLE|    4    | 4 |           0|
             |              610681 ns|              610706 ns|WR-NONSEQ | A582DA64 | ----- |  1 | -------- |  ----  |SINGLE|    4    | 4 |           0|
   Picked  : |              610681 ns|              610706 ns|RD-DATA   | A582DAEC |  1/ 1 | -- | 00000000 |  OKAY  | ---- | ------- | - | ---------- |
             |              610681 ns|              610706 ns|RD-DATA   | A582DAEC |  1/ 1 | -- | 00000000 |  OKAY  | ---- | ------- | - | ---------- |
   Picked  : |              610706 ns|              610736 ns|RD-NONSEQ | A582DA84 | ----- |  1 | -------- |  ----  |SINGLE|    4    | A |           0|
             |              610706 ns|              610736 ns|RD-NONSEQ | A582DA84 | ----- |  1 | -------- |  ----  |SINGLE|    4    | A |           0|
   Picked  : |              610706 ns|              610736 ns|WR-DATA   | A582DA64 |  1/ 1 | -- | 2CD0249F |  OKAY  | ---- | ------- | - | ---------- |
             |              610706 ns|              610736 ns|WR-DATA   | A582DA64 |  1/ 1 | -- | 2CD0249F |  OKAY  | ---- | ------- | - | ---------- |
   Picked  : |              610736 ns|              610761 ns|WR-NONSEQ | A582DAF8 | ----- |  1 | -------- |  ----  |SINGLE|    4    | 1 |           0|
             |              610736 ns|              610761 ns|WR-NONSEQ | A582DAF8 | ----- |  1 | -------- |  ----  |SINGLE|    4    | 1 |           0|
   Picked  : |              610736 ns|              610761 ns|RD-DATA   | A582DA84 |  1/ 1 | -- | 00000000 |  OKAY  | ---- | ------- | - | ---------- |
             |              610736 ns|              610761 ns|RD-DATA   | A582DA84 |  1/ 1 | -- | 00000000 |  OKAY  | ---- | ------- | - | ---------- |
   Picked  : |              610761 ns|              610791 ns|RD-NONSEQ | A582D884 | ----- |  1 | -------- |  ----  |SINGLE|    4    | 4 |           0|
             |              610761 ns|              610791 ns|RD-NONSEQ | A582D884 | ----- |  1 | -------- |  ----  |SINGLE|    4    | 4 |           0|
   Picked  : |              610761 ns|              610791 ns|WR-DATA   | A582DAF8 |  1/ 1 | -- | 6A110551 |  OKAY  | ---- | ------- | - | ---------- |
             |              610761 ns|              610791 ns|WR-DATA   | A582DAF8 |  1/ 1 | -- | 6A110551 |  OKAY  | ---- | ------- | - | ---------- |
   Picked  : |              610791 ns|              610816 ns|WR-NONSEQ | A582D978 | ----- |  1 | -------- |  ----  |SINGLE|    4    | B |           0|
             |              610791 ns|              610816 ns|WR-NONSEQ | A582D978 | ----- |  1 | -------- |  ----  |SINGLE|    4    | B |           0|
   Picked  : |              610791 ns|              610816 ns|RD-DATA   | A582D884 |  1/ 1 | -- | 00000000 |  OKAY  | ---- | ------- | - | ---------- |
             |              610791 ns|              610816 ns|RD-DATA   | A582D884 |  1/ 1 | -- | 00000000 |  OKAY  | ---- | ------- | - | ---------- |
   Picked  : |              610816 ns|              610846 ns|RD-NONSEQ | A582DA38 | ----- |  1 | -------- |  ----  |SINGLE|    4    | A |           0|
             |              610816 ns|              610846 ns|RD-NONSEQ | A582DA38 | ----- |  1 | -------- |  ----  |SINGLE|    4    | A |           0|
   Picked  : |              610816 ns|              610846 ns|WR-DATA   | A582D978 |  1/ 1 | -- | 01396073 |  OKAY  | ---- | ------- | - | ---------- |
             |              610816 ns|              610846 ns|WR-DATA   | A582D978 |  1/ 1 | -- | 01396073 |  OKAY  | ---- | ------- | - | ---------- |
   Picked  : |              610846 ns|              610871 ns|WR-NONSEQ | A582D948 | ----- |  1 | -------- |  ----  |SINGLE|    4    | 5 |           0|
             |              610846 ns|              610871 ns|WR-NONSEQ | A582D948 | ----- |  1 | -------- |  ----  |SINGLE|    4    | 5 |           0|
   Picked  : |              610846 ns|              610871 ns|RD-DATA   | A582DA38 |  1/ 1 | -- | 00000000 |  OKAY  | ---- | ------- | - | ---------- |
             |              610846 ns|              610871 ns|RD-DATA   | A582DA38 |  1/ 1 | -- | 00000000 |  OKAY  | ---- | ------- | - | ---------- |
   Picked  : |              610871 ns|              610901 ns|RD-NONSEQ | A582D9E8 | ----- |  1 | -------- |  ----  |SINGLE|    4    | 9 |           0|
             |              610871 ns|              610901 ns|RD-NONSEQ | A582D9E8 | ----- |  1 | -------- |  ----  |SINGLE|    4    | 9 |           0|
   Picked  : |              610871 ns|              610901 ns|WR-DATA   | A582D948 |  1/ 1 | -- | 50A33132 |  OKAY  | ---- | ------- | - | ---------- |
             |              610871 ns|              610901 ns|WR-DATA   | A582D948 |  1/ 1 | -- | 50A33132 |  OKAY  | ---- | ------- | - | ---------- |
   Picked  : |              610901 ns|              610926 ns|WR-NONSEQ | A582DA9C | ----- |  1 | -------- |  ----  |SINGLE|    4    | 2 |           0|
             |              610901 ns|              610926 ns|WR-NONSEQ | A582DA9C | ----- |  1 | -------- |  ----  |SINGLE|    4    | 2 |           0|
   Picked  : |              610901 ns|              610926 ns|RD-DATA   | A582D9E8 |  1/ 1 | -- | 00000000 |  OKAY  | ---- | ------- | - | ---------- |
             |              610901 ns|              610926 ns|RD-DATA   | A582D9E8 |  1/ 1 | -- | 00000000 |  OKAY  | ---- | ------- | - | ---------- |
   Picked  : |              610926 ns|              610956 ns|RD-NONSEQ | A582D8B4 | ----- |  1 | -------- |  ----  |SINGLE|    4    | 9 |           0|
             |              610926 ns|              610956 ns|RD-NONSEQ | A582D8B4 | ----- |  1 | -------- |  ----  |SINGLE|    4    | 9 |           0|
   Picked  : |              610926 ns|              610956 ns|WR-DATA   | A582DA9C |  1/ 1 | -- | C7AFC5CB |  OKAY  | ---- | ------- | - | ---------- |
             |              610926 ns|              610956 ns|WR-DATA   | A582DA9C |  1/ 1 | -- | C7AFC5CB |  OKAY  | ---- | ------- | - | ---------- |
   Picked  : |              610956 ns|              610981 ns|WR-NONSEQ | A582DA04 | ----- |  1 | -------- |  ----  |SINGLE|    4    | 3 |           0|
             |              610956 ns|              610981 ns|WR-NONSEQ | A582DA04 | ----- |  1 | -------- |  ----  |SINGLE|    4    | 3 |           0|
   Picked  : |              610956 ns|              610981 ns|RD-DATA   | A582D8B4 |  1/ 1 | -- | 00000000 |  OKAY  | ---- | ------- | - | ---------- |
             |              610956 ns|              610981 ns|RD-DATA   | A582D8B4 |  1/ 1 | -- | 00000000 |  OKAY  | ---- | ------- | - | ---------- |
   Picked  : |              610981 ns|              611011 ns|RD-NONSEQ | A582DAD4 | ----- |  1 | -------- |  ----  |SINGLE|    4    | 9 |           0|
             |              610981 ns|              611011 ns|RD-NONSEQ | A582DAD4 | ----- |  1 | -------- |  ----  |SINGLE|    4    | 9 |           0|
   Picked  : |              610981 ns|              611011 ns|WR-DATA   | A582DA04 |  1/ 1 | -- | 5A90E7ED |  OKAY  | ---- | ------- | - | ---------- |
             |              610981 ns|              611011 ns|WR-DATA   | A582DA04 |  1/ 1 | -- | 5A90E7ED |  OKAY  | ---- | ------- | - | ---------- |
   Picked  : |              611011 ns|              611036 ns|WR-NONSEQ | A582DA20 | ----- |  1 | -------- |  ----  |SINGLE|    4    | F |           0|
             |              611011 ns|              611036 ns|WR-NONSEQ | A582DA20 | ----- |  1 | -------- |  ----  |SINGLE|    4    | F |           0|
   Picked  : |              611011 ns|              611036 ns|RD-DATA   | A582DAD4 |  1/ 1 | -- | 00000000 |  OKAY  | ---- | ------- | - | ---------- |
             |              611011 ns|              611036 ns|RD-DATA   | A582DAD4 |  1/ 1 | -- | 00000000 |  OKAY  | ---- | ------- | - | ---------- |
   Picked  : |              611036 ns|              611066 ns|RD-NONSEQ | A582D848 | ----- |  1 | -------- |  ----  |SINGLE|    4    | E |           0|
             |              611036 ns|              611066 ns|RD-NONSEQ | A582D848 | ----- |  1 | -------- |  ----  |SINGLE|    4    | E |           0|
   Picked  : |              611036 ns|              611066 ns|WR-DATA   | A582DA20 |  1/ 1 | -- | 8D5A0BF8 |  OKAY  | ---- | ------- | - | ---------- |
             |              611036 ns|              611066 ns|WR-DATA   | A582DA20 |  1/ 1 | -- | 8D5A0BF8 |  OKAY  | ---- | ------- | - | ---------- |
   Picked  : |              611066 ns|              611091 ns|WR-NONSEQ | A582D818 | ----- |  1 | -------- |  ----  |SINGLE|    4    | E |           0|
             |              611066 ns|              611091 ns|WR-NONSEQ | A582D818 | ----- |  1 | -------- |  ----  |SINGLE|    4    | E |           0|
   Picked  : |              611066 ns|              611091 ns|RD-DATA   | A582D848 |  1/ 1 | -- | 00000000 |  OKAY  | ---- | ------- | - | ---------- |
             |              611066 ns|              611091 ns|RD-DATA   | A582D848 |  1/ 1 | -- | 00000000 |  OKAY  | ---- | ------- | - | ---------- |
   Picked  : |              611091 ns|              611121 ns|RD-NONSEQ | A582DB88 | ----- |  1 | -------- |  ----  |SINGLE|    4    | E |           0|
             |              611091 ns|              611121 ns|RD-NONSEQ | A582DB88 | ----- |  1 | -------- |  ----  |SINGLE|    4    | E |           0|
   Picked  : |              611091 ns|              611121 ns|WR-DATA   | A582D818 |  1/ 1 | -- | D207AC6A |  OKAY  | ---- | ------- | - | ---------- |
             |              611091 ns|              611121 ns|WR-DATA   | A582D818 |  1/ 1 | -- | D207AC6A |  OKAY  | ---- | ------- | - | ---------- |
   Picked  : |              611121 ns|              611146 ns|WR-NONSEQ | A582DAC0 | ----- |  1 | -------- |  ----  |SINGLE|    4    | C |           0|
             |              611121 ns|              611146 ns|WR-NONSEQ | A582DAC0 | ----- |  1 | -------- |  ----  |SINGLE|    4    | C |           0|
   Picked  : |              611121 ns|              611146 ns|RD-DATA   | A582DB88 |  1/ 1 | -- | 00000000 |  OKAY  | ---- | ------- | - | ---------- |
             |              611121 ns|              611146 ns|RD-DATA   | A582DB88 |  1/ 1 | -- | 00000000 |  OKAY  | ---- | ------- | - | ---------- |
   Picked  : |              611146 ns|              611176 ns|RD-NONSEQ | A582D98C | ----- |  1 | -------- |  ----  |SINGLE|    4    | D |           0|
             |              611146 ns|              611176 ns|RD-NONSEQ | A582D98C | ----- |  1 | -------- |  ----  |SINGLE|    4    | D |           0|
   Picked  : |              611146 ns|              611176 ns|WR-DATA   | A582DAC0 |  1/ 1 | -- | 03AE6918 |  OKAY  | ---- | ------- | - | ---------- |
             |              611146 ns|              611176 ns|WR-DATA   | A582DAC0 |  1/ 1 | -- | 03AE6918 |  OKAY  | ---- | ------- | - | ---------- |
   Picked  : |              611176 ns|              611201 ns|WR-NONSEQ | A582D998 | ----- |  1 | -------- |  ----  |SINGLE|    4    | 1 |           0|
             |              611176 ns|              611201 ns|WR-NONSEQ | A582D998 | ----- |  1 | -------- |  ----  |SINGLE|    4    | 1 |           0|
   Picked  : |              611176 ns|              611201 ns|RD-DATA   | A582D98C |  1/ 1 | -- | 00000000 |  OKAY  | ---- | ------- | - | ---------- |
             |              611176 ns|              611201 ns|RD-DATA   | A582D98C |  1/ 1 | -- | 00000000 |  OKAY  | ---- | ------- | - | ---------- |
   Picked  : |              611201 ns|              611231 ns|RD-NONSEQ | A582DB14 | ----- |  1 | -------- |  ----  |SINGLE|    4    | F |           0|
             |              611201 ns|              611231 ns|RD-NONSEQ | A582DB14 | ----- |  1 | -------- |  ----  |SINGLE|    4    | F |           0|
   Picked  : |              611201 ns|              611231 ns|WR-DATA   | A582D998 |  1/ 1 | -- | 7B83130E |  OKAY  | ---- | ------- | - | ---------- |
             |              611201 ns|              611231 ns|WR-DATA   | A582D998 |  1/ 1 | -- | 7B83130E |  OKAY  | ---- | ------- | - | ---------- |
   Picked  : |              611231 ns|              611256 ns|WR-NONSEQ | A582DB84 | ----- |  1 | -------- |  ----  |SINGLE|    4    | A |           0|
             |              611231 ns|              611256 ns|WR-NONSEQ | A582DB84 | ----- |  1 | -------- |  ----  |SINGLE|    4    | A |           0|
   Picked  : |              611231 ns|              611256 ns|RD-DATA   | A582DB14 |  1/ 1 | -- | 00000000 |  OKAY  | ---- | ------- | - | ---------- |
             |              611231 ns|              611256 ns|RD-DATA   | A582DB14 |  1/ 1 | -- | 00000000 |  OKAY  | ---- | ------- | - | ---------- |
   Picked  : |              611256 ns|              611286 ns|RD-NONSEQ | A582D904 | ----- |  1 | -------- |  ----  |SINGLE|    4    | F |           0|
             |              611256 ns|              611286 ns|RD-NONSEQ | A582D904 | ----- |  1 | -------- |  ----  |SINGLE|    4    | F |           0|
   Picked  : |              611256 ns|              611286 ns|WR-DATA   | A582DB84 |  1/ 1 | -- | 8FD2044E |  OKAY  | ---- | ------- | - | ---------- |
             |              611256 ns|              611286 ns|WR-DATA   | A582DB84 |  1/ 1 | -- | 8FD2044E |  OKAY  | ---- | ------- | - | ---------- |
   Picked  : |              611286 ns|              611311 ns|WR-NONSEQ | A582D884 | ----- |  1 | -------- |  ----  |SINGLE|    4    | F |           0|
             |              611286 ns|              611311 ns|WR-NONSEQ | A582D884 | ----- |  1 | -------- |  ----  |SINGLE|    4    | F |           0|
   Picked  : |              611286 ns|              611311 ns|RD-DATA   | A582D904 |  1/ 1 | -- | 00000000 |  OKAY  | ---- | ------- | - | ---------- |
             |              611286 ns|              611311 ns|RD-DATA   | A582D904 |  1/ 1 | -- | 00000000 |  OKAY  | ---- | ------- | - | ---------- |
   Picked  : |              611311 ns|              611341 ns|RD-NONSEQ | A582D804 | ----- |  1 | -------- |  ----  |SINGLE|    4    | 5 |           0|
             |              611311 ns|              611341 ns|RD-NONSEQ | A582D804 | ----- |  1 | -------- |  ----  |SINGLE|    4    | 5 |           0|
   Picked  : |              611311 ns|              611341 ns|WR-DATA   | A582D884 |  1/ 1 | -- | 9F9AE76F |  OKAY  | ---- | ------- | - | ---------- |
             |              611311 ns|              611341 ns|WR-DATA   | A582D884 |  1/ 1 | -- | 9F9AE76F |  OKAY  | ---- | ------- | - | ---------- |
   Picked  : |              611341 ns|              611366 ns|WR-NONSEQ | A582D92C | ----- |  1 | -------- |  ----  |SINGLE|    4    | 5 |           0|
             |              611341 ns|              611366 ns|WR-NONSEQ | A582D92C | ----- |  1 | -------- |  ----  |SINGLE|    4    | 5 |           0|
   Picked  : |              611341 ns|              611366 ns|RD-DATA   | A582D804 |  1/ 1 | -- | 00000000 |  OKAY  | ---- | ------- | - | ---------- |
             |              611341 ns|              611366 ns|RD-DATA   | A582D804 |  1/ 1 | -- | 00000000 |  OKAY  | ---- | ------- | - | ---------- |
   Picked  : |              611366 ns|              611396 ns|RD-NONSEQ | A582DB7C | ----- |  1 | -------- |  ----  |SINGLE|    4    | 2 |           0|
             |              611366 ns|              611396 ns|RD-NONSEQ | A582DB7C | ----- |  1 | -------- |  ----  |SINGLE|    4    | 2 |           0|
   Picked  : |              611366 ns|              611396 ns|WR-DATA   | A582D92C |  1/ 1 | -- | 39072169 |  OKAY  | ---- | ------- | - | ---------- |
             |              611366 ns|              611396 ns|WR-DATA   | A582D92C |  1/ 1 | -- | 39072169 |  OKAY  | ---- | ------- | - | ---------- |
   Picked  : |              611396 ns|              611421 ns|WR-NONSEQ | A582DB78 | ----- |  1 | -------- |  ----  |SINGLE|    4    | A |           0|
             |              611396 ns|              611421 ns|WR-NONSEQ | A582DB78 | ----- |  1 | -------- |  ----  |SINGLE|    4    | A |           0|
   Picked  : |              611396 ns|              611421 ns|RD-DATA   | A582DB7C |  1/ 1 | -- | 706E8832 |  OKAY  | ---- | ------- | - | ---------- |
             |              611396 ns|              611421 ns|RD-DATA   | A582DB7C |  1/ 1 | -- | 706E8832 |  OKAY  | ---- | ------- | - | ---------- |
   Picked  : |              611421 ns|              611451 ns|RD-NONSEQ | A582D9EC | ----- |  1 | -------- |  ----  |SINGLE|    4    | D |           0|
             |              611421 ns|              611451 ns|RD-NONSEQ | A582D9EC | ----- |  1 | -------- |  ----  |SINGLE|    4    | D |           0|
   Picked  : |              611421 ns|              611451 ns|WR-DATA   | A582DB78 |  1/ 1 | -- | 01D8CEDC |  OKAY  | ---- | ------- | - | ---------- |
             |              611421 ns|              611451 ns|WR-DATA   | A582DB78 |  1/ 1 | -- | 01D8CEDC |  OKAY  | ---- | ------- | - | ---------- |
   Picked  : |              611451 ns|              611476 ns|WR-NONSEQ | A582D8C8 | ----- |  1 | -------- |  ----  |SINGLE|    4    | A |           0|
             |              611451 ns|              611476 ns|WR-NONSEQ | A582D8C8 | ----- |  1 | -------- |  ----  |SINGLE|    4    | A |           0|
   Picked  : |              611451 ns|              611476 ns|RD-DATA   | A582D9EC |  1/ 1 | -- | 00000000 |  OKAY  | ---- | ------- | - | ---------- |
             |              611451 ns|              611476 ns|RD-DATA   | A582D9EC |  1/ 1 | -- | 00000000 |  OKAY  | ---- | ------- | - | ---------- |
   Picked  : |              611476 ns|              611506 ns|RD-NONSEQ | A582DB0C | ----- |  1 | -------- |  ----  |SINGLE|    4    | C |           0|
             |              611476 ns|              611506 ns|RD-NONSEQ | A582DB0C | ----- |  1 | -------- |  ----  |SINGLE|    4    | C |           0|
   Picked  : |              611476 ns|              611506 ns|WR-DATA   | A582D8C8 |  1/ 1 | -- | 3E71B91B |  OKAY  | ---- | ------- | - | ---------- |
             |              611476 ns|              611506 ns|WR-DATA   | A582D8C8 |  1/ 1 | -- | 3E71B91B |  OKAY  | ---- | ------- | - | ---------- |
   Picked  : |              611506 ns|              611531 ns|WR-NONSEQ | A582DA20 | ----- |  1 | -------- |  ----  |SINGLE|    4    | B |           0|
             |              611506 ns|              611531 ns|WR-NONSEQ | A582DA20 | ----- |  1 | -------- |  ----  |SINGLE|    4    | B |           0|
   Picked  : |              611506 ns|              611531 ns|RD-DATA   | A582DB0C |  1/ 1 | -- | 00000000 |  OKAY  | ---- | ------- | - | ---------- |
             |              611506 ns|              611531 ns|RD-DATA   | A582DB0C |  1/ 1 | -- | 00000000 |  OKAY  | ---- | ------- | - | ---------- |
   Picked  : |              611531 ns|              611561 ns|RD-NONSEQ | A582D9C0 | ----- |  1 | -------- |  ----  |SINGLE|    4    | 8 |           0|
             |              611531 ns|              611561 ns|RD-NONSEQ | A582D9C0 | ----- |  1 | -------- |  ----  |SINGLE|    4    | 8 |           0|
   Picked  : |              611531 ns|              611561 ns|WR-DATA   | A582DA20 |  1/ 1 | -- | 682270B8 |  OKAY  | ---- | ------- | - | ---------- |
             |              611531 ns|              611561 ns|WR-DATA   | A582DA20 |  1/ 1 | -- | 682270B8 |  OKAY  | ---- | ------- | - | ---------- |
   Picked  : |              611561 ns|              611586 ns|WR-NONSEQ | A582DA4C | ----- |  1 | -------- |  ----  |SINGLE|    4    | 2 |           0|
             |              611561 ns|              611586 ns|WR-NONSEQ | A582DA4C | ----- |  1 | -------- |  ----  |SINGLE|    4    | 2 |           0|
   Picked  : |              611561 ns|              611586 ns|RD-DATA   | A582D9C0 |  1/ 1 | -- | 00000000 |  OKAY  | ---- | ------- | - | ---------- |
             |              611561 ns|              611586 ns|RD-DATA   | A582D9C0 |  1/ 1 | -- | 00000000 |  OKAY  | ---- | ------- | - | ---------- |
   Picked  : |              611586 ns|              611616 ns|RD-NONSEQ | A582D964 | ----- |  1 | -------- |  ----  |SINGLE|    4    | F |           0|
             |              611586 ns|              611616 ns|RD-NONSEQ | A582D964 | ----- |  1 | -------- |  ----  |SINGLE|    4    | F |           0|
   Picked  : |              611586 ns|              611616 ns|WR-DATA   | A582DA4C |  1/ 1 | -- | 4958B481 |  OKAY  | ---- | ------- | - | ---------- |
             |              611586 ns|              611616 ns|WR-DATA   | A582DA4C |  1/ 1 | -- | 4958B481 |  OKAY  | ---- | ------- | - | ---------- |
   Picked  : |              611616 ns|              611641 ns|WR-NONSEQ | A582D9C8 | ----- |  1 | -------- |  ----  |SINGLE|    4    | 5 |           0|
             |              611616 ns|              611641 ns|WR-NONSEQ | A582D9C8 | ----- |  1 | -------- |  ----  |SINGLE|    4    | 5 |           0|
   Picked  : |              611616 ns|              611641 ns|RD-DATA   | A582D964 |  1/ 1 | -- | 00000000 |  OKAY  | ---- | ------- | - | ---------- |
             |              611616 ns|              611641 ns|RD-DATA   | A582D964 |  1/ 1 | -- | 00000000 |  OKAY  | ---- | ------- | - | ---------- |
   Picked  : |              611641 ns|              611671 ns|RD-NONSEQ | A582D8A8 | ----- |  1 | -------- |  ----  |SINGLE|    4    | C |           0|
             |              611641 ns|              611671 ns|RD-NONSEQ | A582D8A8 | ----- |  1 | -------- |  ----  |SINGLE|    4    | C |           0|
   Picked  : |              611641 ns|              611671 ns|WR-DATA   | A582D9C8 |  1/ 1 | -- | 6609E888 |  OKAY  | ---- | ------- | - | ---------- |
             |              611641 ns|              611671 ns|WR-DATA   | A582D9C8 |  1/ 1 | -- | 6609E888 |  OKAY  | ---- | ------- | - | ---------- |
   Picked  : |              611671 ns|              611696 ns|WR-NONSEQ | A582DA54 | ----- |  1 | -------- |  ----  |SINGLE|    4    | B |           0|
             |              611671 ns|              611696 ns|WR-NONSEQ | A582DA54 | ----- |  1 | -------- |  ----  |SINGLE|    4    | B |           0|
   Picked  : |              611671 ns|              611696 ns|RD-DATA   | A582D8A8 |  1/ 1 | -- | 00000000 |  OKAY  | ---- | ------- | - | ---------- |
             |              611671 ns|              611696 ns|RD-DATA   | A582D8A8 |  1/ 1 | -- | 00000000 |  OKAY  | ---- | ------- | - | ---------- |
   Picked  : |              611696 ns|              611726 ns|RD-NONSEQ | A582D94C | ----- |  1 | -------- |  ----  |SINGLE|    4    | 4 |           0|
             |              611696 ns|              611726 ns|RD-NONSEQ | A582D94C | ----- |  1 | -------- |  ----  |SINGLE|    4    | 4 |           0|
   Picked  : |              611696 ns|              611726 ns|WR-DATA   | A582DA54 |  1/ 1 | -- | CDF9AC12 |  OKAY  | ---- | ------- | - | ---------- |
             |              611696 ns|              611726 ns|WR-DATA   | A582DA54 |  1/ 1 | -- | CDF9AC12 |  OKAY  | ---- | ------- | - | ---------- |
   Picked  : |              611726 ns|              611751 ns|WR-NONSEQ | A582DA94 | ----- |  1 | -------- |  ----  |SINGLE|    4    | 2 |           0|
             |              611726 ns|              611751 ns|WR-NONSEQ | A582DA94 | ----- |  1 | -------- |  ----  |SINGLE|    4    | 2 |           0|
   Picked  : |              611726 ns|              611751 ns|RD-DATA   | A582D94C |  1/ 1 | -- | 00000000 |  OKAY  | ---- | ------- | - | ---------- |
             |              611726 ns|              611751 ns|RD-DATA   | A582D94C |  1/ 1 | -- | 00000000 |  OKAY  | ---- | ------- | - | ---------- |
   Picked  : |              611751 ns|              611781 ns|RD-NONSEQ | A582DBB4 | ----- |  1 | -------- |  ----  |SINGLE|    4    | C |           0|
             |              611751 ns|              611781 ns|RD-NONSEQ | A582DBB4 | ----- |  1 | -------- |  ----  |SINGLE|    4    | C |           0|
   Picked  : |              611751 ns|              611781 ns|WR-DATA   | A582DA94 |  1/ 1 | -- | 09C2B53E |  OKAY  | ---- | ------- | - | ---------- |
             |              611751 ns|              611781 ns|WR-DATA   | A582DA94 |  1/ 1 | -- | 09C2B53E |  OKAY  | ---- | ------- | - | ---------- |
   Picked  : |              611781 ns|              611806 ns|WR-NONSEQ | A582DB1C | ----- |  1 | -------- |  ----  |SINGLE|    4    | 6 |           0|
             |              611781 ns|              611806 ns|WR-NONSEQ | A582DB1C | ----- |  1 | -------- |  ----  |SINGLE|    4    | 6 |           0|
   Picked  : |              611781 ns|              611806 ns|RD-DATA   | A582DBB4 |  1/ 1 | -- | 00000000 |  OKAY  | ---- | ------- | - | ---------- |
             |              611781 ns|              611806 ns|RD-DATA   | A582DBB4 |  1/ 1 | -- | 00000000 |  OKAY  | ---- | ------- | - | ---------- |
   Picked  : |              611806 ns|              611836 ns|RD-NONSEQ | A582DA78 | ----- |  1 | -------- |  ----  |SINGLE|    4    | E |           0|
             |              611806 ns|              611836 ns|RD-NONSEQ | A582DA78 | ----- |  1 | -------- |  ----  |SINGLE|    4    | E |           0|
   Picked  : |              611806 ns|              611836 ns|WR-DATA   | A582DB1C |  1/ 1 | -- | A7287D93 |  OKAY  | ---- | ------- | - | ---------- |
             |              611806 ns|              611836 ns|WR-DATA   | A582DB1C |  1/ 1 | -- | A7287D93 |  OKAY  | ---- | ------- | - | ---------- |
   Picked  : |              611836 ns|              611861 ns|WR-NONSEQ | A582D804 | ----- |  1 | -------- |  ----  |SINGLE|    4    | B |           0|
             |              611836 ns|              611861 ns|WR-NONSEQ | A582D804 | ----- |  1 | -------- |  ----  |SINGLE|    4    | B |           0|
   Picked  : |              611836 ns|              611861 ns|RD-DATA   | A582DA78 |  1/ 1 | -- | 00000000 |  OKAY  | ---- | ------- | - | ---------- |
             |              611836 ns|              611861 ns|RD-DATA   | A582DA78 |  1/ 1 | -- | 00000000 |  OKAY  | ---- | ------- | - | ---------- |
   Picked  : |              611861 ns|              611891 ns|RD-NONSEQ | A582DA70 | ----- |  1 | -------- |  ----  |SINGLE|    4    | 6 |           0|
             |              611861 ns|              611891 ns|RD-NONSEQ | A582DA70 | ----- |  1 | -------- |  ----  |SINGLE|    4    | 6 |           0|
   Picked  : |              611861 ns|              611891 ns|WR-DATA   | A582D804 |  1/ 1 | -- | D69984EA |  OKAY  | ---- | ------- | - | ---------- |
             |              611861 ns|              611891 ns|WR-DATA   | A582D804 |  1/ 1 | -- | D69984EA |  OKAY  | ---- | ------- | - | ---------- |
   Picked  : |              611891 ns|              611916 ns|WR-NONSEQ | A582DAA8 | ----- |  1 | -------- |  ----  |SINGLE|    4    | E |           0|
             |              611891 ns|              611916 ns|WR-NONSEQ | A582DAA8 | ----- |  1 | -------- |  ----  |SINGLE|    4    | E |           0|
   Picked  : |              611891 ns|              611916 ns|RD-DATA   | A582DA70 |  1/ 1 | -- | 8B046599 |  OKAY  | ---- | ------- | - | ---------- |
             |              611891 ns|              611916 ns|RD-DATA   | A582DA70 |  1/ 1 | -- | 8B046599 |  OKAY  | ---- | ------- | - | ---------- |
   Picked  : |              611916 ns|              611946 ns|RD-NONSEQ | A582D840 | ----- |  1 | -------- |  ----  |SINGLE|    4    | 0 |           0|
             |              611916 ns|              611946 ns|RD-NONSEQ | A582D840 | ----- |  1 | -------- |  ----  |SINGLE|    4    | 0 |           0|
   Picked  : |              611916 ns|              611946 ns|WR-DATA   | A582DAA8 |  1/ 1 | -- | E4A1E8C1 |  OKAY  | ---- | ------- | - | ---------- |
             |              611916 ns|              611946 ns|WR-DATA   | A582DAA8 |  1/ 1 | -- | E4A1E8C1 |  OKAY  | ---- | ------- | - | ---------- |
   Picked  : |              611946 ns|              611971 ns|WR-NONSEQ | A582D8D0 | ----- |  1 | -------- |  ----  |SINGLE|    4    | 9 |           0|
             |              611946 ns|              611971 ns|WR-NONSEQ | A582D8D0 | ----- |  1 | -------- |  ----  |SINGLE|    4    | 9 |           0|
   Picked  : |              611946 ns|              611971 ns|RD-DATA   | A582D840 |  1/ 1 | -- | 00000000 |  OKAY  | ---- | ------- | - | ---------- |
             |              611946 ns|              611971 ns|RD-DATA   | A582D840 |  1/ 1 | -- | 00000000 |  OKAY  | ---- | ------- | - | ---------- |
   Picked  : |              611971 ns|              612001 ns|RD-NONSEQ | A582DBDC | ----- |  1 | -------- |  ----  |SINGLE|    4    | D |           0|
             |              611971 ns|              612001 ns|RD-NONSEQ | A582DBDC | ----- |  1 | -------- |  ----  |SINGLE|    4    | D |           0|
   Picked  : |              611971 ns|              612001 ns|WR-DATA   | A582D8D0 |  1/ 1 | -- | 282B24CF |  OKAY  | ---- | ------- | - | ---------- |
             |              611971 ns|              612001 ns|WR-DATA   | A582D8D0 |  1/ 1 | -- | 282B24CF |  OKAY  | ---- | ------- | - | ---------- |
   Picked  : |              612001 ns|              612026 ns|WR-NONSEQ | A582D9A8 | ----- |  1 | -------- |  ----  |SINGLE|    4    | 5 |           0|
             |              612001 ns|              612026 ns|WR-NONSEQ | A582D9A8 | ----- |  1 | -------- |  ----  |SINGLE|    4    | 5 |           0|
   Picked  : |              612001 ns|              612026 ns|RD-DATA   | A582DBDC |  1/ 1 | -- | 00000000 |  OKAY  | ---- | ------- | - | ---------- |
             |              612001 ns|              612026 ns|RD-DATA   | A582DBDC |  1/ 1 | -- | 00000000 |  OKAY  | ---- | ------- | - | ---------- |
   Picked  : |              612026 ns|              612056 ns|RD-NONSEQ | A582D824 | ----- |  1 | -------- |  ----  |SINGLE|    4    | D |           0|
             |              612026 ns|              612056 ns|RD-NONSEQ | A582D824 | ----- |  1 | -------- |  ----  |SINGLE|    4    | D |           0|
   Picked  : |              612026 ns|              612056 ns|WR-DATA   | A582D9A8 |  1/ 1 | -- | A6E1D448 |  OKAY  | ---- | ------- | - | ---------- |
             |              612026 ns|              612056 ns|WR-DATA   | A582D9A8 |  1/ 1 | -- | A6E1D448 |  OKAY  | ---- | ------- | - | ---------- |
   Picked  : |              612056 ns|              612081 ns|WR-NONSEQ | A582DA0C | ----- |  1 | -------- |  ----  |SINGLE|    4    | F |           0|
             |              612056 ns|              612081 ns|WR-NONSEQ | A582DA0C | ----- |  1 | -------- |  ----  |SINGLE|    4    | F |           0|
   Picked  : |              612056 ns|              612081 ns|RD-DATA   | A582D824 |  1/ 1 | -- | 00000000 |  OKAY  | ---- | ------- | - | ---------- |
             |              612056 ns|              612081 ns|RD-DATA   | A582D824 |  1/ 1 | -- | 00000000 |  OKAY  | ---- | ------- | - | ---------- |
   Picked  : |              612081 ns|              612111 ns|RD-NONSEQ | A582D880 | ----- |  1 | -------- |  ----  |SINGLE|    4    | F |           0|
             |              612081 ns|              612111 ns|RD-NONSEQ | A582D880 | ----- |  1 | -------- |  ----  |SINGLE|    4    | F |           0|
   Picked  : |              612081 ns|              612111 ns|WR-DATA   | A582DA0C |  1/ 1 | -- | 3D9B786B |  OKAY  | ---- | ------- | - | ---------- |
             |              612081 ns|              612111 ns|WR-DATA   | A582DA0C |  1/ 1 | -- | 3D9B786B |  OKAY  | ---- | ------- | - | ---------- |
   Picked  : |              612111 ns|              612136 ns|WR-NONSEQ | A582DB9C | ----- |  1 | -------- |  ----  |SINGLE|    4    | 5 |           0|
             |              612111 ns|              612136 ns|WR-NONSEQ | A582DB9C | ----- |  1 | -------- |  ----  |SINGLE|    4    | 5 |           0|
   Picked  : |              612111 ns|              612136 ns|RD-DATA   | A582D880 |  1/ 1 | -- | 00000000 |  OKAY  | ---- | ------- | - | ---------- |
             |              612111 ns|              612136 ns|RD-DATA   | A582D880 |  1/ 1 | -- | 00000000 |  OKAY  | ---- | ------- | - | ---------- |
   Picked  : |              612136 ns|              612166 ns|RD-NONSEQ | A582D894 | ----- |  1 | -------- |  ----  |SINGLE|    4    | C |           0|
             |              612136 ns|              612166 ns|RD-NONSEQ | A582D894 | ----- |  1 | -------- |  ----  |SINGLE|    4    | C |           0|
   Picked  : |              612136 ns|              612166 ns|WR-DATA   | A582DB9C |  1/ 1 | -- | 6A15DAF7 |  OKAY  | ---- | ------- | - | ---------- |
             |              612136 ns|              612166 ns|WR-DATA   | A582DB9C |  1/ 1 | -- | 6A15DAF7 |  OKAY  | ---- | ------- | - | ---------- |
   Picked  : |              612166 ns|              612191 ns|WR-NONSEQ | A582D830 | ----- |  1 | -------- |  ----  |SINGLE|    4    | F |           0|
             |              612166 ns|              612191 ns|WR-NONSEQ | A582D830 | ----- |  1 | -------- |  ----  |SINGLE|    4    | F |           0|
   Picked  : |              612166 ns|              612191 ns|RD-DATA   | A582D894 |  1/ 1 | -- | B845F8A9 |  OKAY  | ---- | ------- | - | ---------- |
             |              612166 ns|              612191 ns|RD-DATA   | A582D894 |  1/ 1 | -- | B845F8A9 |  OKAY  | ---- | ------- | - | ---------- |
   Picked  : |              612191 ns|              612221 ns|RD-NONSEQ | A582D828 | ----- |  1 | -------- |  ----  |SINGLE|    4    | 9 |           0|
             |              612191 ns|              612221 ns|RD-NONSEQ | A582D828 | ----- |  1 | -------- |  ----  |SINGLE|    4    | 9 |           0|
   Picked  : |              612191 ns|              612221 ns|WR-DATA   | A582D830 |  1/ 1 | -- | D53DC5A9 |  OKAY  | ---- | ------- | - | ---------- |
             |              612191 ns|              612221 ns|WR-DATA   | A582D830 |  1/ 1 | -- | D53DC5A9 |  OKAY  | ---- | ------- | - | ---------- |
   Picked  : |              612221 ns|              612246 ns|WR-NONSEQ | A582DA10 | ----- |  1 | -------- |  ----  |SINGLE|    4    | 8 |           0|
             |              612221 ns|              612246 ns|WR-NONSEQ | A582DA10 | ----- |  1 | -------- |  ----  |SINGLE|    4    | 8 |           0|
   Picked  : |              612221 ns|              612246 ns|RD-DATA   | A582D828 |  1/ 1 | -- | 00000000 |  OKAY  | ---- | ------- | - | ---------- |
             |              612221 ns|              612246 ns|RD-DATA   | A582D828 |  1/ 1 | -- | 00000000 |  OKAY  | ---- | ------- | - | ---------- |
   Picked  : |              612246 ns|              612276 ns|RD-NONSEQ | A582D9A4 | ----- |  1 | -------- |  ----  |SINGLE|    4    | 9 |           0|
             |              612246 ns|              612276 ns|RD-NONSEQ | A582D9A4 | ----- |  1 | -------- |  ----  |SINGLE|    4    | 9 |           0|
   Picked  : |              612246 ns|              612276 ns|WR-DATA   | A582DA10 |  1/ 1 | -- | 3A4E5E79 |  OKAY  | ---- | ------- | - | ---------- |
             |              612246 ns|              612276 ns|WR-DATA   | A582DA10 |  1/ 1 | -- | 3A4E5E79 |  OKAY  | ---- | ------- | - | ---------- |
   Picked  : |              612276 ns|              612301 ns|WR-NONSEQ | A582DA4C | ----- |  1 | -------- |  ----  |SINGLE|    4    | A |           0|
             |              612276 ns|              612301 ns|WR-NONSEQ | A582DA4C | ----- |  1 | -------- |  ----  |SINGLE|    4    | A |           0|
   Picked  : |              612276 ns|              612301 ns|RD-DATA   | A582D9A4 |  1/ 1 | -- | 00000000 |  OKAY  | ---- | ------- | - | ---------- |
             |              612276 ns|              612301 ns|RD-DATA   | A582D9A4 |  1/ 1 | -- | 00000000 |  OKAY  | ---- | ------- | - | ---------- |
   Picked  : |              612301 ns|              612331 ns|RD-NONSEQ | A582D9BC | ----- |  1 | -------- |  ----  |SINGLE|    4    | 1 |           0|
             |              612301 ns|              612331 ns|RD-NONSEQ | A582D9BC | ----- |  1 | -------- |  ----  |SINGLE|    4    | 1 |           0|
   Picked  : |              612301 ns|              612331 ns|WR-DATA   | A582DA4C |  1/ 1 | -- | 3D60422A |  OKAY  | ---- | ------- | - | ---------- |
             |              612301 ns|              612331 ns|WR-DATA   | A582DA4C |  1/ 1 | -- | 3D60422A |  OKAY  | ---- | ------- | - | ---------- |
   Picked  : |              612331 ns|              612356 ns|WR-NONSEQ | A582DAD0 | ----- |  1 | -------- |  ----  |SINGLE|    4    | C |           0|
             |              612331 ns|              612356 ns|WR-NONSEQ | A582DAD0 | ----- |  1 | -------- |  ----  |SINGLE|    4    | C |           0|
   Picked  : |              612331 ns|              612356 ns|RD-DATA   | A582D9BC |  1/ 1 | -- | BB550B2B |  OKAY  | ---- | ------- | - | ---------- |
             |              612331 ns|              612356 ns|RD-DATA   | A582D9BC |  1/ 1 | -- | BB550B2B |  OKAY  | ---- | ------- | - | ---------- |
   Picked  : |              612356 ns|              612386 ns|RD-NONSEQ | A582D954 | ----- |  1 | -------- |  ----  |SINGLE|    4    | 8 |           0|
             |              612356 ns|              612386 ns|RD-NONSEQ | A582D954 | ----- |  1 | -------- |  ----  |SINGLE|    4    | 8 |           0|
   Picked  : |              612356 ns|              612386 ns|WR-DATA   | A582DAD0 |  1/ 1 | -- | CD3FEB43 |  OKAY  | ---- | ------- | - | ---------- |
             |              612356 ns|              612386 ns|WR-DATA   | A582DAD0 |  1/ 1 | -- | CD3FEB43 |  OKAY  | ---- | ------- | - | ---------- |
   Picked  : |              612386 ns|              612411 ns|WR-NONSEQ | A582DBE4 | ----- |  1 | -------- |  ----  |SINGLE|    4    | 8 |           0|
             |              612386 ns|              612411 ns|WR-NONSEQ | A582DBE4 | ----- |  1 | -------- |  ----  |SINGLE|    4    | 8 |           0|
   Picked  : |              612386 ns|              612411 ns|RD-DATA   | A582D954 |  1/ 1 | -- | 00000000 |  OKAY  | ---- | ------- | - | ---------- |
             |              612386 ns|              612411 ns|RD-DATA   | A582D954 |  1/ 1 | -- | 00000000 |  OKAY  | ---- | ------- | - | ---------- |
   Picked  : |              612411 ns|              612441 ns|RD-NONSEQ | A582D9F4 | ----- |  1 | -------- |  ----  |SINGLE|    4    | 8 |           0|
             |              612411 ns|              612441 ns|RD-NONSEQ | A582D9F4 | ----- |  1 | -------- |  ----  |SINGLE|    4    | 8 |           0|
   Picked  : |              612411 ns|              612441 ns|WR-DATA   | A582DBE4 |  1/ 1 | -- | 4F7EA062 |  OKAY  | ---- | ------- | - | ---------- |
             |              612411 ns|              612441 ns|WR-DATA   | A582DBE4 |  1/ 1 | -- | 4F7EA062 |  OKAY  | ---- | ------- | - | ---------- |
   Picked  : |              612441 ns|              612466 ns|WR-NONSEQ | A582D9C4 | ----- |  1 | -------- |  ----  |SINGLE|    4    | 6 |           0|
             |              612441 ns|              612466 ns|WR-NONSEQ | A582D9C4 | ----- |  1 | -------- |  ----  |SINGLE|    4    | 6 |           0|
   Picked  : |              612441 ns|              612466 ns|RD-DATA   | A582D9F4 |  1/ 1 | -- | 00000000 |  OKAY  | ---- | ------- | - | ---------- |
             |              612441 ns|              612466 ns|RD-DATA   | A582D9F4 |  1/ 1 | -- | 00000000 |  OKAY  | ---- | ------- | - | ---------- |
   Picked  : |              612466 ns|              612496 ns|RD-NONSEQ | A582D900 | ----- |  1 | -------- |  ----  |SINGLE|    4    | A |           0|
             |              612466 ns|              612496 ns|RD-NONSEQ | A582D900 | ----- |  1 | -------- |  ----  |SINGLE|    4    | A |           0|
   Picked  : |              612466 ns|              612496 ns|WR-DATA   | A582D9C4 |  1/ 1 | -- | A0DA15D9 |  OKAY  | ---- | ------- | - | ---------- |
             |              612466 ns|              612496 ns|WR-DATA   | A582D9C4 |  1/ 1 | -- | A0DA15D9 |  OKAY  | ---- | ------- | - | ---------- |
   Picked  : |              612496 ns|              612521 ns|WR-NONSEQ | A582D8E8 | ----- |  1 | -------- |  ----  |SINGLE|    4    | C |           0|
             |              612496 ns|              612521 ns|WR-NONSEQ | A582D8E8 | ----- |  1 | -------- |  ----  |SINGLE|    4    | C |           0|
   Picked  : |              612496 ns|              612521 ns|RD-DATA   | A582D900 |  1/ 1 | -- | 00000000 |  OKAY  | ---- | ------- | - | ---------- |
             |              612496 ns|              612521 ns|RD-DATA   | A582D900 |  1/ 1 | -- | 00000000 |  OKAY  | ---- | ------- | - | ---------- |
   Picked  : |              612521 ns|              612551 ns|RD-NONSEQ | A582D948 | ----- |  1 | -------- |  ----  |SINGLE|    4    | F |           0|
             |              612521 ns|              612551 ns|RD-NONSEQ | A582D948 | ----- |  1 | -------- |  ----  |SINGLE|    4    | F |           0|
   Picked  : |              612521 ns|              612551 ns|WR-DATA   | A582D8E8 |  1/ 1 | -- | E140F39B |  OKAY  | ---- | ------- | - | ---------- |
             |              612521 ns|              612551 ns|WR-DATA   | A582D8E8 |  1/ 1 | -- | E140F39B |  OKAY  | ---- | ------- | - | ---------- |
   Picked  : |              612551 ns|              612576 ns|WR-NONSEQ | A582DA48 | ----- |  1 | -------- |  ----  |SINGLE|    4    | A |           0|
             |              612551 ns|              612576 ns|WR-NONSEQ | A582DA48 | ----- |  1 | -------- |  ----  |SINGLE|    4    | A |           0|
   Picked  : |              612551 ns|              612576 ns|RD-DATA   | A582D948 |  1/ 1 | -- | 50A33132 |  OKAY  | ---- | ------- | - | ---------- |
             |              612551 ns|              612576 ns|RD-DATA   | A582D948 |  1/ 1 | -- | 50A33132 |  OKAY  | ---- | ------- | - | ---------- |
   Picked  : |              612576 ns|              612606 ns|RD-NONSEQ | A582DA10 | ----- |  1 | -------- |  ----  |SINGLE|    4    | 9 |           0|
             |              612576 ns|              612606 ns|RD-NONSEQ | A582DA10 | ----- |  1 | -------- |  ----  |SINGLE|    4    | 9 |           0|
   Picked  : |              612576 ns|              612606 ns|WR-DATA   | A582DA48 |  1/ 1 | -- | 71F2094F |  OKAY  | ---- | ------- | - | ---------- |
             |              612576 ns|              612606 ns|WR-DATA   | A582DA48 |  1/ 1 | -- | 71F2094F |  OKAY  | ---- | ------- | - | ---------- |
   Picked  : |              612606 ns|              612631 ns|WR-NONSEQ | A582D944 | ----- |  1 | -------- |  ----  |SINGLE|    4    | 5 |           0|
             |              612606 ns|              612631 ns|WR-NONSEQ | A582D944 | ----- |  1 | -------- |  ----  |SINGLE|    4    | 5 |           0|
   Picked  : |              612606 ns|              612631 ns|RD-DATA   | A582DA10 |  1/ 1 | -- | 3A4E5E79 |  OKAY  | ---- | ------- | - | ---------- |
             |              612606 ns|              612631 ns|RD-DATA   | A582DA10 |  1/ 1 | -- | 3A4E5E79 |  OKAY  | ---- | ------- | - | ---------- |
   Picked  : |              612631 ns|              612661 ns|RD-NONSEQ | A582DB50 | ----- |  1 | -------- |  ----  |SINGLE|    4    | 4 |           0|
             |              612631 ns|              612661 ns|RD-NONSEQ | A582DB50 | ----- |  1 | -------- |  ----  |SINGLE|    4    | 4 |           0|
   Picked  : |              612631 ns|              612661 ns|WR-DATA   | A582D944 |  1/ 1 | -- | B2E466B7 |  OKAY  | ---- | ------- | - | ---------- |
             |              612631 ns|              612661 ns|WR-DATA   | A582D944 |  1/ 1 | -- | B2E466B7 |  OKAY  | ---- | ------- | - | ---------- |
   Picked  : |              612661 ns|              612686 ns|WR-NONSEQ | A582D830 | ----- |  1 | -------- |  ----  |SINGLE|    4    | 9 |           0|
             |              612661 ns|              612686 ns|WR-NONSEQ | A582D830 | ----- |  1 | -------- |  ----  |SINGLE|    4    | 9 |           0|
   Picked  : |              612661 ns|              612686 ns|RD-DATA   | A582DB50 |  1/ 1 | -- | 00000000 |  OKAY  | ---- | ------- | - | ---------- |
             |              612661 ns|              612686 ns|RD-DATA   | A582DB50 |  1/ 1 | -- | 00000000 |  OKAY  | ---- | ------- | - | ---------- |
   Picked  : |              612686 ns|              612716 ns|RD-NONSEQ | A582DAD8 | ----- |  1 | -------- |  ----  |SINGLE|    4    | E |           0|
             |              612686 ns|              612716 ns|RD-NONSEQ | A582DAD8 | ----- |  1 | -------- |  ----  |SINGLE|    4    | E |           0|
   Picked  : |              612686 ns|              612716 ns|WR-DATA   | A582D830 |  1/ 1 | -- | 57720BD4 |  OKAY  | ---- | ------- | - | ---------- |
             |              612686 ns|              612716 ns|WR-DATA   | A582D830 |  1/ 1 | -- | 57720BD4 |  OKAY  | ---- | ------- | - | ---------- |
   Picked  : |              612716 ns|              612741 ns|WR-NONSEQ | A582D8B8 | ----- |  1 | -------- |  ----  |SINGLE|    4    | 2 |           0|
             |              612716 ns|              612741 ns|WR-NONSEQ | A582D8B8 | ----- |  1 | -------- |  ----  |SINGLE|    4    | 2 |           0|
   Picked  : |              612716 ns|              612741 ns|RD-DATA   | A582DAD8 |  1/ 1 | -- | 00000000 |  OKAY  | ---- | ------- | - | ---------- |
             |              612716 ns|              612741 ns|RD-DATA   | A582DAD8 |  1/ 1 | -- | 00000000 |  OKAY  | ---- | ------- | - | ---------- |
   Picked  : |              612741 ns|              612771 ns|RD-NONSEQ | A582D960 | ----- |  1 | -------- |  ----  |SINGLE|    4    | D |           0|
             |              612741 ns|              612771 ns|RD-NONSEQ | A582D960 | ----- |  1 | -------- |  ----  |SINGLE|    4    | D |           0|
   Picked  : |              612741 ns|              612771 ns|WR-DATA   | A582D8B8 |  1/ 1 | -- | 9111A852 |  OKAY  | ---- | ------- | - | ---------- |
             |              612741 ns|              612771 ns|WR-DATA   | A582D8B8 |  1/ 1 | -- | 9111A852 |  OKAY  | ---- | ------- | - | ---------- |
   Picked  : |              612771 ns|              612796 ns|WR-NONSEQ | A582D840 | ----- |  1 | -------- |  ----  |SINGLE|    4    | D |           0|
             |              612771 ns|              612796 ns|WR-NONSEQ | A582D840 | ----- |  1 | -------- |  ----  |SINGLE|    4    | D |           0|
   Picked  : |              612771 ns|              612796 ns|RD-DATA   | A582D960 |  1/ 1 | -- | 00000000 |  OKAY  | ---- | ------- | - | ---------- |
             |              612771 ns|              612796 ns|RD-DATA   | A582D960 |  1/ 1 | -- | 00000000 |  OKAY  | ---- | ------- | - | ---------- |
   Picked  : |              612796 ns|              612826 ns|RD-NONSEQ | A582D9B0 | ----- |  1 | -------- |  ----  |SINGLE|    4    | 3 |           0|
             |              612796 ns|              612826 ns|RD-NONSEQ | A582D9B0 | ----- |  1 | -------- |  ----  |SINGLE|    4    | 3 |           0|
   Picked  : |              612796 ns|              612826 ns|WR-DATA   | A582D840 |  1/ 1 | -- | B55AE598 |  OKAY  | ---- | ------- | - | ---------- |
             |              612796 ns|              612826 ns|WR-DATA   | A582D840 |  1/ 1 | -- | B55AE598 |  OKAY  | ---- | ------- | - | ---------- |
   Picked  : |              612826 ns|              612851 ns|WR-NONSEQ | A582D9D4 | ----- |  1 | -------- |  ----  |SINGLE|    4    | 8 |           0|
             |              612826 ns|              612851 ns|WR-NONSEQ | A582D9D4 | ----- |  1 | -------- |  ----  |SINGLE|    4    | 8 |           0|
   Picked  : |              612826 ns|              612851 ns|RD-DATA   | A582D9B0 |  1/ 1 | -- | 00000000 |  OKAY  | ---- | ------- | - | ---------- |
             |              612826 ns|              612851 ns|RD-DATA   | A582D9B0 |  1/ 1 | -- | 00000000 |  OKAY  | ---- | ------- | - | ---------- |
   Picked  : |              612851 ns|              612881 ns|RD-NONSEQ | A582DA74 | ----- |  1 | -------- |  ----  |SINGLE|    4    | A |           0|
             |              612851 ns|              612881 ns|RD-NONSEQ | A582DA74 | ----- |  1 | -------- |  ----  |SINGLE|    4    | A |           0|
   Picked  : |              612851 ns|              612881 ns|WR-DATA   | A582D9D4 |  1/ 1 | -- | E12E459A |  OKAY  | ---- | ------- | - | ---------- |
             |              612851 ns|              612881 ns|WR-DATA   | A582D9D4 |  1/ 1 | -- | E12E459A |  OKAY  | ---- | ------- | - | ---------- |
   Picked  : |              612881 ns|              612906 ns|WR-NONSEQ | A582D934 | ----- |  1 | -------- |  ----  |SINGLE|    4    | B |           0|
             |              612881 ns|              612906 ns|WR-NONSEQ | A582D934 | ----- |  1 | -------- |  ----  |SINGLE|    4    | B |           0|
   Picked  : |              612881 ns|              612906 ns|RD-DATA   | A582DA74 |  1/ 1 | -- | 00000000 |  OKAY  | ---- | ------- | - | ---------- |
             |              612881 ns|              612906 ns|RD-DATA   | A582DA74 |  1/ 1 | -- | 00000000 |  OKAY  | ---- | ------- | - | ---------- |
   Picked  : |              612906 ns|              612936 ns|RD-NONSEQ | A582D95C | ----- |  1 | -------- |  ----  |SINGLE|    4    | C |           0|
             |              612906 ns|              612936 ns|RD-NONSEQ | A582D95C | ----- |  1 | -------- |  ----  |SINGLE|    4    | C |           0|
   Picked  : |              612906 ns|              612936 ns|WR-DATA   | A582D934 |  1/ 1 | -- | 2B225501 |  OKAY  | ---- | ------- | - | ---------- |
             |              612906 ns|              612936 ns|WR-DATA   | A582D934 |  1/ 1 | -- | 2B225501 |  OKAY  | ---- | ------- | - | ---------- |
   Picked  : |              612936 ns|              612961 ns|WR-NONSEQ | A582D9D8 | ----- |  1 | -------- |  ----  |SINGLE|    4    | 6 |           0|
             |              612936 ns|              612961 ns|WR-NONSEQ | A582D9D8 | ----- |  1 | -------- |  ----  |SINGLE|    4    | 6 |           0|
   Picked  : |              612936 ns|              612961 ns|RD-DATA   | A582D95C |  1/ 1 | -- | 00000000 |  OKAY  | ---- | ------- | - | ---------- |
             |              612936 ns|              612961 ns|RD-DATA   | A582D95C |  1/ 1 | -- | 00000000 |  OKAY  | ---- | ------- | - | ---------- |
   Picked  : |              612961 ns|              612991 ns|RD-NONSEQ | A582D97C | ----- |  1 | -------- |  ----  |SINGLE|    4    | A |           0|
             |              612961 ns|              612991 ns|RD-NONSEQ | A582D97C | ----- |  1 | -------- |  ----  |SINGLE|    4    | A |           0|
   Picked  : |              612961 ns|              612991 ns|WR-DATA   | A582D9D8 |  1/ 1 | -- | 73B1D70F |  OKAY  | ---- | ------- | - | ---------- |
             |              612961 ns|              612991 ns|WR-DATA   | A582D9D8 |  1/ 1 | -- | 73B1D70F |  OKAY  | ---- | ------- | - | ---------- |
   Picked  : |              612991 ns|              613016 ns|WR-NONSEQ | A582DBA0 | ----- |  1 | -------- |  ----  |SINGLE|    4    | B |           0|
             |              612991 ns|              613016 ns|WR-NONSEQ | A582DBA0 | ----- |  1 | -------- |  ----  |SINGLE|    4    | B |           0|
   Picked  : |              612991 ns|              613016 ns|RD-DATA   | A582D97C |  1/ 1 | -- | 00000000 |  OKAY  | ---- | ------- | - | ---------- |
             |              612991 ns|              613016 ns|RD-DATA   | A582D97C |  1/ 1 | -- | 00000000 |  OKAY  | ---- | ------- | - | ---------- |
   Picked  : |              613016 ns|              613046 ns|RD-NONSEQ | A582DA3C | ----- |  1 | -------- |  ----  |SINGLE|    4    | 4 |           0|
             |              613016 ns|              613046 ns|RD-NONSEQ | A582DA3C | ----- |  1 | -------- |  ----  |SINGLE|    4    | 4 |           0|
   Picked  : |              613016 ns|              613046 ns|WR-DATA   | A582DBA0 |  1/ 1 | -- | 4C06F32C |  OKAY  | ---- | ------- | - | ---------- |
             |              613016 ns|              613046 ns|WR-DATA   | A582DBA0 |  1/ 1 | -- | 4C06F32C |  OKAY  | ---- | ------- | - | ---------- |
   Picked  : |              613046 ns|              613071 ns|WR-NONSEQ | A582D808 | ----- |  1 | -------- |  ----  |SINGLE|    4    | 1 |           0|
             |              613046 ns|              613071 ns|WR-NONSEQ | A582D808 | ----- |  1 | -------- |  ----  |SINGLE|    4    | 1 |           0|
   Picked  : |              613046 ns|              613071 ns|RD-DATA   | A582DA3C |  1/ 1 | -- | 00000000 |  OKAY  | ---- | ------- | - | ---------- |
             |              613046 ns|              613071 ns|RD-DATA   | A582DA3C |  1/ 1 | -- | 00000000 |  OKAY  | ---- | ------- | - | ---------- |
   Picked  : |              613071 ns|              613101 ns|RD-NONSEQ | A582DB3C | ----- |  1 | -------- |  ----  |SINGLE|    4    | A |           0|
             |              613071 ns|              613101 ns|RD-NONSEQ | A582DB3C | ----- |  1 | -------- |  ----  |SINGLE|    4    | A |           0|
   Picked  : |              613071 ns|              613101 ns|WR-DATA   | A582D808 |  1/ 1 | -- | 219709F6 |  OKAY  | ---- | ------- | - | ---------- |
             |              613071 ns|              613101 ns|WR-DATA   | A582D808 |  1/ 1 | -- | 219709F6 |  OKAY  | ---- | ------- | - | ---------- |
   Picked  : |              613101 ns|              613126 ns|WR-NONSEQ | A582D868 | ----- |  1 | -------- |  ----  |SINGLE|    4    | 7 |           0|
             |              613101 ns|              613126 ns|WR-NONSEQ | A582D868 | ----- |  1 | -------- |  ----  |SINGLE|    4    | 7 |           0|
   Picked  : |              613101 ns|              613126 ns|RD-DATA   | A582DB3C |  1/ 1 | -- | 00000000 |  OKAY  | ---- | ------- | - | ---------- |
             |              613101 ns|              613126 ns|RD-DATA   | A582DB3C |  1/ 1 | -- | 00000000 |  OKAY  | ---- | ------- | - | ---------- |
   Picked  : |              613126 ns|              613156 ns|RD-NONSEQ | A582D92C | ----- |  1 | -------- |  ----  |SINGLE|    4    | 7 |           0|
             |              613126 ns|              613156 ns|RD-NONSEQ | A582D92C | ----- |  1 | -------- |  ----  |SINGLE|    4    | 7 |           0|
   Picked  : |              613126 ns|              613156 ns|WR-DATA   | A582D868 |  1/ 1 | -- | 7C135306 |  OKAY  | ---- | ------- | - | ---------- |
             |              613126 ns|              613156 ns|WR-DATA   | A582D868 |  1/ 1 | -- | 7C135306 |  OKAY  | ---- | ------- | - | ---------- |
   Picked  : |              613156 ns|              613181 ns|WR-NONSEQ | A582DBF4 | ----- |  1 | -------- |  ----  |SINGLE|    4    | E |           0|
             |              613156 ns|              613181 ns|WR-NONSEQ | A582DBF4 | ----- |  1 | -------- |  ----  |SINGLE|    4    | E |           0|
   Picked  : |              613156 ns|              613181 ns|RD-DATA   | A582D92C |  1/ 1 | -- | 39072169 |  OKAY  | ---- | ------- | - | ---------- |
             |              613156 ns|              613181 ns|RD-DATA   | A582D92C |  1/ 1 | -- | 39072169 |  OKAY  | ---- | ------- | - | ---------- |
   Picked  : |              613181 ns|              613211 ns|RD-NONSEQ | A582D858 | ----- |  1 | -------- |  ----  |SINGLE|    4    | 2 |           0|
             |              613181 ns|              613211 ns|RD-NONSEQ | A582D858 | ----- |  1 | -------- |  ----  |SINGLE|    4    | 2 |           0|
   Picked  : |              613181 ns|              613211 ns|WR-DATA   | A582DBF4 |  1/ 1 | -- | 797742A6 |  OKAY  | ---- | ------- | - | ---------- |
             |              613181 ns|              613211 ns|WR-DATA   | A582DBF4 |  1/ 1 | -- | 797742A6 |  OKAY  | ---- | ------- | - | ---------- |
   Picked  : |              613211 ns|              613236 ns|WR-NONSEQ | A582D918 | ----- |  1 | -------- |  ----  |SINGLE|    4    | A |           0|
             |              613211 ns|              613236 ns|WR-NONSEQ | A582D918 | ----- |  1 | -------- |  ----  |SINGLE|    4    | A |           0|
   Picked  : |              613211 ns|              613236 ns|RD-DATA   | A582D858 |  1/ 1 | -- | 00000000 |  OKAY  | ---- | ------- | - | ---------- |
             |              613211 ns|              613236 ns|RD-DATA   | A582D858 |  1/ 1 | -- | 00000000 |  OKAY  | ---- | ------- | - | ---------- |
   Picked  : |              613236 ns|              613266 ns|RD-NONSEQ | A582DA38 | ----- |  1 | -------- |  ----  |SINGLE|    4    | 6 |           0|
             |              613236 ns|              613266 ns|RD-NONSEQ | A582DA38 | ----- |  1 | -------- |  ----  |SINGLE|    4    | 6 |           0|
   Picked  : |              613236 ns|              613266 ns|WR-DATA   | A582D918 |  1/ 1 | -- | CAE67641 |  OKAY  | ---- | ------- | - | ---------- |
             |              613236 ns|              613266 ns|WR-DATA   | A582D918 |  1/ 1 | -- | CAE67641 |  OKAY  | ---- | ------- | - | ---------- |
   Picked  : |              613266 ns|              613291 ns|WR-NONSEQ | A582D89C | ----- |  1 | -------- |  ----  |SINGLE|    4    | E |           0|
             |              613266 ns|              613291 ns|WR-NONSEQ | A582D89C | ----- |  1 | -------- |  ----  |SINGLE|    4    | E |           0|
   Picked  : |              613266 ns|              613291 ns|RD-DATA   | A582DA38 |  1/ 1 | -- | 00000000 |  OKAY  | ---- | ------- | - | ---------- |
             |              613266 ns|              613291 ns|RD-DATA   | A582DA38 |  1/ 1 | -- | 00000000 |  OKAY  | ---- | ------- | - | ---------- |
   Picked  : |              613291 ns|              613321 ns|RD-NONSEQ | A582DA38 | ----- |  1 | -------- |  ----  |SINGLE|    4    | A |           0|
             |              613291 ns|              613321 ns|RD-NONSEQ | A582DA38 | ----- |  1 | -------- |  ----  |SINGLE|    4    | A |           0|
   Picked  : |              613291 ns|              613321 ns|WR-DATA   | A582D89C |  1/ 1 | -- | BC977669 |  OKAY  | ---- | ------- | - | ---------- |
             |              613291 ns|              613321 ns|WR-DATA   | A582D89C |  1/ 1 | -- | BC977669 |  OKAY  | ---- | ------- | - | ---------- |
   Picked  : |              613321 ns|              613346 ns|WR-NONSEQ | A582D95C | ----- |  1 | -------- |  ----  |SINGLE|    4    | C |           0|
             |              613321 ns|              613346 ns|WR-NONSEQ | A582D95C | ----- |  1 | -------- |  ----  |SINGLE|    4    | C |           0|
   Picked  : |              613321 ns|              613346 ns|RD-DATA   | A582DA38 |  1/ 1 | -- | 00000000 |  OKAY  | ---- | ------- | - | ---------- |
             |              613321 ns|              613346 ns|RD-DATA   | A582DA38 |  1/ 1 | -- | 00000000 |  OKAY  | ---- | ------- | - | ---------- |
   Picked  : |              613346 ns|              613376 ns|RD-NONSEQ | A582D890 | ----- |  1 | -------- |  ----  |SINGLE|    4    | 4 |           0|
             |              613346 ns|              613376 ns|RD-NONSEQ | A582D890 | ----- |  1 | -------- |  ----  |SINGLE|    4    | 4 |           0|
   Picked  : |              613346 ns|              613376 ns|WR-DATA   | A582D95C |  1/ 1 | -- | 05B89C1D |  OKAY  | ---- | ------- | - | ---------- |
             |              613346 ns|              613376 ns|WR-DATA   | A582D95C |  1/ 1 | -- | 05B89C1D |  OKAY  | ---- | ------- | - | ---------- |
   Picked  : |              613376 ns|              613401 ns|WR-NONSEQ | A582DBB4 | ----- |  1 | -------- |  ----  |SINGLE|    4    | 9 |           0|
             |              613376 ns|              613401 ns|WR-NONSEQ | A582DBB4 | ----- |  1 | -------- |  ----  |SINGLE|    4    | 9 |           0|
   Picked  : |              613376 ns|              613401 ns|RD-DATA   | A582D890 |  1/ 1 | -- | 00000000 |  OKAY  | ---- | ------- | - | ---------- |
             |              613376 ns|              613401 ns|RD-DATA   | A582D890 |  1/ 1 | -- | 00000000 |  OKAY  | ---- | ------- | - | ---------- |
   Picked  : |              613401 ns|              613431 ns|RD-NONSEQ | A582DB80 | ----- |  1 | -------- |  ----  |SINGLE|    4    | 7 |           0|
             |              613401 ns|              613431 ns|RD-NONSEQ | A582DB80 | ----- |  1 | -------- |  ----  |SINGLE|    4    | 7 |           0|
   Picked  : |              613401 ns|              613431 ns|WR-DATA   | A582DBB4 |  1/ 1 | -- | 80C12170 |  OKAY  | ---- | ------- | - | ---------- |
             |              613401 ns|              613431 ns|WR-DATA   | A582DBB4 |  1/ 1 | -- | 80C12170 |  OKAY  | ---- | ------- | - | ---------- |
   Picked  : |              613431 ns|              613456 ns|WR-NONSEQ | A582D960 | ----- |  1 | -------- |  ----  |SINGLE|    4    | A |           0|
             |              613431 ns|              613456 ns|WR-NONSEQ | A582D960 | ----- |  1 | -------- |  ----  |SINGLE|    4    | A |           0|
   Picked  : |              613431 ns|              613456 ns|RD-DATA   | A582DB80 |  1/ 1 | -- | BC8A0E66 |  OKAY  | ---- | ------- | - | ---------- |
             |              613431 ns|              613456 ns|RD-DATA   | A582DB80 |  1/ 1 | -- | BC8A0E66 |  OKAY  | ---- | ------- | - | ---------- |
   Picked  : |              613456 ns|              613486 ns|RD-NONSEQ | A582D92C | ----- |  1 | -------- |  ----  |SINGLE|    4    | 6 |           0|
             |              613456 ns|              613486 ns|RD-NONSEQ | A582D92C | ----- |  1 | -------- |  ----  |SINGLE|    4    | 6 |           0|
   Picked  : |              613456 ns|              613486 ns|WR-DATA   | A582D960 |  1/ 1 | -- | A7049EB7 |  OKAY  | ---- | ------- | - | ---------- |
             |              613456 ns|              613486 ns|WR-DATA   | A582D960 |  1/ 1 | -- | A7049EB7 |  OKAY  | ---- | ------- | - | ---------- |
   Picked  : |              613486 ns|              613511 ns|WR-NONSEQ | A582DB24 | ----- |  1 | -------- |  ----  |SINGLE|    4    | 3 |           0|
             |              613486 ns|              613511 ns|WR-NONSEQ | A582DB24 | ----- |  1 | -------- |  ----  |SINGLE|    4    | 3 |           0|
   Picked  : |              613486 ns|              613511 ns|RD-DATA   | A582D92C |  1/ 1 | -- | 39072169 |  OKAY  | ---- | ------- | - | ---------- |
             |              613486 ns|              613511 ns|RD-DATA   | A582D92C |  1/ 1 | -- | 39072169 |  OKAY  | ---- | ------- | - | ---------- |
   Picked  : |              613511 ns|              613541 ns|RD-NONSEQ | A582D908 | ----- |  1 | -------- |  ----  |SINGLE|    4    | 0 |           0|
             |              613511 ns|              613541 ns|RD-NONSEQ | A582D908 | ----- |  1 | -------- |  ----  |SINGLE|    4    | 0 |           0|
   Picked  : |              613511 ns|              613541 ns|WR-DATA   | A582DB24 |  1/ 1 | -- | 7460283B |  OKAY  | ---- | ------- | - | ---------- |
             |              613511 ns|              613541 ns|WR-DATA   | A582DB24 |  1/ 1 | -- | 7460283B |  OKAY  | ---- | ------- | - | ---------- |
   Picked  : |              613541 ns|              613566 ns|WR-NONSEQ | A582D860 | ----- |  1 | -------- |  ----  |SINGLE|    4    | B |           0|
             |              613541 ns|              613566 ns|WR-NONSEQ | A582D860 | ----- |  1 | -------- |  ----  |SINGLE|    4    | B |           0|
   Picked  : |              613541 ns|              613566 ns|RD-DATA   | A582D908 |  1/ 1 | -- | FE10265A |  OKAY  | ---- | ------- | - | ---------- |
             |              613541 ns|              613566 ns|RD-DATA   | A582D908 |  1/ 1 | -- | FE10265A |  OKAY  | ---- | ------- | - | ---------- |
   Picked  : |              613566 ns|              613596 ns|RD-NONSEQ | A582D994 | ----- |  1 | -------- |  ----  |SINGLE|    4    | 9 |           0|
             |              613566 ns|              613596 ns|RD-NONSEQ | A582D994 | ----- |  1 | -------- |  ----  |SINGLE|    4    | 9 |           0|
   Picked  : |              613566 ns|              613596 ns|WR-DATA   | A582D860 |  1/ 1 | -- | 1897E284 |  OKAY  | ---- | ------- | - | ---------- |
             |              613566 ns|              613596 ns|WR-DATA   | A582D860 |  1/ 1 | -- | 1897E284 |  OKAY  | ---- | ------- | - | ---------- |
   Picked  : |              613596 ns|              613621 ns|WR-NONSEQ | A582D800 | ----- |  1 | -------- |  ----  |SINGLE|    4    | A |           0|
             |              613596 ns|              613621 ns|WR-NONSEQ | A582D800 | ----- |  1 | -------- |  ----  |SINGLE|    4    | A |           0|
   Picked  : |              613596 ns|              613621 ns|RD-DATA   | A582D994 |  1/ 1 | -- | 00000000 |  OKAY  | ---- | ------- | - | ---------- |
             |              613596 ns|              613621 ns|RD-DATA   | A582D994 |  1/ 1 | -- | 00000000 |  OKAY  | ---- | ------- | - | ---------- |
   Picked  : |              613621 ns|              613651 ns|RD-NONSEQ | A582D9A0 | ----- |  1 | -------- |  ----  |SINGLE|    4    | 8 |           0|
             |              613621 ns|              613651 ns|RD-NONSEQ | A582D9A0 | ----- |  1 | -------- |  ----  |SINGLE|    4    | 8 |           0|
   Picked  : |              613621 ns|              613651 ns|WR-DATA   | A582D800 |  1/ 1 | -- | 659BF521 |  OKAY  | ---- | ------- | - | ---------- |
             |              613621 ns|              613651 ns|WR-DATA   | A582D800 |  1/ 1 | -- | 659BF521 |  OKAY  | ---- | ------- | - | ---------- |
   Picked  : |              613651 ns|              613676 ns|WR-NONSEQ | A582DBC8 | ----- |  1 | -------- |  ----  |SINGLE|    4    | 6 |           0|
             |              613651 ns|              613676 ns|WR-NONSEQ | A582DBC8 | ----- |  1 | -------- |  ----  |SINGLE|    4    | 6 |           0|
   Picked  : |              613651 ns|              613676 ns|RD-DATA   | A582D9A0 |  1/ 1 | -- | 00000000 |  OKAY  | ---- | ------- | - | ---------- |
             |              613651 ns|              613676 ns|RD-DATA   | A582D9A0 |  1/ 1 | -- | 00000000 |  OKAY  | ---- | ------- | - | ---------- |
   Picked  : |              613676 ns|              613706 ns|RD-NONSEQ | A582D9F0 | ----- |  1 | -------- |  ----  |SINGLE|    4    | 9 |           0|
             |              613676 ns|              613706 ns|RD-NONSEQ | A582D9F0 | ----- |  1 | -------- |  ----  |SINGLE|    4    | 9 |           0|
   Picked  : |              613676 ns|              613706 ns|WR-DATA   | A582DBC8 |  1/ 1 | -- | FBE208A9 |  OKAY  | ---- | ------- | - | ---------- |
             |              613676 ns|              613706 ns|WR-DATA   | A582DBC8 |  1/ 1 | -- | FBE208A9 |  OKAY  | ---- | ------- | - | ---------- |
   Picked  : |              613706 ns|              613731 ns|WR-NONSEQ | A582D878 | ----- |  1 | -------- |  ----  |SINGLE|    4    | C |           0|
             |              613706 ns|              613731 ns|WR-NONSEQ | A582D878 | ----- |  1 | -------- |  ----  |SINGLE|    4    | C |           0|
   Picked  : |              613706 ns|              613731 ns|RD-DATA   | A582D9F0 |  1/ 1 | -- | 00000000 |  OKAY  | ---- | ------- | - | ---------- |
             |              613706 ns|              613731 ns|RD-DATA   | A582D9F0 |  1/ 1 | -- | 00000000 |  OKAY  | ---- | ------- | - | ---------- |
   Picked  : |              613731 ns|              613761 ns|RD-NONSEQ | A582DA54 | ----- |  1 | -------- |  ----  |SINGLE|    4    | A |           0|
             |              613731 ns|              613761 ns|RD-NONSEQ | A582DA54 | ----- |  1 | -------- |  ----  |SINGLE|    4    | A |           0|
   Picked  : |              613731 ns|              613761 ns|WR-DATA   | A582D878 |  1/ 1 | -- | 99427D64 |  OKAY  | ---- | ------- | - | ---------- |
             |              613731 ns|              613761 ns|WR-DATA   | A582D878 |  1/ 1 | -- | 99427D64 |  OKAY  | ---- | ------- | - | ---------- |
   Picked  : |              613761 ns|              613786 ns|WR-NONSEQ | A582DB70 | ----- |  1 | -------- |  ----  |SINGLE|    4    | E |           0|
