   Picked  : Instance: uvm_test_top.top_env_i.ahbfab_env_i.mvc_ahb_mon_8_env_i.logger_handle_ahb :: Header
             Instance: uvm_test_top.top_env_i.ahbfab_env_i.mvc_ahb_mon_8_env_i.logger_handle_ahb
   Picked  : AHB Clk Cycle = 40 ns; AHB Clk Frequency = 25.00 MHz; Data bus width = 32 bits
             AHB Clk Cycle = 40 ns; AHB Clk Frequency = 25.00 MHz; Data bus width = 32 bits
   Skipped : ------------------------------------------------------------------------------------------------------------------------------------------
   Skipped : |NONSEQ/SEQ Assert Time |  HREADY Assert Time   |  DIR     |   ADDR   | BEAT  |  L |   DATA   |  RESP  | BURST| BURST   | H |    HSEL    |
   Skipped : |                       |                       |   -      |          |  NUM  |  E |          |        | Type | Size    | P |   (SLAVE   |
   Skipped : |                       |                       | PHASE    |          |       |  N |          |        |      |= 2^HSIZE| R |    INDEX)  |
   Skipped : |                       |                       |          |          |       |    |          |        |      | bytes   | O |            |
   Skipped : |                       |                       |          |          |       |    |          |        |      |         | T |            |
   Skipped : |                       |                       |          |          |       |    |          |        |      |         |   |            |
   Skipped : ------------------------------------------------------------------------------------------------------------------------------------------
   Picked  : |              213940 ns|              213980 ns|RD-NONSEQ | F832116C | ----- |  1 | -------- |  ----  |SINGLE|    4    | 0 |           0|
             |              213940 ns|              213980 ns|RD-NONSEQ | F832116C | ----- |  1 | -------- |  ----  |SINGLE|    4    | 0 |           0|
   Picked  : |              213980 ns|              214700 ns|RD-DATA   | F832116C |  1/ 1 | -- | 00000181 |  OKAY  | ---- | ------- | - | ---------- |
             |              213980 ns|              214700 ns|RD-DATA   | F832116C |  1/ 1 | -- | 00000181 |  OKAY  | ---- | ------- | - | ---------- |
   Picked  : |              215140 ns|              215180 ns|WR-NONSEQ | F832116C | ----- |  1 | -------- |  ----  |SINGLE|    4    | 0 |           0|
             |              215140 ns|              215180 ns|WR-NONSEQ | F832116C | ----- |  1 | -------- |  ----  |SINGLE|    4    | 0 |           0|
   Picked  : |              215180 ns|              215820 ns|WR-DATA   | F832116C |  1/ 1 | -- | 00000181 |  OKAY  | ---- | ------- | - | ---------- |
             |              215180 ns|              215820 ns|WR-DATA   | F832116C |  1/ 1 | -- | 00000181 |  OKAY  | ---- | ------- | - | ---------- |
   Picked  : |              216620 ns|              216660 ns|RD-NONSEQ | F832116C | ----- |  1 | -------- |  ----  |SINGLE|    4    | 0 |           0|
             |              216620 ns|              216660 ns|RD-NONSEQ | F832116C | ----- |  1 | -------- |  ----  |SINGLE|    4    | 0 |           0|
   Picked  : |              216660 ns|              217340 ns|RD-DATA   | F832116C |  1/ 1 | -- | 00000181 |  OKAY  | ---- | ------- | - | ---------- |
             |              216660 ns|              217340 ns|RD-DATA   | F832116C |  1/ 1 | -- | 00000181 |  OKAY  | ---- | ------- | - | ---------- |
   Picked  : |              217780 ns|              217820 ns|WR-NONSEQ | F832116C | ----- |  1 | -------- |  ----  |SINGLE|    4    | 0 |           0|
             |              217780 ns|              217820 ns|WR-NONSEQ | F832116C | ----- |  1 | -------- |  ----  |SINGLE|    4    | 0 |           0|
   Picked  : |              217820 ns|              218540 ns|WR-DATA   | F832116C |  1/ 1 | -- | 00000180 |  OKAY  | ---- | ------- | - | ---------- |
             |              217820 ns|              218540 ns|WR-DATA   | F832116C |  1/ 1 | -- | 00000180 |  OKAY  | ---- | ------- | - | ---------- |
   Picked  : |              219140 ns|              219180 ns|RD-NONSEQ | F832116C | ----- |  1 | -------- |  ----  |SINGLE|    4    | 0 |           0|
             |              219140 ns|              219180 ns|RD-NONSEQ | F832116C | ----- |  1 | -------- |  ----  |SINGLE|    4    | 0 |           0|
   Picked  : |              219180 ns|              219820 ns|RD-DATA   | F832116C |  1/ 1 | -- | 00000180 |  OKAY  | ---- | ------- | - | ---------- |
             |              219180 ns|              219820 ns|RD-DATA   | F832116C |  1/ 1 | -- | 00000180 |  OKAY  | ---- | ------- | - | ---------- |
   Picked  : |              220260 ns|              220300 ns|WR-NONSEQ | F832116C | ----- |  1 | -------- |  ----  |SINGLE|    4    | 0 |           0|
             |              220260 ns|              220300 ns|WR-NONSEQ | F832116C | ----- |  1 | -------- |  ----  |SINGLE|    4    | 0 |           0|
   Picked  : |              220300 ns|              221020 ns|WR-DATA   | F832116C |  1/ 1 | -- | 00000180 |  OKAY  | ---- | ------- | - | ---------- |
             |              220300 ns|              221020 ns|WR-DATA   | F832116C |  1/ 1 | -- | 00000180 |  OKAY  | ---- | ------- | - | ---------- |
   Picked  : |              221420 ns|              221460 ns|RD-NONSEQ | F8321170 | ----- |  1 | -------- |  ----  |SINGLE|    4    | 0 |           0|
             |              221420 ns|              221460 ns|RD-NONSEQ | F8321170 | ----- |  1 | -------- |  ----  |SINGLE|    4    | 0 |           0|
   Picked  : |              221460 ns|              222140 ns|RD-DATA   | F8321170 |  1/ 1 | -- | 00000693 |  OKAY  | ---- | ------- | - | ---------- |
             |              221460 ns|              222140 ns|RD-DATA   | F8321170 |  1/ 1 | -- | 00000693 |  OKAY  | ---- | ------- | - | ---------- |
   Picked  : |              222580 ns|              222620 ns|WR-NONSEQ | F8321170 | ----- |  1 | -------- |  ----  |SINGLE|    4    | 0 |           0|
             |              222580 ns|              222620 ns|WR-NONSEQ | F8321170 | ----- |  1 | -------- |  ----  |SINGLE|    4    | 0 |           0|
   Picked  : |              222620 ns|              223260 ns|WR-DATA   | F8321170 |  1/ 1 | -- | 00000693 |  OKAY  | ---- | ------- | - | ---------- |
             |              222620 ns|              223260 ns|WR-DATA   | F8321170 |  1/ 1 | -- | 00000693 |  OKAY  | ---- | ------- | - | ---------- |
   Picked  : |              223660 ns|              223700 ns|RD-NONSEQ | F8321174 | ----- |  1 | -------- |  ----  |SINGLE|    4    | 0 |           0|
             |              223660 ns|              223700 ns|RD-NONSEQ | F8321174 | ----- |  1 | -------- |  ----  |SINGLE|    4    | 0 |           0|
   Picked  : |              223700 ns|              224380 ns|RD-DATA   | F8321174 |  1/ 1 | -- | 000000FB |  OKAY  | ---- | ------- | - | ---------- |
             |              223700 ns|              224380 ns|RD-DATA   | F8321174 |  1/ 1 | -- | 000000FB |  OKAY  | ---- | ------- | - | ---------- |
   Picked  : |              224820 ns|              224860 ns|WR-NONSEQ | F8321174 | ----- |  1 | -------- |  ----  |SINGLE|    4    | 0 |           0|
             |              224820 ns|              224860 ns|WR-NONSEQ | F8321174 | ----- |  1 | -------- |  ----  |SINGLE|    4    | 0 |           0|
   Picked  : |              224860 ns|              225500 ns|WR-DATA   | F8321174 |  1/ 1 | -- | 000000FB |  OKAY  | ---- | ------- | - | ---------- |
             |              224860 ns|              225500 ns|WR-DATA   | F8321174 |  1/ 1 | -- | 000000FB |  OKAY  | ---- | ------- | - | ---------- |
   Picked  : |              225900 ns|              225940 ns|RD-NONSEQ | F832116C | ----- |  1 | -------- |  ----  |SINGLE|    4    | 0 |           0|
             |              225900 ns|              225940 ns|RD-NONSEQ | F832116C | ----- |  1 | -------- |  ----  |SINGLE|    4    | 0 |           0|
   Picked  : |              225940 ns|              226700 ns|RD-DATA   | F832116C |  1/ 1 | -- | 00000180 |  OKAY  | ---- | ------- | - | ---------- |
             |              225940 ns|              226700 ns|RD-DATA   | F832116C |  1/ 1 | -- | 00000180 |  OKAY  | ---- | ------- | - | ---------- |
   Picked  : |              227140 ns|              227180 ns|WR-NONSEQ | F832116C | ----- |  1 | -------- |  ----  |SINGLE|    4    | 0 |           0|
             |              227140 ns|              227180 ns|WR-NONSEQ | F832116C | ----- |  1 | -------- |  ----  |SINGLE|    4    | 0 |           0|
   Picked  : |              227180 ns|              227900 ns|WR-DATA   | F832116C |  1/ 1 | -- | 00000380 |  OKAY  | ---- | ------- | - | ---------- |
             |              227180 ns|              227900 ns|WR-DATA   | F832116C |  1/ 1 | -- | 00000380 |  OKAY  | ---- | ------- | - | ---------- |
   Picked  : |              238300 ns|              238340 ns|RD-NONSEQ | F832116C | ----- |  1 | -------- |  ----  |SINGLE|    4    | 0 |           0|
             |              238300 ns|              238340 ns|RD-NONSEQ | F832116C | ----- |  1 | -------- |  ----  |SINGLE|    4    | 0 |           0|
   Picked  : |              238340 ns|              239020 ns|RD-DATA   | F832116C |  1/ 1 | -- | 00000380 |  OKAY  | ---- | ------- | - | ---------- |
             |              238340 ns|              239020 ns|RD-DATA   | F832116C |  1/ 1 | -- | 00000380 |  OKAY  | ---- | ------- | - | ---------- |
   Picked  : |              239460 ns|              239500 ns|WR-NONSEQ | F832116C | ----- |  1 | -------- |  ----  |SINGLE|    4    | 0 |           0|
             |              239460 ns|              239500 ns|WR-NONSEQ | F832116C | ----- |  1 | -------- |  ----  |SINGLE|    4    | 0 |           0|
   Picked  : |              239500 ns|              240140 ns|WR-DATA   | F832116C |  1/ 1 | -- | 00000382 |  OKAY  | ---- | ------- | - | ---------- |
             |              239500 ns|              240140 ns|WR-DATA   | F832116C |  1/ 1 | -- | 00000382 |  OKAY  | ---- | ------- | - | ---------- |
   Picked  : |              290540 ns|              290580 ns|RD-NONSEQ | F832116C | ----- |  1 | -------- |  ----  |SINGLE|    4    | 0 |           0|
             |              290540 ns|              290580 ns|RD-NONSEQ | F832116C | ----- |  1 | -------- |  ----  |SINGLE|    4    | 0 |           0|
   Picked  : |              290580 ns|              291260 ns|RD-DATA   | F832116C |  1/ 1 | -- | 00000382 |  OKAY  | ---- | ------- | - | ---------- |
             |              290580 ns|              291260 ns|RD-DATA   | F832116C |  1/ 1 | -- | 00000382 |  OKAY  | ---- | ------- | - | ---------- |
   Picked  : |              291700 ns|              291740 ns|WR-NONSEQ | F832116C | ----- |  1 | -------- |  ----  |SINGLE|    4    | 0 |           0|
             |              291700 ns|              291740 ns|WR-NONSEQ | F832116C | ----- |  1 | -------- |  ----  |SINGLE|    4    | 0 |           0|
   Picked  : |              291740 ns|              292380 ns|WR-DATA   | F832116C |  1/ 1 | -- | 00000282 |  OKAY  | ---- | ------- | - | ---------- |
             |              291740 ns|              292380 ns|WR-DATA   | F832116C |  1/ 1 | -- | 00000282 |  OKAY  | ---- | ------- | - | ---------- |
   Picked  : |              292980 ns|              293020 ns|RD-NONSEQ | F832116C | ----- |  1 | -------- |  ----  |SINGLE|    4    | 0 |           0|
             |              292980 ns|              293020 ns|RD-NONSEQ | F832116C | ----- |  1 | -------- |  ----  |SINGLE|    4    | 0 |           0|
   Picked  : |              293020 ns|              293740 ns|RD-DATA   | F832116C |  1/ 1 | -- | 00000282 |  OKAY  | ---- | ------- | - | ---------- |
             |              293020 ns|              293740 ns|RD-DATA   | F832116C |  1/ 1 | -- | 00000282 |  OKAY  | ---- | ------- | - | ---------- |
   Picked  : |              294180 ns|              294220 ns|WR-NONSEQ | F832116C | ----- |  1 | -------- |  ----  |SINGLE|    4    | 0 |           0|
             |              294180 ns|              294220 ns|WR-NONSEQ | F832116C | ----- |  1 | -------- |  ----  |SINGLE|    4    | 0 |           0|
   Picked  : |              294220 ns|              294860 ns|WR-DATA   | F832116C |  1/ 1 | -- | 00000283 |  OKAY  | ---- | ------- | - | ---------- |
             |              294220 ns|              294860 ns|WR-DATA   | F832116C |  1/ 1 | -- | 00000283 |  OKAY  | ---- | ------- | - | ---------- |
   Picked  : |              295460 ns|              295500 ns|RD-NONSEQ | F832116C | ----- |  1 | -------- |  ----  |SINGLE|    4    | 0 |           0|
             |              295460 ns|              295500 ns|RD-NONSEQ | F832116C | ----- |  1 | -------- |  ----  |SINGLE|    4    | 0 |           0|
   Picked  : |              295500 ns|              296140 ns|RD-DATA   | F832116C |  1/ 1 | -- | 00000283 |  OKAY  | ---- | ------- | - | ---------- |
             |              295500 ns|              296140 ns|RD-DATA   | F832116C |  1/ 1 | -- | 00000283 |  OKAY  | ---- | ------- | - | ---------- |
   Picked  : |              296580 ns|              296620 ns|WR-NONSEQ | F832116C | ----- |  1 | -------- |  ----  |SINGLE|    4    | 0 |           0|
             |              296580 ns|              296620 ns|WR-NONSEQ | F832116C | ----- |  1 | -------- |  ----  |SINGLE|    4    | 0 |           0|
   Picked  : |              296620 ns|              296970 ns|WR-DATA   | F832116C |  1/ 1 | -- | 00000203 |  OKAY  | ---- | ------- | - | ---------- |
             |              296620 ns|              296970 ns|WR-DATA   | F832116C |  1/ 1 | -- | 00000203 |  OKAY  | ---- | ------- | - | ---------- |
   Picked  : |              297425 ns|              297430 ns|WR-NONSEQ | F8320018 | ----- |  1 | -------- |  ----  |SINGLE|    4    | 0 |           0|
             |              297425 ns|              297430 ns|WR-NONSEQ | F8320018 | ----- |  1 | -------- |  ----  |SINGLE|    4    | 0 |           0|
   Picked  : |              297430 ns|              297700 ns|WR-DATA   | F8320018 |  1/ 1 | -- | 00000001 |  OKAY  | ---- | ------- | - | ---------- |
             |              297430 ns|              297700 ns|WR-DATA   | F8320018 |  1/ 1 | -- | 00000001 |  OKAY  | ---- | ------- | - | ---------- |
   Picked  : |              297750 ns|              297755 ns|RD-NONSEQ | F832200C | ----- |  1 | -------- |  ----  |SINGLE|    4    | 0 |           0|
             |              297750 ns|              297755 ns|RD-NONSEQ | F832200C | ----- |  1 | -------- |  ----  |SINGLE|    4    | 0 |           0|
   Picked  : |              297755 ns|              297990 ns|RD-DATA   | F832200C |  1/ 1 | -- | 00190003 |  OKAY  | ---- | ------- | - | ---------- |
             |              297755 ns|              297990 ns|RD-DATA   | F832200C |  1/ 1 | -- | 00190003 |  OKAY  | ---- | ------- | - | ---------- |
   Picked  : |              298040 ns|              298045 ns|RD-NONSEQ | F8322010 | ----- |  1 | -------- |  ----  |SINGLE|    4    | 0 |           0|
             |              298040 ns|              298045 ns|RD-NONSEQ | F8322010 | ----- |  1 | -------- |  ----  |SINGLE|    4    | 0 |           0|
   Picked  : |              298045 ns|              298300 ns|RD-DATA   | F8322010 |  1/ 1 | -- | 00000001 |  OKAY  | ---- | ------- | - | ---------- |
             |              298045 ns|              298300 ns|RD-DATA   | F8322010 |  1/ 1 | -- | 00000001 |  OKAY  | ---- | ------- | - | ---------- |
   Picked  : |              298355 ns|              298360 ns|WR-NONSEQ | F8322010 | ----- |  1 | -------- |  ----  |SINGLE|    4    | 0 |           0|
             |              298355 ns|              298360 ns|WR-NONSEQ | F8322010 | ----- |  1 | -------- |  ----  |SINGLE|    4    | 0 |           0|
   Picked  : |              298360 ns|              298630 ns|WR-DATA   | F8322010 |  1/ 1 | -- | 00000000 |  OKAY  | ---- | ------- | - | ---------- |
             |              298360 ns|              298630 ns|WR-DATA   | F8322010 |  1/ 1 | -- | 00000000 |  OKAY  | ---- | ------- | - | ---------- |
   Picked  : |              298685 ns|              298690 ns|WR-NONSEQ | F8312060 | ----- |  1 | -------- |  ----  |SINGLE|    4    | 0 |           0|
             |              298685 ns|              298690 ns|WR-NONSEQ | F8312060 | ----- |  1 | -------- |  ----  |SINGLE|    4    | 0 |           0|
   Picked  : |              298690 ns|              298980 ns|WR-DATA   | F8312060 |  1/ 1 | -- | 00000000 |  OKAY  | ---- | ------- | - | ---------- |
             |              298690 ns|              298980 ns|WR-DATA   | F8312060 |  1/ 1 | -- | 00000000 |  OKAY  | ---- | ------- | - | ---------- |
   Picked  : |              299035 ns|              299040 ns|WR-NONSEQ | 48250020 | ----- |  1 | -------- |  ----  |SINGLE|    4    | 0 |           0|
             |              299035 ns|              299040 ns|WR-NONSEQ | 48250020 | ----- |  1 | -------- |  ----  |SINGLE|    4    | 0 |           0|
   Picked  : |              299040 ns|              299950 ns|WR-DATA   | 48250020 |  1/ 1 | -- | 00000001 |  OKAY  | ---- | ------- | - | ---------- |
             |              299040 ns|              299950 ns|WR-DATA   | 48250020 |  1/ 1 | -- | 00000001 |  OKAY  | ---- | ------- | - | ---------- |
   Picked  : |              300000 ns|              300005 ns|RD-NONSEQ | 4826017C | ----- |  1 | -------- |  ----  |SINGLE|    4    | 0 |           0|
             |              300000 ns|              300005 ns|RD-NONSEQ | 4826017C | ----- |  1 | -------- |  ----  |SINGLE|    4    | 0 |           0|
   Picked  : |              300005 ns|              300910 ns|RD-DATA   | 4826017C |  1/ 1 | -- | 20801E01 |  OKAY  | ---- | ------- | - | ---------- |
             |              300005 ns|              300910 ns|RD-DATA   | 4826017C |  1/ 1 | -- | 20801E01 |  OKAY  | ---- | ------- | - | ---------- |
   Picked  : |              300965 ns|              300970 ns|WR-NONSEQ | 4826017C | ----- |  1 | -------- |  ----  |SINGLE|    4    | 0 |           0|
             |              300965 ns|              300970 ns|WR-NONSEQ | 4826017C | ----- |  1 | -------- |  ----  |SINGLE|    4    | 0 |           0|
   Picked  : |              300970 ns|              301870 ns|WR-DATA   | 4826017C |  1/ 1 | -- | 20801E41 |  OKAY  | ---- | ------- | - | ---------- |
             |              300970 ns|              301870 ns|WR-DATA   | 4826017C |  1/ 1 | -- | 20801E41 |  OKAY  | ---- | ------- | - | ---------- |
   Picked  : |              302320 ns|              302325 ns|RD-NONSEQ | 4826017C | ----- |  1 | -------- |  ----  |SINGLE|    4    | 0 |           0|
             |              302320 ns|              302325 ns|RD-NONSEQ | 4826017C | ----- |  1 | -------- |  ----  |SINGLE|    4    | 0 |           0|
   Picked  : |              302325 ns|              303230 ns|RD-DATA   | 4826017C |  1/ 1 | -- | 20801E41 |  OKAY  | ---- | ------- | - | ---------- |
             |              302325 ns|              303230 ns|RD-DATA   | 4826017C |  1/ 1 | -- | 20801E41 |  OKAY  | ---- | ------- | - | ---------- |
   Picked  : |              303285 ns|              303290 ns|WR-NONSEQ | 4826017C | ----- |  1 | -------- |  ----  |SINGLE|    4    | 0 |           0|
             |              303285 ns|              303290 ns|WR-NONSEQ | 4826017C | ----- |  1 | -------- |  ----  |SINGLE|    4    | 0 |           0|
   Picked  : |              303290 ns|              304190 ns|WR-DATA   | 4826017C |  1/ 1 | -- | 20801E40 |  OKAY  | ---- | ------- | - | ---------- |
             |              303290 ns|              304190 ns|WR-DATA   | 4826017C |  1/ 1 | -- | 20801E40 |  OKAY  | ---- | ------- | - | ---------- |
   Picked  : |              304440 ns|              304445 ns|RD-NONSEQ | 4826017C | ----- |  1 | -------- |  ----  |SINGLE|    4    | 0 |           0|
             |              304440 ns|              304445 ns|RD-NONSEQ | 4826017C | ----- |  1 | -------- |  ----  |SINGLE|    4    | 0 |           0|
   Picked  : |              304445 ns|              305310 ns|RD-DATA   | 4826017C |  1/ 1 | -- | 20801E40 |  OKAY  | ---- | ------- | - | ---------- |
             |              304445 ns|              305310 ns|RD-DATA   | 4826017C |  1/ 1 | -- | 20801E40 |  OKAY  | ---- | ------- | - | ---------- |
   Picked  : |              305365 ns|              305370 ns|WR-NONSEQ | 4826017C | ----- |  1 | -------- |  ----  |SINGLE|    4    | 0 |           0|
             |              305365 ns|              305370 ns|WR-NONSEQ | 4826017C | ----- |  1 | -------- |  ----  |SINGLE|    4    | 0 |           0|
   Picked  : |              305370 ns|              306270 ns|WR-DATA   | 4826017C |  1/ 1 | -- | 20801E40 |  OKAY  | ---- | ------- | - | ---------- |
             |              305370 ns|              306270 ns|WR-DATA   | 4826017C |  1/ 1 | -- | 20801E40 |  OKAY  | ---- | ------- | - | ---------- |
   Picked  : |              306825 ns|              306830 ns|WR-NONSEQ | 4826017C | ----- |  1 | -------- |  ----  |SINGLE|    4    | 0 |           0|
             |              306825 ns|              306830 ns|WR-NONSEQ | 4826017C | ----- |  1 | -------- |  ----  |SINGLE|    4    | 0 |           0|
   Picked  : |              306830 ns|              307790 ns|WR-DATA   | 4826017C |  1/ 1 | -- | 20801E40 |  OKAY  | ---- | ------- | - | ---------- |
             |              306830 ns|              307790 ns|WR-DATA   | 4826017C |  1/ 1 | -- | 20801E40 |  OKAY  | ---- | ------- | - | ---------- |
   Picked  : |              307845 ns|              307850 ns|WR-NONSEQ | 4826017C | ----- |  1 | -------- |  ----  |SINGLE|    4    | 0 |           0|
             |              307845 ns|              307850 ns|WR-NONSEQ | 4826017C | ----- |  1 | -------- |  ----  |SINGLE|    4    | 0 |           0|
   Picked  : |              307850 ns|              308790 ns|WR-DATA   | 4826017C |  1/ 1 | -- | 84002E40 |  OKAY  | ---- | ------- | - | ---------- |
             |              307850 ns|              308790 ns|WR-DATA   | 4826017C |  1/ 1 | -- | 84002E40 |  OKAY  | ---- | ------- | - | ---------- |
   Picked  : |              308845 ns|              308850 ns|WR-NONSEQ | 4826017C | ----- |  1 | -------- |  ----  |SINGLE|    4    | 0 |           0|
             |              308845 ns|              308850 ns|WR-NONSEQ | 4826017C | ----- |  1 | -------- |  ----  |SINGLE|    4    | 0 |           0|
   Picked  : |              308850 ns|              309790 ns|WR-DATA   | 4826017C |  1/ 1 | -- | 84002240 |  OKAY  | ---- | ------- | - | ---------- |
             |              308850 ns|              309790 ns|WR-DATA   | 4826017C |  1/ 1 | -- | 84002240 |  OKAY  | ---- | ------- | - | ---------- |
   Picked  : |              319845 ns|              319850 ns|WR-NONSEQ | 4826017C | ----- |  1 | -------- |  ----  |SINGLE|    4    | 0 |           0|
             |              319845 ns|              319850 ns|WR-NONSEQ | 4826017C | ----- |  1 | -------- |  ----  |SINGLE|    4    | 0 |           0|
   Picked  : |              319850 ns|              320750 ns|WR-DATA   | 4826017C |  1/ 1 | -- | 84002040 |  OKAY  | ---- | ------- | - | ---------- |
             |              319850 ns|              320750 ns|WR-DATA   | 4826017C |  1/ 1 | -- | 84002040 |  OKAY  | ---- | ------- | - | ---------- |
   Picked  : |              321300 ns|              321305 ns|RD-NONSEQ | 48260190 | ----- |  1 | -------- |  ----  |SINGLE|    4    | 0 |           0|
             |              321300 ns|              321305 ns|RD-NONSEQ | 48260190 | ----- |  1 | -------- |  ----  |SINGLE|    4    | 0 |           0|
   Picked  : |              321305 ns|              322230 ns|RD-DATA   | 48260190 |  1/ 1 | -- | 00000000 |  OKAY  | ---- | ------- | - | ---------- |
             |              321305 ns|              322230 ns|RD-DATA   | 48260190 |  1/ 1 | -- | 00000000 |  OKAY  | ---- | ------- | - | ---------- |
   Picked  : |              322780 ns|              322785 ns|RD-NONSEQ | 48260190 | ----- |  1 | -------- |  ----  |SINGLE|    4    | 0 |           0|
             |              322780 ns|              322785 ns|RD-NONSEQ | 48260190 | ----- |  1 | -------- |  ----  |SINGLE|    4    | 0 |           0|
   Picked  : |              322785 ns|              323710 ns|RD-DATA   | 48260190 |  1/ 1 | -- | 00000000 |  OKAY  | ---- | ------- | - | ---------- |
             |              322785 ns|              323710 ns|RD-DATA   | 48260190 |  1/ 1 | -- | 00000000 |  OKAY  | ---- | ------- | - | ---------- |
   Picked  : |              324260 ns|              324265 ns|RD-NONSEQ | 48260190 | ----- |  1 | -------- |  ----  |SINGLE|    4    | 0 |           0|
             |              324260 ns|              324265 ns|RD-NONSEQ | 48260190 | ----- |  1 | -------- |  ----  |SINGLE|    4    | 0 |           0|
   Picked  : |              324265 ns|              325230 ns|RD-DATA   | 48260190 |  1/ 1 | -- | 00000000 |  OKAY  | ---- | ------- | - | ---------- |
             |              324265 ns|              325230 ns|RD-DATA   | 48260190 |  1/ 1 | -- | 00000000 |  OKAY  | ---- | ------- | - | ---------- |
   Picked  : |              325780 ns|              325785 ns|RD-NONSEQ | 48260190 | ----- |  1 | -------- |  ----  |SINGLE|    4    | 0 |           0|
             |              325780 ns|              325785 ns|RD-NONSEQ | 48260190 | ----- |  1 | -------- |  ----  |SINGLE|    4    | 0 |           0|
   Picked  : |              325785 ns|              326670 ns|RD-DATA   | 48260190 |  1/ 1 | -- | 00000000 |  OKAY  | ---- | ------- | - | ---------- |
             |              325785 ns|              326670 ns|RD-DATA   | 48260190 |  1/ 1 | -- | 00000000 |  OKAY  | ---- | ------- | - | ---------- |
   Picked  : |              327220 ns|              327225 ns|RD-NONSEQ | 48260190 | ----- |  1 | -------- |  ----  |SINGLE|    4    | 0 |           0|
             |              327220 ns|              327225 ns|RD-NONSEQ | 48260190 | ----- |  1 | -------- |  ----  |SINGLE|    4    | 0 |           0|
   Picked  : |              327225 ns|              328150 ns|RD-DATA   | 48260190 |  1/ 1 | -- | 00000000 |  OKAY  | ---- | ------- | - | ---------- |
             |              327225 ns|              328150 ns|RD-DATA   | 48260190 |  1/ 1 | -- | 00000000 |  OKAY  | ---- | ------- | - | ---------- |
   Picked  : |              328700 ns|              328705 ns|RD-NONSEQ | 48260190 | ----- |  1 | -------- |  ----  |SINGLE|    4    | 0 |           0|
             |              328700 ns|              328705 ns|RD-NONSEQ | 48260190 | ----- |  1 | -------- |  ----  |SINGLE|    4    | 0 |           0|
   Picked  : |              328705 ns|              329590 ns|RD-DATA   | 48260190 |  1/ 1 | -- | 00000000 |  OKAY  | ---- | ------- | - | ---------- |
             |              328705 ns|              329590 ns|RD-DATA   | 48260190 |  1/ 1 | -- | 00000000 |  OKAY  | ---- | ------- | - | ---------- |
   Picked  : |              330140 ns|              330145 ns|RD-NONSEQ | 48260190 | ----- |  1 | -------- |  ----  |SINGLE|    4    | 0 |           0|
             |              330140 ns|              330145 ns|RD-NONSEQ | 48260190 | ----- |  1 | -------- |  ----  |SINGLE|    4    | 0 |           0|
   Picked  : |              330145 ns|              331030 ns|RD-DATA   | 48260190 |  1/ 1 | -- | 00000000 |  OKAY  | ---- | ------- | - | ---------- |
             |              330145 ns|              331030 ns|RD-DATA   | 48260190 |  1/ 1 | -- | 00000000 |  OKAY  | ---- | ------- | - | ---------- |
   Picked  : |              331580 ns|              331585 ns|RD-NONSEQ | 48260190 | ----- |  1 | -------- |  ----  |SINGLE|    4    | 0 |           0|
             |              331580 ns|              331585 ns|RD-NONSEQ | 48260190 | ----- |  1 | -------- |  ----  |SINGLE|    4    | 0 |           0|
   Picked  : |              331585 ns|              332470 ns|RD-DATA   | 48260190 |  1/ 1 | -- | 00000000 |  OKAY  | ---- | ------- | - | ---------- |
             |              331585 ns|              332470 ns|RD-DATA   | 48260190 |  1/ 1 | -- | 00000000 |  OKAY  | ---- | ------- | - | ---------- |
   Picked  : |              333020 ns|              333025 ns|RD-NONSEQ | 48260190 | ----- |  1 | -------- |  ----  |SINGLE|    4    | 0 |           0|
             |              333020 ns|              333025 ns|RD-NONSEQ | 48260190 | ----- |  1 | -------- |  ----  |SINGLE|    4    | 0 |           0|
   Picked  : |              333025 ns|              333910 ns|RD-DATA   | 48260190 |  1/ 1 | -- | 00000000 |  OKAY  | ---- | ------- | - | ---------- |
             |              333025 ns|              333910 ns|RD-DATA   | 48260190 |  1/ 1 | -- | 00000000 |  OKAY  | ---- | ------- | - | ---------- |
   Picked  : |              334460 ns|              334465 ns|RD-NONSEQ | 48260190 | ----- |  1 | -------- |  ----  |SINGLE|    4    | 0 |           0|
             |              334460 ns|              334465 ns|RD-NONSEQ | 48260190 | ----- |  1 | -------- |  ----  |SINGLE|    4    | 0 |           0|
   Picked  : |              334465 ns|              335350 ns|RD-DATA   | 48260190 |  1/ 1 | -- | 00000001 |  OKAY  | ---- | ------- | - | ---------- |
             |              334465 ns|              335350 ns|RD-DATA   | 48260190 |  1/ 1 | -- | 00000001 |  OKAY  | ---- | ------- | - | ---------- |
   Picked  : |              335400 ns|              335405 ns|RD-NONSEQ | 4826018C | ----- |  1 | -------- |  ----  |SINGLE|    4    | 0 |           0|
             |              335400 ns|              335405 ns|RD-NONSEQ | 4826018C | ----- |  1 | -------- |  ----  |SINGLE|    4    | 0 |           0|
   Picked  : |              335405 ns|              336310 ns|RD-DATA   | 4826018C |  1/ 1 | -- | 0000623F |  OKAY  | ---- | ------- | - | ---------- |
             |              335405 ns|              336310 ns|RD-DATA   | 4826018C |  1/ 1 | -- | 0000623F |  OKAY  | ---- | ------- | - | ---------- |
   Picked  : |              336365 ns|              336370 ns|WR-NONSEQ | 4826018C | ----- |  1 | -------- |  ----  |SINGLE|    4    | 0 |           0|
             |              336365 ns|              336370 ns|WR-NONSEQ | 4826018C | ----- |  1 | -------- |  ----  |SINGLE|    4    | 0 |           0|
   Picked  : |              336370 ns|              337270 ns|WR-DATA   | 4826018C |  1/ 1 | -- | 0000623E |  OKAY  | ---- | ------- | - | ---------- |
             |              336370 ns|              337270 ns|WR-DATA   | 4826018C |  1/ 1 | -- | 0000623E |  OKAY  | ---- | ------- | - | ---------- |
   Picked  : |              337320 ns|              337325 ns|RD-NONSEQ | 4826017C | ----- |  1 | -------- |  ----  |SINGLE|    4    | 0 |           0|
             |              337320 ns|              337325 ns|RD-NONSEQ | 4826017C | ----- |  1 | -------- |  ----  |SINGLE|    4    | 0 |           0|
   Picked  : |              337325 ns|              338270 ns|RD-DATA   | 4826017C |  1/ 1 | -- | 84002040 |  OKAY  | ---- | ------- | - | ---------- |
             |              337325 ns|              338270 ns|RD-DATA   | 4826017C |  1/ 1 | -- | 84002040 |  OKAY  | ---- | ------- | - | ---------- |
   Picked  : |              338325 ns|              338330 ns|WR-NONSEQ | 4826017C | ----- |  1 | -------- |  ----  |SINGLE|    4    | 0 |           0|
             |              338325 ns|              338330 ns|WR-NONSEQ | 4826017C | ----- |  1 | -------- |  ----  |SINGLE|    4    | 0 |           0|
   Picked  : |              338330 ns|              339310 ns|WR-DATA   | 4826017C |  1/ 1 | -- | 84002041 |  OKAY  | ---- | ------- | - | ---------- |
             |              338330 ns|              339310 ns|WR-DATA   | 4826017C |  1/ 1 | -- | 84002041 |  OKAY  | ---- | ------- | - | ---------- |
   Picked  : |              339565 ns|              339570 ns|WR-NONSEQ | 4826017C | ----- |  1 | -------- |  ----  |SINGLE|    4    | 0 |           0|
             |              339565 ns|              339570 ns|WR-NONSEQ | 4826017C | ----- |  1 | -------- |  ----  |SINGLE|    4    | 0 |           0|
   Picked  : |              339570 ns|              340510 ns|WR-DATA   | 4826017C |  1/ 1 | -- | 84002001 |  OKAY  | ---- | ------- | - | ---------- |
             |              339570 ns|              340510 ns|WR-DATA   | 4826017C |  1/ 1 | -- | 84002001 |  OKAY  | ---- | ------- | - | ---------- |
   Picked  : |              340960 ns|              340965 ns|RD-NONSEQ | 482601B4 | ----- |  1 | -------- |  ----  |SINGLE|    4    | 0 |           0|
             |              340960 ns|              340965 ns|RD-NONSEQ | 482601B4 | ----- |  1 | -------- |  ----  |SINGLE|    4    | 0 |           0|
   Picked  : |              340965 ns|              341830 ns|RD-DATA   | 482601B4 |  1/ 1 | -- | 000001CB |  OKAY  | ---- | ------- | - | ---------- |
             |              340965 ns|              341830 ns|RD-DATA   | 482601B4 |  1/ 1 | -- | 000001CB |  OKAY  | ---- | ------- | - | ---------- |
   Picked  : |              341885 ns|              341890 ns|WR-NONSEQ | 482601B4 | ----- |  1 | -------- |  ----  |SINGLE|    4    | 0 |           0|
             |              341885 ns|              341890 ns|WR-NONSEQ | 482601B4 | ----- |  1 | -------- |  ----  |SINGLE|    4    | 0 |           0|
   Picked  : |              341890 ns|              342675 ns|WR-DATA   | 482601B4 |  1/ 1 | -- | 0000014B |  OKAY  | ---- | ------- | - | ---------- |
             |              341890 ns|              342675 ns|WR-DATA   | 482601B4 |  1/ 1 | -- | 0000014B |  OKAY  | ---- | ------- | - | ---------- |
   Picked  : |              342725 ns|              342730 ns|RD-NONSEQ | 482601C0 | ----- |  1 | -------- |  ----  |SINGLE|    4    | 0 |           0|
             |              342725 ns|              342730 ns|RD-NONSEQ | 482601C0 | ----- |  1 | -------- |  ----  |SINGLE|    4    | 0 |           0|
   Picked  : |              342730 ns|              343435 ns|RD-DATA   | 482601C0 |  1/ 1 | -- | 000007CB |  OKAY  | ---- | ------- | - | ---------- |
             |              342730 ns|              343435 ns|RD-DATA   | 482601C0 |  1/ 1 | -- | 000007CB |  OKAY  | ---- | ------- | - | ---------- |
   Picked  : |              343490 ns|              343495 ns|WR-NONSEQ | 482601C0 | ----- |  1 | -------- |  ----  |SINGLE|    4    | 0 |           0|
             |              343490 ns|              343495 ns|WR-NONSEQ | 482601C0 | ----- |  1 | -------- |  ----  |SINGLE|    4    | 0 |           0|
   Picked  : |              343495 ns|              344010 ns|WR-DATA   | 482601C0 |  1/ 1 | -- | 0000074B |  OKAY  | ---- | ------- | - | ---------- |
             |              343495 ns|              344010 ns|WR-DATA   | 482601C0 |  1/ 1 | -- | 0000074B |  OKAY  | ---- | ------- | - | ---------- |
   Picked  : |              344060 ns|              344065 ns|RD-NONSEQ | 48260194 | ----- |  1 | -------- |  ----  |SINGLE|    4    | 0 |           0|
             |              344060 ns|              344065 ns|RD-NONSEQ | 48260194 | ----- |  1 | -------- |  ----  |SINGLE|    4    | 0 |           0|
   Picked  : |              344065 ns|              344380 ns|RD-DATA   | 48260194 |  1/ 1 | -- | 43002E00 |  OKAY  | ---- | ------- | - | ---------- |
             |              344065 ns|              344380 ns|RD-DATA   | 48260194 |  1/ 1 | -- | 43002E00 |  OKAY  | ---- | ------- | - | ---------- |
   Picked  : |              344430 ns|              344435 ns|RD-NONSEQ | 48260164 | ----- |  1 | -------- |  ----  |SINGLE|    4    | 0 |           0|
             |              344430 ns|              344435 ns|RD-NONSEQ | 48260164 | ----- |  1 | -------- |  ----  |SINGLE|    4    | 0 |           0|
   Picked  : |              344435 ns|              344740 ns|RD-DATA   | 48260164 |  1/ 1 | -- | 20B01E01 |  OKAY  | ---- | ------- | - | ---------- |
             |              344435 ns|              344740 ns|RD-DATA   | 48260164 |  1/ 1 | -- | 20B01E01 |  OKAY  | ---- | ------- | - | ---------- |
   Picked  : |              344795 ns|              344800 ns|WR-NONSEQ | 48260194 | ----- |  1 | -------- |  ----  |SINGLE|    4    | 0 |           0|
             |              344795 ns|              344800 ns|WR-NONSEQ | 48260194 | ----- |  1 | -------- |  ----  |SINGLE|    4    | 0 |           0|
   Picked  : |              344800 ns|              345130 ns|WR-DATA   | 48260194 |  1/ 1 | -- | 43002E40 |  OKAY  | ---- | ------- | - | ---------- |
             |              344800 ns|              345130 ns|WR-DATA   | 48260194 |  1/ 1 | -- | 43002E40 |  OKAY  | ---- | ------- | - | ---------- |
   Picked  : |              345185 ns|              345190 ns|WR-NONSEQ | 48260164 | ----- |  1 | -------- |  ----  |SINGLE|    4    | 0 |           0|
             |              345185 ns|              345190 ns|WR-NONSEQ | 48260164 | ----- |  1 | -------- |  ----  |SINGLE|    4    | 0 |           0|
   Picked  : |              345190 ns|              345490 ns|WR-DATA   | 48260164 |  1/ 1 | -- | 20B01E41 |  OKAY  | ---- | ------- | - | ---------- |
             |              345190 ns|              345490 ns|WR-DATA   | 48260164 |  1/ 1 | -- | 20B01E41 |  OKAY  | ---- | ------- | - | ---------- |
   Picked  : |              345580 ns|              345585 ns|RD-NONSEQ | 48260194 | ----- |  1 | -------- |  ----  |SINGLE|    4    | 0 |           0|
             |              345580 ns|              345585 ns|RD-NONSEQ | 48260194 | ----- |  1 | -------- |  ----  |SINGLE|    4    | 0 |           0|
   Picked  : |              345585 ns|              345890 ns|RD-DATA   | 48260194 |  1/ 1 | -- | 43002E40 |  OKAY  | ---- | ------- | - | ---------- |
             |              345585 ns|              345890 ns|RD-DATA   | 48260194 |  1/ 1 | -- | 43002E40 |  OKAY  | ---- | ------- | - | ---------- |
   Picked  : |              345940 ns|              345945 ns|RD-NONSEQ | 48260164 | ----- |  1 | -------- |  ----  |SINGLE|    4    | 0 |           0|
             |              345940 ns|              345945 ns|RD-NONSEQ | 48260164 | ----- |  1 | -------- |  ----  |SINGLE|    4    | 0 |           0|
   Picked  : |              345945 ns|              346250 ns|RD-DATA   | 48260164 |  1/ 1 | -- | 20B01E41 |  OKAY  | ---- | ------- | - | ---------- |
             |              345945 ns|              346250 ns|RD-DATA   | 48260164 |  1/ 1 | -- | 20B01E41 |  OKAY  | ---- | ------- | - | ---------- |
   Picked  : |              346305 ns|              346310 ns|WR-NONSEQ | 48260194 | ----- |  1 | -------- |  ----  |SINGLE|    4    | 0 |           0|
             |              346305 ns|              346310 ns|WR-NONSEQ | 48260194 | ----- |  1 | -------- |  ----  |SINGLE|    4    | 0 |           0|
   Picked  : |              346310 ns|              346620 ns|WR-DATA   | 48260194 |  1/ 1 | -- | 43002E40 |  OKAY  | ---- | ------- | - | ---------- |
             |              346310 ns|              346620 ns|WR-DATA   | 48260194 |  1/ 1 | -- | 43002E40 |  OKAY  | ---- | ------- | - | ---------- |
   Picked  : |              346675 ns|              346680 ns|WR-NONSEQ | 48260164 | ----- |  1 | -------- |  ----  |SINGLE|    4    | 0 |           0|
             |              346675 ns|              346680 ns|WR-NONSEQ | 48260164 | ----- |  1 | -------- |  ----  |SINGLE|    4    | 0 |           0|
   Picked  : |              346680 ns|              347050 ns|WR-DATA   | 48260164 |  1/ 1 | -- | 20B01E40 |  OKAY  | ---- | ------- | - | ---------- |
             |              346680 ns|              347050 ns|WR-DATA   | 48260164 |  1/ 1 | -- | 20B01E40 |  OKAY  | ---- | ------- | - | ---------- |
   Picked  : |              347100 ns|              347105 ns|RD-NONSEQ | 48260194 | ----- |  1 | -------- |  ----  |SINGLE|    4    | 0 |           0|
             |              347100 ns|              347105 ns|RD-NONSEQ | 48260194 | ----- |  1 | -------- |  ----  |SINGLE|    4    | 0 |           0|
   Picked  : |              347105 ns|              347450 ns|RD-DATA   | 48260194 |  1/ 1 | -- | 43002E40 |  OKAY  | ---- | ------- | - | ---------- |
             |              347105 ns|              347450 ns|RD-DATA   | 48260194 |  1/ 1 | -- | 43002E40 |  OKAY  | ---- | ------- | - | ---------- |
   Picked  : |              347500 ns|              347505 ns|RD-NONSEQ | 48260164 | ----- |  1 | -------- |  ----  |SINGLE|    4    | 0 |           0|
             |              347500 ns|              347505 ns|RD-NONSEQ | 48260164 | ----- |  1 | -------- |  ----  |SINGLE|    4    | 0 |           0|
   Picked  : |              347505 ns|              347810 ns|RD-DATA   | 48260164 |  1/ 1 | -- | 20B01E40 |  OKAY  | ---- | ------- | - | ---------- |
             |              347505 ns|              347810 ns|RD-DATA   | 48260164 |  1/ 1 | -- | 20B01E40 |  OKAY  | ---- | ------- | - | ---------- |
   Picked  : |              347865 ns|              347870 ns|WR-NONSEQ | 48260194 | ----- |  1 | -------- |  ----  |SINGLE|    4    | 0 |           0|
             |              347865 ns|              347870 ns|WR-NONSEQ | 48260194 | ----- |  1 | -------- |  ----  |SINGLE|    4    | 0 |           0|
   Picked  : |              347870 ns|              348170 ns|WR-DATA   | 48260194 |  1/ 1 | -- | 43002E40 |  OKAY  | ---- | ------- | - | ---------- |
             |              347870 ns|              348170 ns|WR-DATA   | 48260194 |  1/ 1 | -- | 43002E40 |  OKAY  | ---- | ------- | - | ---------- |
   Picked  : |              348225 ns|              348230 ns|WR-NONSEQ | 48260164 | ----- |  1 | -------- |  ----  |SINGLE|    4    | 0 |           0|
             |              348225 ns|              348230 ns|WR-NONSEQ | 48260164 | ----- |  1 | -------- |  ----  |SINGLE|    4    | 0 |           0|
   Picked  : |              348230 ns|              348530 ns|WR-DATA   | 48260164 |  1/ 1 | -- | 20B01E40 |  OKAY  | ---- | ------- | - | ---------- |
             |              348230 ns|              348530 ns|WR-DATA   | 48260164 |  1/ 1 | -- | 20B01E40 |  OKAY  | ---- | ------- | - | ---------- |
   Picked  : |              348725 ns|              348730 ns|WR-NONSEQ | 48260194 | ----- |  1 | -------- |  ----  |SINGLE|    4    | 0 |           0|
             |              348725 ns|              348730 ns|WR-NONSEQ | 48260194 | ----- |  1 | -------- |  ----  |SINGLE|    4    | 0 |           0|
   Picked  : |              348730 ns|              349060 ns|WR-DATA   | 48260194 |  1/ 1 | -- | 43002E40 |  OKAY  | ---- | ------- | - | ---------- |
             |              348730 ns|              349060 ns|WR-DATA   | 48260194 |  1/ 1 | -- | 43002E40 |  OKAY  | ---- | ------- | - | ---------- |
   Picked  : |              349115 ns|              349120 ns|WR-NONSEQ | 48260164 | ----- |  1 | -------- |  ----  |SINGLE|    4    | 0 |           0|
             |              349115 ns|              349120 ns|WR-NONSEQ | 48260164 | ----- |  1 | -------- |  ----  |SINGLE|    4    | 0 |           0|
   Picked  : |              349120 ns|              349500 ns|WR-DATA   | 48260164 |  1/ 1 | -- | 20B01E40 |  OKAY  | ---- | ------- | - | ---------- |
             |              349120 ns|              349500 ns|WR-DATA   | 48260164 |  1/ 1 | -- | 20B01E40 |  OKAY  | ---- | ------- | - | ---------- |
   Picked  : |              349555 ns|              349560 ns|WR-NONSEQ | 48260194 | ----- |  1 | -------- |  ----  |SINGLE|    4    | 0 |           0|
             |              349555 ns|              349560 ns|WR-NONSEQ | 48260194 | ----- |  1 | -------- |  ----  |SINGLE|    4    | 0 |           0|
   Picked  : |              349560 ns|              349890 ns|WR-DATA   | 48260194 |  1/ 1 | -- | 83002E40 |  OKAY  | ---- | ------- | - | ---------- |
             |              349560 ns|              349890 ns|WR-DATA   | 48260194 |  1/ 1 | -- | 83002E40 |  OKAY  | ---- | ------- | - | ---------- |
   Picked  : |              349945 ns|              349950 ns|WR-NONSEQ | 48260164 | ----- |  1 | -------- |  ----  |SINGLE|    4    | 0 |           0|
             |              349945 ns|              349950 ns|WR-NONSEQ | 48260164 | ----- |  1 | -------- |  ----  |SINGLE|    4    | 0 |           0|
   Picked  : |              349950 ns|              350250 ns|WR-DATA   | 48260164 |  1/ 1 | -- | 42C02E40 |  OKAY  | ---- | ------- | - | ---------- |
             |              349950 ns|              350250 ns|WR-DATA   | 48260164 |  1/ 1 | -- | 42C02E40 |  OKAY  | ---- | ------- | - | ---------- |
   Picked  : |              350305 ns|              350310 ns|WR-NONSEQ | 48260194 | ----- |  1 | -------- |  ----  |SINGLE|    4    | 0 |           0|
             |              350305 ns|              350310 ns|WR-NONSEQ | 48260194 | ----- |  1 | -------- |  ----  |SINGLE|    4    | 0 |           0|
   Picked  : |              350310 ns|              350650 ns|WR-DATA   | 48260194 |  1/ 1 | -- | 83002240 |  OKAY  | ---- | ------- | - | ---------- |
             |              350310 ns|              350650 ns|WR-DATA   | 48260194 |  1/ 1 | -- | 83002240 |  OKAY  | ---- | ------- | - | ---------- |
   Picked  : |              350705 ns|              350710 ns|WR-NONSEQ | 48260164 | ----- |  1 | -------- |  ----  |SINGLE|    4    | 0 |           0|
             |              350705 ns|              350710 ns|WR-NONSEQ | 48260164 | ----- |  1 | -------- |  ----  |SINGLE|    4    | 0 |           0|
   Picked  : |              350710 ns|              351050 ns|WR-DATA   | 48260164 |  1/ 1 | -- | 42C02240 |  OKAY  | ---- | ------- | - | ---------- |
             |              350710 ns|              351050 ns|WR-DATA   | 48260164 |  1/ 1 | -- | 42C02240 |  OKAY  | ---- | ------- | - | ---------- |
   Picked  : |              360705 ns|              360710 ns|WR-NONSEQ | 48260194 | ----- |  1 | -------- |  ----  |SINGLE|    4    | 0 |           0|
             |              360705 ns|              360710 ns|WR-NONSEQ | 48260194 | ----- |  1 | -------- |  ----  |SINGLE|    4    | 0 |           0|
   Picked  : |              360710 ns|              361010 ns|WR-DATA   | 48260194 |  1/ 1 | -- | 83002040 |  OKAY  | ---- | ------- | - | ---------- |
             |              360710 ns|              361010 ns|WR-DATA   | 48260194 |  1/ 1 | -- | 83002040 |  OKAY  | ---- | ------- | - | ---------- |
   Picked  : |              361105 ns|              361110 ns|WR-NONSEQ | 48260164 | ----- |  1 | -------- |  ----  |SINGLE|    4    | 0 |           0|
             |              361105 ns|              361110 ns|WR-NONSEQ | 48260164 | ----- |  1 | -------- |  ----  |SINGLE|    4    | 0 |           0|
   Picked  : |              361110 ns|              361410 ns|WR-DATA   | 48260164 |  1/ 1 | -- | 42C02040 |  OKAY  | ---- | ------- | - | ---------- |
             |              361110 ns|              361410 ns|WR-DATA   | 48260164 |  1/ 1 | -- | 42C02040 |  OKAY  | ---- | ------- | - | ---------- |
   Picked  : |              361560 ns|              361565 ns|RD-NONSEQ | 482601A8 | ----- |  1 | -------- |  ----  |SINGLE|    4    | 0 |           0|
             |              361560 ns|              361565 ns|RD-NONSEQ | 482601A8 | ----- |  1 | -------- |  ----  |SINGLE|    4    | 0 |           0|
   Picked  : |              361565 ns|              361890 ns|RD-DATA   | 482601A8 |  1/ 1 | -- | 00000000 |  OKAY  | ---- | ------- | - | ---------- |
             |              361565 ns|              361890 ns|RD-DATA   | 482601A8 |  1/ 1 | -- | 00000000 |  OKAY  | ---- | ------- | - | ---------- |
   Picked  : |              361960 ns|              361965 ns|RD-NONSEQ | 48260178 | ----- |  1 | -------- |  ----  |SINGLE|    4    | 0 |           0|
             |              361960 ns|              361965 ns|RD-NONSEQ | 48260178 | ----- |  1 | -------- |  ----  |SINGLE|    4    | 0 |           0|
   Picked  : |              361965 ns|              362330 ns|RD-DATA   | 48260178 |  1/ 1 | -- | 00000000 |  OKAY  | ---- | ------- | - | ---------- |
             |              361965 ns|              362330 ns|RD-DATA   | 48260178 |  1/ 1 | -- | 00000000 |  OKAY  | ---- | ------- | - | ---------- |
   Picked  : |              362440 ns|              362445 ns|RD-NONSEQ | 482601A8 | ----- |  1 | -------- |  ----  |SINGLE|    4    | 0 |           0|
             |              362440 ns|              362445 ns|RD-NONSEQ | 482601A8 | ----- |  1 | -------- |  ----  |SINGLE|    4    | 0 |           0|
   Picked  : |              362445 ns|              362770 ns|RD-DATA   | 482601A8 |  1/ 1 | -- | 00000000 |  OKAY  | ---- | ------- | - | ---------- |
             |              362445 ns|              362770 ns|RD-DATA   | 482601A8 |  1/ 1 | -- | 00000000 |  OKAY  | ---- | ------- | - | ---------- |
   Picked  : |              362880 ns|              362885 ns|RD-NONSEQ | 48260178 | ----- |  1 | -------- |  ----  |SINGLE|    4    | 0 |           0|
             |              362880 ns|              362885 ns|RD-NONSEQ | 48260178 | ----- |  1 | -------- |  ----  |SINGLE|    4    | 0 |           0|
   Picked  : |              362885 ns|              363210 ns|RD-DATA   | 48260178 |  1/ 1 | -- | 00000000 |  OKAY  | ---- | ------- | - | ---------- |
             |              362885 ns|              363210 ns|RD-DATA   | 48260178 |  1/ 1 | -- | 00000000 |  OKAY  | ---- | ------- | - | ---------- |
   Picked  : |              363320 ns|              363325 ns|RD-NONSEQ | 482601A8 | ----- |  1 | -------- |  ----  |SINGLE|    4    | 0 |           0|
             |              363320 ns|              363325 ns|RD-NONSEQ | 482601A8 | ----- |  1 | -------- |  ----  |SINGLE|    4    | 0 |           0|
   Picked  : |              363325 ns|              363690 ns|RD-DATA   | 482601A8 |  1/ 1 | -- | 00000000 |  OKAY  | ---- | ------- | - | ---------- |
             |              363325 ns|              363690 ns|RD-DATA   | 482601A8 |  1/ 1 | -- | 00000000 |  OKAY  | ---- | ------- | - | ---------- |
   Picked  : |              363760 ns|              363765 ns|RD-NONSEQ | 48260178 | ----- |  1 | -------- |  ----  |SINGLE|    4    | 0 |           0|
             |              363760 ns|              363765 ns|RD-NONSEQ | 48260178 | ----- |  1 | -------- |  ----  |SINGLE|    4    | 0 |           0|
   Picked  : |              363765 ns|              364130 ns|RD-DATA   | 48260178 |  1/ 1 | -- | 00000000 |  OKAY  | ---- | ------- | - | ---------- |
             |              363765 ns|              364130 ns|RD-DATA   | 48260178 |  1/ 1 | -- | 00000000 |  OKAY  | ---- | ------- | - | ---------- |
   Picked  : |              364240 ns|              364245 ns|RD-NONSEQ | 482601A8 | ----- |  1 | -------- |  ----  |SINGLE|    4    | 0 |           0|
             |              364240 ns|              364245 ns|RD-NONSEQ | 482601A8 | ----- |  1 | -------- |  ----  |SINGLE|    4    | 0 |           0|
   Picked  : |              364245 ns|              364610 ns|RD-DATA   | 482601A8 |  1/ 1 | -- | 00000000 |  OKAY  | ---- | ------- | - | ---------- |
             |              364245 ns|              364610 ns|RD-DATA   | 482601A8 |  1/ 1 | -- | 00000000 |  OKAY  | ---- | ------- | - | ---------- |
   Picked  : |              364680 ns|              364685 ns|RD-NONSEQ | 48260178 | ----- |  1 | -------- |  ----  |SINGLE|    4    | 0 |           0|
             |              364680 ns|              364685 ns|RD-NONSEQ | 48260178 | ----- |  1 | -------- |  ----  |SINGLE|    4    | 0 |           0|
   Picked  : |              364685 ns|              365020 ns|RD-DATA   | 48260178 |  1/ 1 | -- | 00000000 |  OKAY  | ---- | ------- | - | ---------- |
             |              364685 ns|              365020 ns|RD-DATA   | 48260178 |  1/ 1 | -- | 00000000 |  OKAY  | ---- | ------- | - | ---------- |
   Picked  : |              365160 ns|              365165 ns|RD-NONSEQ | 482601A8 | ----- |  1 | -------- |  ----  |SINGLE|    4    | 0 |           0|
             |              365160 ns|              365165 ns|RD-NONSEQ | 482601A8 | ----- |  1 | -------- |  ----  |SINGLE|    4    | 0 |           0|
   Picked  : |              365165 ns|              365500 ns|RD-DATA   | 482601A8 |  1/ 1 | -- | 00000000 |  OKAY  | ---- | ------- | - | ---------- |
             |              365165 ns|              365500 ns|RD-DATA   | 482601A8 |  1/ 1 | -- | 00000000 |  OKAY  | ---- | ------- | - | ---------- |
   Picked  : |              365570 ns|              365575 ns|RD-NONSEQ | 48260178 | ----- |  1 | -------- |  ----  |SINGLE|    4    | 0 |           0|
             |              365570 ns|              365575 ns|RD-NONSEQ | 48260178 | ----- |  1 | -------- |  ----  |SINGLE|    4    | 0 |           0|
   Picked  : |              365575 ns|              365890 ns|RD-DATA   | 48260178 |  1/ 1 | -- | 00000000 |  OKAY  | ---- | ------- | - | ---------- |
             |              365575 ns|              365890 ns|RD-DATA   | 48260178 |  1/ 1 | -- | 00000000 |  OKAY  | ---- | ------- | - | ---------- |
   Picked  : |              366050 ns|              366055 ns|RD-NONSEQ | 482601A8 | ----- |  1 | -------- |  ----  |SINGLE|    4    | 0 |           0|
             |              366050 ns|              366055 ns|RD-NONSEQ | 482601A8 | ----- |  1 | -------- |  ----  |SINGLE|    4    | 0 |           0|
   Picked  : |              366055 ns|              366370 ns|RD-DATA   | 482601A8 |  1/ 1 | -- | 00000000 |  OKAY  | ---- | ------- | - | ---------- |
             |              366055 ns|              366370 ns|RD-DATA   | 482601A8 |  1/ 1 | -- | 00000000 |  OKAY  | ---- | ------- | - | ---------- |
   Picked  : |              366440 ns|              366445 ns|RD-NONSEQ | 48260178 | ----- |  1 | -------- |  ----  |SINGLE|    4    | 0 |           0|
             |              366440 ns|              366445 ns|RD-NONSEQ | 48260178 | ----- |  1 | -------- |  ----  |SINGLE|    4    | 0 |           0|
   Picked  : |              366445 ns|              366780 ns|RD-DATA   | 48260178 |  1/ 1 | -- | 00000000 |  OKAY  | ---- | ------- | - | ---------- |
             |              366445 ns|              366780 ns|RD-DATA   | 48260178 |  1/ 1 | -- | 00000000 |  OKAY  | ---- | ------- | - | ---------- |
   Picked  : |              366920 ns|              366925 ns|RD-NONSEQ | 482601A8 | ----- |  1 | -------- |  ----  |SINGLE|    4    | 0 |           0|
             |              366920 ns|              366925 ns|RD-NONSEQ | 482601A8 | ----- |  1 | -------- |  ----  |SINGLE|    4    | 0 |           0|
   Picked  : |              366925 ns|              367290 ns|RD-DATA   | 482601A8 |  1/ 1 | -- | 00000000 |  OKAY  | ---- | ------- | - | ---------- |
             |              366925 ns|              367290 ns|RD-DATA   | 482601A8 |  1/ 1 | -- | 00000000 |  OKAY  | ---- | ------- | - | ---------- |
   Picked  : |              367340 ns|              367345 ns|RD-NONSEQ | 48260178 | ----- |  1 | -------- |  ----  |SINGLE|    4    | 0 |           0|
             |              367340 ns|              367345 ns|RD-NONSEQ | 48260178 | ----- |  1 | -------- |  ----  |SINGLE|    4    | 0 |           0|
   Picked  : |              367345 ns|              367650 ns|RD-DATA   | 48260178 |  1/ 1 | -- | 00000000 |  OKAY  | ---- | ------- | - | ---------- |
             |              367345 ns|              367650 ns|RD-DATA   | 48260178 |  1/ 1 | -- | 00000000 |  OKAY  | ---- | ------- | - | ---------- |
   Picked  : |              367840 ns|              367845 ns|RD-NONSEQ | 482601A8 | ----- |  1 | -------- |  ----  |SINGLE|    4    | 0 |           0|
             |              367840 ns|              367845 ns|RD-NONSEQ | 482601A8 | ----- |  1 | -------- |  ----  |SINGLE|    4    | 0 |           0|
   Picked  : |              367845 ns|              368220 ns|RD-DATA   | 482601A8 |  1/ 1 | -- | 00000000 |  OKAY  | ---- | ------- | - | ---------- |
             |              367845 ns|              368220 ns|RD-DATA   | 482601A8 |  1/ 1 | -- | 00000000 |  OKAY  | ---- | ------- | - | ---------- |
   Picked  : |              368270 ns|              368275 ns|RD-NONSEQ | 48260178 | ----- |  1 | -------- |  ----  |SINGLE|    4    | 0 |           0|
             |              368270 ns|              368275 ns|RD-NONSEQ | 48260178 | ----- |  1 | -------- |  ----  |SINGLE|    4    | 0 |           0|
   Picked  : |              368275 ns|              368580 ns|RD-DATA   | 48260178 |  1/ 1 | -- | 00000000 |  OKAY  | ---- | ------- | - | ---------- |
             |              368275 ns|              368580 ns|RD-DATA   | 48260178 |  1/ 1 | -- | 00000000 |  OKAY  | ---- | ------- | - | ---------- |
   Picked  : |              368770 ns|              368775 ns|RD-NONSEQ | 482601A8 | ----- |  1 | -------- |  ----  |SINGLE|    4    | 0 |           0|
             |              368770 ns|              368775 ns|RD-NONSEQ | 482601A8 | ----- |  1 | -------- |  ----  |SINGLE|    4    | 0 |           0|
   Picked  : |              368775 ns|              369090 ns|RD-DATA   | 482601A8 |  1/ 1 | -- | 00000000 |  OKAY  | ---- | ------- | - | ---------- |
             |              368775 ns|              369090 ns|RD-DATA   | 482601A8 |  1/ 1 | -- | 00000000 |  OKAY  | ---- | ------- | - | ---------- |
   Picked  : |              369140 ns|              369145 ns|RD-NONSEQ | 48260178 | ----- |  1 | -------- |  ----  |SINGLE|    4    | 0 |           0|
             |              369140 ns|              369145 ns|RD-NONSEQ | 48260178 | ----- |  1 | -------- |  ----  |SINGLE|    4    | 0 |           0|
   Picked  : |              369145 ns|              369450 ns|RD-DATA   | 48260178 |  1/ 1 | -- | 00000000 |  OKAY  | ---- | ------- | - | ---------- |
             |              369145 ns|              369450 ns|RD-DATA   | 48260178 |  1/ 1 | -- | 00000000 |  OKAY  | ---- | ------- | - | ---------- |
   Picked  : |              369640 ns|              369645 ns|RD-NONSEQ | 482601A8 | ----- |  1 | -------- |  ----  |SINGLE|    4    | 0 |           0|
             |              369640 ns|              369645 ns|RD-NONSEQ | 482601A8 | ----- |  1 | -------- |  ----  |SINGLE|    4    | 0 |           0|
   Picked  : |              369645 ns|              369980 ns|RD-DATA   | 482601A8 |  1/ 1 | -- | 00000000 |  OKAY  | ---- | ------- | - | ---------- |
             |              369645 ns|              369980 ns|RD-DATA   | 482601A8 |  1/ 1 | -- | 00000000 |  OKAY  | ---- | ------- | - | ---------- |
   Picked  : |              370030 ns|              370035 ns|RD-NONSEQ | 48260178 | ----- |  1 | -------- |  ----  |SINGLE|    4    | 0 |           0|
             |              370030 ns|              370035 ns|RD-NONSEQ | 48260178 | ----- |  1 | -------- |  ----  |SINGLE|    4    | 0 |           0|
   Picked  : |              370035 ns|              370370 ns|RD-DATA   | 48260178 |  1/ 1 | -- | 00000000 |  OKAY  | ---- | ------- | - | ---------- |
             |              370035 ns|              370370 ns|RD-DATA   | 48260178 |  1/ 1 | -- | 00000000 |  OKAY  | ---- | ------- | - | ---------- |
   Picked  : |              370530 ns|              370535 ns|RD-NONSEQ | 482601A8 | ----- |  1 | -------- |  ----  |SINGLE|    4    | 0 |           0|
             |              370530 ns|              370535 ns|RD-NONSEQ | 482601A8 | ----- |  1 | -------- |  ----  |SINGLE|    4    | 0 |           0|
   Picked  : |              370535 ns|              370860 ns|RD-DATA   | 482601A8 |  1/ 1 | -- | 00000000 |  OKAY  | ---- | ------- | - | ---------- |
             |              370535 ns|              370860 ns|RD-DATA   | 482601A8 |  1/ 1 | -- | 00000000 |  OKAY  | ---- | ------- | - | ---------- |
   Picked  : |              370920 ns|              370925 ns|RD-NONSEQ | 48260178 | ----- |  1 | -------- |  ----  |SINGLE|    4    | 0 |           0|
             |              370920 ns|              370925 ns|RD-NONSEQ | 48260178 | ----- |  1 | -------- |  ----  |SINGLE|    4    | 0 |           0|
   Picked  : |              370925 ns|              371300 ns|RD-DATA   | 48260178 |  1/ 1 | -- | 00000000 |  OKAY  | ---- | ------- | - | ---------- |
             |              370925 ns|              371300 ns|RD-DATA   | 48260178 |  1/ 1 | -- | 00000000 |  OKAY  | ---- | ------- | - | ---------- |
   Picked  : |              371410 ns|              371415 ns|RD-NONSEQ | 482601A8 | ----- |  1 | -------- |  ----  |SINGLE|    4    | 0 |           0|
             |              371410 ns|              371415 ns|RD-NONSEQ | 482601A8 | ----- |  1 | -------- |  ----  |SINGLE|    4    | 0 |           0|
   Picked  : |              371415 ns|              371730 ns|RD-DATA   | 482601A8 |  1/ 1 | -- | 00000000 |  OKAY  | ---- | ------- | - | ---------- |
             |              371415 ns|              371730 ns|RD-DATA   | 482601A8 |  1/ 1 | -- | 00000000 |  OKAY  | ---- | ------- | - | ---------- |
   Picked  : |              371850 ns|              371855 ns|RD-NONSEQ | 48260178 | ----- |  1 | -------- |  ----  |SINGLE|    4    | 0 |           0|
             |              371850 ns|              371855 ns|RD-NONSEQ | 48260178 | ----- |  1 | -------- |  ----  |SINGLE|    4    | 0 |           0|
   Picked  : |              371855 ns|              372170 ns|RD-DATA   | 48260178 |  1/ 1 | -- | 00000000 |  OKAY  | ---- | ------- | - | ---------- |
             |              371855 ns|              372170 ns|RD-DATA   | 48260178 |  1/ 1 | -- | 00000000 |  OKAY  | ---- | ------- | - | ---------- |
   Picked  : |              372280 ns|              372285 ns|RD-NONSEQ | 482601A8 | ----- |  1 | -------- |  ----  |SINGLE|    4    | 0 |           0|
             |              372280 ns|              372285 ns|RD-NONSEQ | 482601A8 | ----- |  1 | -------- |  ----  |SINGLE|    4    | 0 |           0|
   Picked  : |              372285 ns|              372660 ns|RD-DATA   | 482601A8 |  1/ 1 | -- | 00000000 |  OKAY  | ---- | ------- | - | ---------- |
             |              372285 ns|              372660 ns|RD-DATA   | 482601A8 |  1/ 1 | -- | 00000000 |  OKAY  | ---- | ------- | - | ---------- |
   Picked  : |              372720 ns|              372725 ns|RD-NONSEQ | 48260178 | ----- |  1 | -------- |  ----  |SINGLE|    4    | 0 |           0|
             |              372720 ns|              372725 ns|RD-NONSEQ | 48260178 | ----- |  1 | -------- |  ----  |SINGLE|    4    | 0 |           0|
   Picked  : |              372725 ns|              373090 ns|RD-DATA   | 48260178 |  1/ 1 | -- | 00000000 |  OKAY  | ---- | ------- | - | ---------- |
             |              372725 ns|              373090 ns|RD-DATA   | 48260178 |  1/ 1 | -- | 00000000 |  OKAY  | ---- | ------- | - | ---------- |
   Picked  : |              373210 ns|              373215 ns|RD-NONSEQ | 482601A8 | ----- |  1 | -------- |  ----  |SINGLE|    4    | 0 |           0|
             |              373210 ns|              373215 ns|RD-NONSEQ | 482601A8 | ----- |  1 | -------- |  ----  |SINGLE|    4    | 0 |           0|
   Picked  : |              373215 ns|              373530 ns|RD-DATA   | 482601A8 |  1/ 1 | -- | 00000000 |  OKAY  | ---- | ------- | - | ---------- |
             |              373215 ns|              373530 ns|RD-DATA   | 482601A8 |  1/ 1 | -- | 00000000 |  OKAY  | ---- | ------- | - | ---------- |
   Picked  : |              373640 ns|              373645 ns|RD-NONSEQ | 48260178 | ----- |  1 | -------- |  ----  |SINGLE|    4    | 0 |           0|
             |              373640 ns|              373645 ns|RD-NONSEQ | 48260178 | ----- |  1 | -------- |  ----  |SINGLE|    4    | 0 |           0|
   Picked  : |              373645 ns|              373980 ns|RD-DATA   | 48260178 |  1/ 1 | -- | 00000000 |  OKAY  | ---- | ------- | - | ---------- |
             |              373645 ns|              373980 ns|RD-DATA   | 48260178 |  1/ 1 | -- | 00000000 |  OKAY  | ---- | ------- | - | ---------- |
   Picked  : |              374080 ns|              374085 ns|RD-NONSEQ | 482601A8 | ----- |  1 | -------- |  ----  |SINGLE|    4    | 0 |           0|
             |              374080 ns|              374085 ns|RD-NONSEQ | 482601A8 | ----- |  1 | -------- |  ----  |SINGLE|    4    | 0 |           0|
   Picked  : |              374085 ns|              374450 ns|RD-DATA   | 482601A8 |  1/ 1 | -- | 00000000 |  OKAY  | ---- | ------- | - | ---------- |
             |              374085 ns|              374450 ns|RD-DATA   | 482601A8 |  1/ 1 | -- | 00000000 |  OKAY  | ---- | ------- | - | ---------- |
   Picked  : |              374530 ns|              374535 ns|RD-NONSEQ | 48260178 | ----- |  1 | -------- |  ----  |SINGLE|    4    | 0 |           0|
             |              374530 ns|              374535 ns|RD-NONSEQ | 48260178 | ----- |  1 | -------- |  ----  |SINGLE|    4    | 0 |           0|
   Picked  : |              374535 ns|              374850 ns|RD-DATA   | 48260178 |  1/ 1 | -- | 00000000 |  OKAY  | ---- | ------- | - | ---------- |
             |              374535 ns|              374850 ns|RD-DATA   | 48260178 |  1/ 1 | -- | 00000000 |  OKAY  | ---- | ------- | - | ---------- |
   Picked  : |              375000 ns|              375005 ns|RD-NONSEQ | 482601A8 | ----- |  1 | -------- |  ----  |SINGLE|    4    | 0 |           0|
             |              375000 ns|              375005 ns|RD-NONSEQ | 482601A8 | ----- |  1 | -------- |  ----  |SINGLE|    4    | 0 |           0|
   Picked  : |              375005 ns|              375380 ns|RD-DATA   | 482601A8 |  1/ 1 | -- | 00000001 |  OKAY  | ---- | ------- | - | ---------- |
             |              375005 ns|              375380 ns|RD-DATA   | 482601A8 |  1/ 1 | -- | 00000001 |  OKAY  | ---- | ------- | - | ---------- |
   Picked  : |              375430 ns|              375435 ns|RD-NONSEQ | 48260178 | ----- |  1 | -------- |  ----  |SINGLE|    4    | 0 |           0|
             |              375430 ns|              375435 ns|RD-NONSEQ | 48260178 | ----- |  1 | -------- |  ----  |SINGLE|    4    | 0 |           0|
   Picked  : |              375435 ns|              375770 ns|RD-DATA   | 48260178 |  1/ 1 | -- | 00000001 |  OKAY  | ---- | ------- | - | ---------- |
             |              375435 ns|              375770 ns|RD-DATA   | 48260178 |  1/ 1 | -- | 00000001 |  OKAY  | ---- | ------- | - | ---------- |
   Picked  : |              375820 ns|              375825 ns|RD-NONSEQ | 482601A4 | ----- |  1 | -------- |  ----  |SINGLE|    4    | 0 |           0|
             |              375820 ns|              375825 ns|RD-NONSEQ | 482601A4 | ----- |  1 | -------- |  ----  |SINGLE|    4    | 0 |           0|
   Picked  : |              375825 ns|              376130 ns|RD-DATA   | 482601A4 |  1/ 1 | -- | 0000623F |  OKAY  | ---- | ------- | - | ---------- |
             |              375825 ns|              376130 ns|RD-DATA   | 482601A4 |  1/ 1 | -- | 0000623F |  OKAY  | ---- | ------- | - | ---------- |
   Picked  : |              376180 ns|              376185 ns|RD-NONSEQ | 48260174 | ----- |  1 | -------- |  ----  |SINGLE|    4    | 0 |           0|
             |              376180 ns|              376185 ns|RD-NONSEQ | 48260174 | ----- |  1 | -------- |  ----  |SINGLE|    4    | 0 |           0|
   Picked  : |              376185 ns|              376530 ns|RD-DATA   | 48260174 |  1/ 1 | -- | 0000623F |  OKAY  | ---- | ------- | - | ---------- |
             |              376185 ns|              376530 ns|RD-DATA   | 48260174 |  1/ 1 | -- | 0000623F |  OKAY  | ---- | ------- | - | ---------- |
   Picked  : |              376585 ns|              376590 ns|WR-NONSEQ | 482601A4 | ----- |  1 | -------- |  ----  |SINGLE|    4    | 0 |           0|
             |              376585 ns|              376590 ns|WR-NONSEQ | 482601A4 | ----- |  1 | -------- |  ----  |SINGLE|    4    | 0 |           0|
   Picked  : |              376590 ns|              376900 ns|WR-DATA   | 482601A4 |  1/ 1 | -- | 0000623E |  OKAY  | ---- | ------- | - | ---------- |
             |              376590 ns|              376900 ns|WR-DATA   | 482601A4 |  1/ 1 | -- | 0000623E |  OKAY  | ---- | ------- | - | ---------- |
   Picked  : |              376955 ns|              376960 ns|WR-NONSEQ | 48260174 | ----- |  1 | -------- |  ----  |SINGLE|    4    | 0 |           0|
             |              376955 ns|              376960 ns|WR-NONSEQ | 48260174 | ----- |  1 | -------- |  ----  |SINGLE|    4    | 0 |           0|
   Picked  : |              376960 ns|              377290 ns|WR-DATA   | 48260174 |  1/ 1 | -- | 0000623E |  OKAY  | ---- | ------- | - | ---------- |
             |              376960 ns|              377290 ns|WR-DATA   | 48260174 |  1/ 1 | -- | 0000623E |  OKAY  | ---- | ------- | - | ---------- |
   Picked  : |              377340 ns|              377345 ns|RD-NONSEQ | 48260194 | ----- |  1 | -------- |  ----  |SINGLE|    4    | 0 |           0|
             |              377340 ns|              377345 ns|RD-NONSEQ | 48260194 | ----- |  1 | -------- |  ----  |SINGLE|    4    | 0 |           0|
   Picked  : |              377345 ns|              377690 ns|RD-DATA   | 48260194 |  1/ 1 | -- | 83002040 |  OKAY  | ---- | ------- | - | ---------- |
             |              377345 ns|              377690 ns|RD-DATA   | 48260194 |  1/ 1 | -- | 83002040 |  OKAY  | ---- | ------- | - | ---------- |
   Picked  : |              377740 ns|              377745 ns|RD-NONSEQ | 48260164 | ----- |  1 | -------- |  ----  |SINGLE|    4    | 0 |           0|
             |              377740 ns|              377745 ns|RD-NONSEQ | 48260164 | ----- |  1 | -------- |  ----  |SINGLE|    4    | 0 |           0|
   Picked  : |              377745 ns|              378050 ns|RD-DATA   | 48260164 |  1/ 1 | -- | 42C02040 |  OKAY  | ---- | ------- | - | ---------- |
             |              377745 ns|              378050 ns|RD-DATA   | 48260164 |  1/ 1 | -- | 42C02040 |  OKAY  | ---- | ------- | - | ---------- |
   Picked  : |              378105 ns|              378110 ns|WR-NONSEQ | 48260194 | ----- |  1 | -------- |  ----  |SINGLE|    4    | 0 |           0|
             |              378105 ns|              378110 ns|WR-NONSEQ | 48260194 | ----- |  1 | -------- |  ----  |SINGLE|    4    | 0 |           0|
   Picked  : |              378110 ns|              378450 ns|WR-DATA   | 48260194 |  1/ 1 | -- | 83002041 |  OKAY  | ---- | ------- | - | ---------- |
             |              378110 ns|              378450 ns|WR-DATA   | 48260194 |  1/ 1 | -- | 83002041 |  OKAY  | ---- | ------- | - | ---------- |
   Picked  : |              378505 ns|              378510 ns|WR-NONSEQ | 48260164 | ----- |  1 | -------- |  ----  |SINGLE|    4    | 0 |           0|
             |              378505 ns|              378510 ns|WR-NONSEQ | 48260164 | ----- |  1 | -------- |  ----  |SINGLE|    4    | 0 |           0|
   Picked  : |              378510 ns|              378820 ns|WR-DATA   | 48260164 |  1/ 1 | -- | 42C02041 |  OKAY  | ---- | ------- | - | ---------- |
             |              378510 ns|              378820 ns|WR-DATA   | 48260164 |  1/ 1 | -- | 42C02041 |  OKAY  | ---- | ------- | - | ---------- |
   Picked  : |              378875 ns|              378880 ns|WR-NONSEQ | 48260194 | ----- |  1 | -------- |  ----  |SINGLE|    4    | 0 |           0|
             |              378875 ns|              378880 ns|WR-NONSEQ | 48260194 | ----- |  1 | -------- |  ----  |SINGLE|    4    | 0 |           0|
   Picked  : |              378880 ns|              379210 ns|WR-DATA   | 48260194 |  1/ 1 | -- | 83002001 |  OKAY  | ---- | ------- | - | ---------- |
             |              378880 ns|              379210 ns|WR-DATA   | 48260194 |  1/ 1 | -- | 83002001 |  OKAY  | ---- | ------- | - | ---------- |
   Picked  : |              379265 ns|              379270 ns|WR-NONSEQ | 48260164 | ----- |  1 | -------- |  ----  |SINGLE|    4    | 0 |           0|
             |              379265 ns|              379270 ns|WR-NONSEQ | 48260164 | ----- |  1 | -------- |  ----  |SINGLE|    4    | 0 |           0|
   Picked  : |              379270 ns|              379610 ns|WR-DATA   | 48260164 |  1/ 1 | -- | 42C02001 |  OKAY  | ---- | ------- | - | ---------- |
             |              379270 ns|              379610 ns|WR-DATA   | 48260164 |  1/ 1 | -- | 42C02001 |  OKAY  | ---- | ------- | - | ---------- |
   Picked  : |              380060 ns|              380065 ns|RD-NONSEQ | 482601AC | ----- |  1 | -------- |  ----  |SINGLE|    4    | 0 |           0|
             |              380060 ns|              380065 ns|RD-NONSEQ | 482601AC | ----- |  1 | -------- |  ----  |SINGLE|    4    | 0 |           0|
   Picked  : |              380065 ns|              380420 ns|RD-DATA   | 482601AC |  1/ 1 | -- | 000000CD |  OKAY  | ---- | ------- | - | ---------- |
             |              380065 ns|              380420 ns|RD-DATA   | 482601AC |  1/ 1 | -- | 000000CD |  OKAY  | ---- | ------- | - | ---------- |
   Picked  : |              380475 ns|              380480 ns|WR-NONSEQ | 482601AC | ----- |  1 | -------- |  ----  |SINGLE|    4    | 0 |           0|
             |              380475 ns|              380480 ns|WR-NONSEQ | 482601AC | ----- |  1 | -------- |  ----  |SINGLE|    4    | 0 |           0|
   Picked  : |              380480 ns|              380810 ns|WR-DATA   | 482601AC |  1/ 1 | -- | 0000004D |  OKAY  | ---- | ------- | - | ---------- |
             |              380480 ns|              380810 ns|WR-DATA   | 482601AC |  1/ 1 | -- | 0000004D |  OKAY  | ---- | ------- | - | ---------- |
   Picked  : |              380865 ns|              380870 ns|WR-NONSEQ | 482601C8 | ----- |  1 | -------- |  ----  |SINGLE|    4    | 0 |           0|
             |              380865 ns|              380870 ns|WR-NONSEQ | 482601C8 | ----- |  1 | -------- |  ----  |SINGLE|    4    | 0 |           0|
   Picked  : |              380870 ns|              381170 ns|WR-DATA   | 482601C8 |  1/ 1 | -- | FFFFFFFF |  OKAY  | ---- | ------- | - | ---------- |
             |              380870 ns|              381170 ns|WR-DATA   | 482601C8 |  1/ 1 | -- | FFFFFFFF |  OKAY  | ---- | ------- | - | ---------- |
   Picked  : |              381225 ns|              381230 ns|WR-NONSEQ | 482601C4 | ----- |  1 | -------- |  ----  |SINGLE|    4    | 0 |           0|
             |              381225 ns|              381230 ns|WR-NONSEQ | 482601C4 | ----- |  1 | -------- |  ----  |SINGLE|    4    | 0 |           0|
   Picked  : |              381230 ns|              381540 ns|WR-DATA   | 482601C4 |  1/ 1 | -- | FFFFFFFF |  OKAY  | ---- | ------- | - | ---------- |
             |              381230 ns|              381540 ns|WR-DATA   | 482601C4 |  1/ 1 | -- | FFFFFFFF |  OKAY  | ---- | ------- | - | ---------- |
   Picked  : |              381590 ns|              381595 ns|RD-NONSEQ | 482601B8 | ----- |  1 | -------- |  ----  |SINGLE|    4    | 0 |           0|
             |              381590 ns|              381595 ns|RD-NONSEQ | 482601B8 | ----- |  1 | -------- |  ----  |SINGLE|    4    | 0 |           0|
   Picked  : |              381595 ns|              381900 ns|RD-DATA   | 482601B8 |  1/ 1 | -- | 0000000A |  OKAY  | ---- | ------- | - | ---------- |
             |              381595 ns|              381900 ns|RD-DATA   | 482601B8 |  1/ 1 | -- | 0000000A |  OKAY  | ---- | ------- | - | ---------- |
   Picked  : |              381955 ns|              381960 ns|WR-NONSEQ | 482601B8 | ----- |  1 | -------- |  ----  |SINGLE|    4    | 0 |           0|
             |              381955 ns|              381960 ns|WR-NONSEQ | 482601B8 | ----- |  1 | -------- |  ----  |SINGLE|    4    | 0 |           0|
   Picked  : |              381960 ns|              382300 ns|WR-DATA   | 482601B8 |  1/ 1 | -- | 0000004A |  OKAY  | ---- | ------- | - | ---------- |
             |              381960 ns|              382300 ns|WR-DATA   | 482601B8 |  1/ 1 | -- | 0000004A |  OKAY  | ---- | ------- | - | ---------- |
   Picked  : |              382355 ns|              382360 ns|WR-NONSEQ | 482601B8 | ----- |  1 | -------- |  ----  |SINGLE|    4    | 0 |           0|
             |              382355 ns|              382360 ns|WR-NONSEQ | 482601B8 | ----- |  1 | -------- |  ----  |SINGLE|    4    | 0 |           0|
   Picked  : |              382360 ns|              382730 ns|WR-DATA   | 482601B8 |  1/ 1 | -- | 0000004B |  OKAY  | ---- | ------- | - | ---------- |
             |              382360 ns|              382730 ns|WR-DATA   | 482601B8 |  1/ 1 | -- | 0000004B |  OKAY  | ---- | ------- | - | ---------- |
   Picked  : |              382780 ns|              382785 ns|RD-NONSEQ | 482601B8 | ----- |  1 | -------- |  ----  |SINGLE|    4    | 0 |           0|
             |              382780 ns|              382785 ns|RD-NONSEQ | 482601B8 | ----- |  1 | -------- |  ----  |SINGLE|    4    | 0 |           0|
   Picked  : |              382785 ns|              383090 ns|RD-DATA   | 482601B8 |  1/ 1 | -- | 0000004B |  OKAY  | ---- | ------- | - | ---------- |
             |              382785 ns|              383090 ns|RD-DATA   | 482601B8 |  1/ 1 | -- | 0000004B |  OKAY  | ---- | ------- | - | ---------- |
   Picked  : |              383190 ns|              383195 ns|RD-NONSEQ | 482601B0 | ----- |  1 | -------- |  ----  |SINGLE|    4    | 0 |           0|
             |              383190 ns|              383195 ns|RD-NONSEQ | 482601B0 | ----- |  1 | -------- |  ----  |SINGLE|    4    | 0 |           0|
   Picked  : |              383195 ns|              383530 ns|RD-DATA   | 482601B0 |  1/ 1 | -- | 00000008 |  OKAY  | ---- | ------- | - | ---------- |
             |              383195 ns|              383530 ns|RD-DATA   | 482601B0 |  1/ 1 | -- | 00000008 |  OKAY  | ---- | ------- | - | ---------- |
   Picked  : |              383585 ns|              383590 ns|WR-NONSEQ | 482601B0 | ----- |  1 | -------- |  ----  |SINGLE|    4    | 0 |           0|
             |              383585 ns|              383590 ns|WR-NONSEQ | 482601B0 | ----- |  1 | -------- |  ----  |SINGLE|    4    | 0 |           0|
   Picked  : |              383590 ns|              383890 ns|WR-DATA   | 482601B0 |  1/ 1 | -- | 00000048 |  OKAY  | ---- | ------- | - | ---------- |
             |              383590 ns|              383890 ns|WR-DATA   | 482601B0 |  1/ 1 | -- | 00000048 |  OKAY  | ---- | ------- | - | ---------- |
   Picked  : |              383945 ns|              383950 ns|WR-NONSEQ | 482601B0 | ----- |  1 | -------- |  ----  |SINGLE|    4    | 0 |           0|
             |              383945 ns|              383950 ns|WR-NONSEQ | 482601B0 | ----- |  1 | -------- |  ----  |SINGLE|    4    | 0 |           0|
   Picked  : |              383950 ns|              384250 ns|WR-DATA   | 482601B0 |  1/ 1 | -- | 00000049 |  OKAY  | ---- | ------- | - | ---------- |
             |              383950 ns|              384250 ns|WR-DATA   | 482601B0 |  1/ 1 | -- | 00000049 |  OKAY  | ---- | ------- | - | ---------- |
   Picked  : |              384300 ns|              384305 ns|RD-NONSEQ | 482601B0 | ----- |  1 | -------- |  ----  |SINGLE|    4    | 0 |           0|
             |              384300 ns|              384305 ns|RD-NONSEQ | 482601B0 | ----- |  1 | -------- |  ----  |SINGLE|    4    | 0 |           0|
   Picked  : |              384305 ns|              384610 ns|RD-DATA   | 482601B0 |  1/ 1 | -- | 00000049 |  OKAY  | ---- | ------- | - | ---------- |
             |              384305 ns|              384610 ns|RD-DATA   | 482601B0 |  1/ 1 | -- | 00000049 |  OKAY  | ---- | ------- | - | ---------- |
   Picked  : |              384710 ns|              384715 ns|RD-NONSEQ | 482601B8 | ----- |  1 | -------- |  ----  |SINGLE|    4    | 0 |           0|
             |              384710 ns|              384715 ns|RD-NONSEQ | 482601B8 | ----- |  1 | -------- |  ----  |SINGLE|    4    | 0 |           0|
   Picked  : |              384715 ns|              385010 ns|RD-DATA   | 482601B8 |  1/ 1 | -- | 0000004B |  OKAY  | ---- | ------- | - | ---------- |
             |              384715 ns|              385010 ns|RD-DATA   | 482601B8 |  1/ 1 | -- | 0000004B |  OKAY  | ---- | ------- | - | ---------- |
   Picked  : |              385065 ns|              385070 ns|WR-NONSEQ | 482601B8 | ----- |  1 | -------- |  ----  |SINGLE|    4    | 0 |           0|
             |              385065 ns|              385070 ns|WR-NONSEQ | 482601B8 | ----- |  1 | -------- |  ----  |SINGLE|    4    | 0 |           0|
   Picked  : |              385070 ns|              385410 ns|WR-DATA   | 482601B8 |  1/ 1 | -- | 0000004B |  OKAY  | ---- | ------- | - | ---------- |
             |              385070 ns|              385410 ns|WR-DATA   | 482601B8 |  1/ 1 | -- | 0000004B |  OKAY  | ---- | ------- | - | ---------- |
   Picked  : |              385465 ns|              385470 ns|WR-NONSEQ | 482601B8 | ----- |  1 | -------- |  ----  |SINGLE|    4    | 0 |           0|
             |              385465 ns|              385470 ns|WR-NONSEQ | 482601B8 | ----- |  1 | -------- |  ----  |SINGLE|    4    | 0 |           0|
   Picked  : |              385470 ns|              385780 ns|WR-DATA   | 482601B8 |  1/ 1 | -- | 0000004B |  OKAY  | ---- | ------- | - | ---------- |
             |              385470 ns|              385780 ns|WR-DATA   | 482601B8 |  1/ 1 | -- | 0000004B |  OKAY  | ---- | ------- | - | ---------- |
   Picked  : |              385830 ns|              385835 ns|RD-NONSEQ | 482601B8 | ----- |  1 | -------- |  ----  |SINGLE|    4    | 0 |           0|
             |              385830 ns|              385835 ns|RD-NONSEQ | 482601B8 | ----- |  1 | -------- |  ----  |SINGLE|    4    | 0 |           0|
   Picked  : |              385835 ns|              386130 ns|RD-DATA   | 482601B8 |  1/ 1 | -- | 0000004B |  OKAY  | ---- | ------- | - | ---------- |
             |              385835 ns|              386130 ns|RD-DATA   | 482601B8 |  1/ 1 | -- | 0000004B |  OKAY  | ---- | ------- | - | ---------- |
   Picked  : |              386230 ns|              386235 ns|RD-NONSEQ | 482601BC | ----- |  1 | -------- |  ----  |SINGLE|    4    | 0 |           0|
             |              386230 ns|              386235 ns|RD-NONSEQ | 482601BC | ----- |  1 | -------- |  ----  |SINGLE|    4    | 0 |           0|
   Picked  : |              386235 ns|              386530 ns|RD-DATA   | 482601BC |  1/ 1 | -- | 00000000 |  OKAY  | ---- | ------- | - | ---------- |
             |              386235 ns|              386530 ns|RD-DATA   | 482601BC |  1/ 1 | -- | 00000000 |  OKAY  | ---- | ------- | - | ---------- |
   Picked  : |              386585 ns|              386590 ns|WR-NONSEQ | 482601BC | ----- |  1 | -------- |  ----  |SINGLE|    4    | 0 |           0|
             |              386585 ns|              386590 ns|WR-NONSEQ | 482601BC | ----- |  1 | -------- |  ----  |SINGLE|    4    | 0 |           0|
   Picked  : |              386590 ns|              386900 ns|WR-DATA   | 482601BC |  1/ 1 | -- | 00000040 |  OKAY  | ---- | ------- | - | ---------- |
             |              386590 ns|              386900 ns|WR-DATA   | 482601BC |  1/ 1 | -- | 00000040 |  OKAY  | ---- | ------- | - | ---------- |
   Picked  : |              386955 ns|              386960 ns|WR-NONSEQ | 482601BC | ----- |  1 | -------- |  ----  |SINGLE|    4    | 0 |           0|
             |              386955 ns|              386960 ns|WR-NONSEQ | 482601BC | ----- |  1 | -------- |  ----  |SINGLE|    4    | 0 |           0|
   Picked  : |              386960 ns|              387330 ns|WR-DATA   | 482601BC |  1/ 1 | -- | 00000041 |  OKAY  | ---- | ------- | - | ---------- |
             |              386960 ns|              387330 ns|WR-DATA   | 482601BC |  1/ 1 | -- | 00000041 |  OKAY  | ---- | ------- | - | ---------- |
   Picked  : |              387380 ns|              387385 ns|RD-NONSEQ | 482601BC | ----- |  1 | -------- |  ----  |SINGLE|    4    | 0 |           0|
             |              387380 ns|              387385 ns|RD-NONSEQ | 482601BC | ----- |  1 | -------- |  ----  |SINGLE|    4    | 0 |           0|
   Picked  : |              387385 ns|              387690 ns|RD-DATA   | 482601BC |  1/ 1 | -- | 00000041 |  OKAY  | ---- | ------- | - | ---------- |
             |              387385 ns|              387690 ns|RD-DATA   | 482601BC |  1/ 1 | -- | 00000041 |  OKAY  | ---- | ------- | - | ---------- |
   Picked  : |              387790 ns|              387795 ns|RD-NONSEQ | F832117C | ----- |  1 | -------- |  ----  |SINGLE|    4    | 0 |           0|
             |              387790 ns|              387795 ns|RD-NONSEQ | F832117C | ----- |  1 | -------- |  ----  |SINGLE|    4    | 0 |           0|
   Picked  : |              387795 ns|              388020 ns|RD-DATA   | F832117C |  1/ 1 | -- | 00000180 |  OKAY  | ---- | ------- | - | ---------- |
             |              387795 ns|              388020 ns|RD-DATA   | F832117C |  1/ 1 | -- | 00000180 |  OKAY  | ---- | ------- | - | ---------- |
   Picked  : |              388075 ns|              388080 ns|WR-NONSEQ | F832117C | ----- |  1 | -------- |  ----  |SINGLE|    4    | 0 |           0|
             |              388075 ns|              388080 ns|WR-NONSEQ | F832117C | ----- |  1 | -------- |  ----  |SINGLE|    4    | 0 |           0|
   Picked  : |              388080 ns|              388300 ns|WR-DATA   | F832117C |  1/ 1 | -- | 00000180 |  OKAY  | ---- | ------- | - | ---------- |
             |              388080 ns|              388300 ns|WR-DATA   | F832117C |  1/ 1 | -- | 00000180 |  OKAY  | ---- | ------- | - | ---------- |
   Picked  : |              388750 ns|              388755 ns|RD-NONSEQ | F832117C | ----- |  1 | -------- |  ----  |SINGLE|    4    | 0 |           0|
             |              388750 ns|              388755 ns|RD-NONSEQ | F832117C | ----- |  1 | -------- |  ----  |SINGLE|    4    | 0 |           0|
   Picked  : |              388755 ns|              388980 ns|RD-DATA   | F832117C |  1/ 1 | -- | 00000180 |  OKAY  | ---- | ------- | - | ---------- |
             |              388755 ns|              388980 ns|RD-DATA   | F832117C |  1/ 1 | -- | 00000180 |  OKAY  | ---- | ------- | - | ---------- |
   Picked  : |              389035 ns|              389040 ns|WR-NONSEQ | F832117C | ----- |  1 | -------- |  ----  |SINGLE|    4    | 0 |           0|
             |              389035 ns|              389040 ns|WR-NONSEQ | F832117C | ----- |  1 | -------- |  ----  |SINGLE|    4    | 0 |           0|
   Picked  : |              389040 ns|              389260 ns|WR-DATA   | F832117C |  1/ 1 | -- | 00000180 |  OKAY  | ---- | ------- | - | ---------- |
             |              389040 ns|              389260 ns|WR-DATA   | F832117C |  1/ 1 | -- | 00000180 |  OKAY  | ---- | ------- | - | ---------- |
   Picked  : |              389510 ns|              389515 ns|RD-NONSEQ | F832117C | ----- |  1 | -------- |  ----  |SINGLE|    4    | 0 |           0|
             |              389510 ns|              389515 ns|RD-NONSEQ | F832117C | ----- |  1 | -------- |  ----  |SINGLE|    4    | 0 |           0|
   Picked  : |              389515 ns|              389740 ns|RD-DATA   | F832117C |  1/ 1 | -- | 00000180 |  OKAY  | ---- | ------- | - | ---------- |
             |              389515 ns|              389740 ns|RD-DATA   | F832117C |  1/ 1 | -- | 00000180 |  OKAY  | ---- | ------- | - | ---------- |
   Picked  : |              389795 ns|              389800 ns|WR-NONSEQ | F832117C | ----- |  1 | -------- |  ----  |SINGLE|    4    | 0 |           0|
             |              389795 ns|              389800 ns|WR-NONSEQ | F832117C | ----- |  1 | -------- |  ----  |SINGLE|    4    | 0 |           0|
   Picked  : |              389800 ns|              390020 ns|WR-DATA   | F832117C |  1/ 1 | -- | 00000180 |  OKAY  | ---- | ------- | - | ---------- |
             |              389800 ns|              390020 ns|WR-DATA   | F832117C |  1/ 1 | -- | 00000180 |  OKAY  | ---- | ------- | - | ---------- |
   Picked  : |              390070 ns|              390075 ns|RD-NONSEQ | F8321180 | ----- |  1 | -------- |  ----  |SINGLE|    4    | 0 |           0|
             |              390070 ns|              390075 ns|RD-NONSEQ | F8321180 | ----- |  1 | -------- |  ----  |SINGLE|    4    | 0 |           0|
   Picked  : |              390075 ns|              390340 ns|RD-DATA   | F8321180 |  1/ 1 | -- | 00000692 |  OKAY  | ---- | ------- | - | ---------- |
             |              390075 ns|              390340 ns|RD-DATA   | F8321180 |  1/ 1 | -- | 00000692 |  OKAY  | ---- | ------- | - | ---------- |
   Picked  : |              390395 ns|              390400 ns|WR-NONSEQ | F8321180 | ----- |  1 | -------- |  ----  |SINGLE|    4    | 0 |           0|
             |              390395 ns|              390400 ns|WR-NONSEQ | F8321180 | ----- |  1 | -------- |  ----  |SINGLE|    4    | 0 |           0|
   Picked  : |              390400 ns|              390670 ns|WR-DATA   | F8321180 |  1/ 1 | -- | 00000692 |  OKAY  | ---- | ------- | - | ---------- |
             |              390400 ns|              390670 ns|WR-DATA   | F8321180 |  1/ 1 | -- | 00000692 |  OKAY  | ---- | ------- | - | ---------- |
   Picked  : |              390720 ns|              390725 ns|RD-NONSEQ | F8321184 | ----- |  1 | -------- |  ----  |SINGLE|    4    | 0 |           0|
             |              390720 ns|              390725 ns|RD-NONSEQ | F8321184 | ----- |  1 | -------- |  ----  |SINGLE|    4    | 0 |           0|
   Picked  : |              390725 ns|              390980 ns|RD-DATA   | F8321184 |  1/ 1 | -- | 1322B573 |  OKAY  | ---- | ------- | - | ---------- |
             |              390725 ns|              390980 ns|RD-DATA   | F8321184 |  1/ 1 | -- | 1322B573 |  OKAY  | ---- | ------- | - | ---------- |
   Picked  : |              391035 ns|              391040 ns|WR-NONSEQ | F8321184 | ----- |  1 | -------- |  ----  |SINGLE|    4    | 0 |           0|
             |              391035 ns|              391040 ns|WR-NONSEQ | F8321184 | ----- |  1 | -------- |  ----  |SINGLE|    4    | 0 |           0|
   Picked  : |              391040 ns|              391260 ns|WR-DATA   | F8321184 |  1/ 1 | -- | 1322B573 |  OKAY  | ---- | ------- | - | ---------- |
             |              391040 ns|              391260 ns|WR-DATA   | F8321184 |  1/ 1 | -- | 1322B573 |  OKAY  | ---- | ------- | - | ---------- |
   Picked  : |              391310 ns|              391315 ns|RD-NONSEQ | F832117C | ----- |  1 | -------- |  ----  |SINGLE|    4    | 0 |           0|
             |              391310 ns|              391315 ns|RD-NONSEQ | F832117C | ----- |  1 | -------- |  ----  |SINGLE|    4    | 0 |           0|
   Picked  : |              391315 ns|              391540 ns|RD-DATA   | F832117C |  1/ 1 | -- | 00000180 |  OKAY  | ---- | ------- | - | ---------- |
             |              391315 ns|              391540 ns|RD-DATA   | F832117C |  1/ 1 | -- | 00000180 |  OKAY  | ---- | ------- | - | ---------- |
   Picked  : |              391595 ns|              391600 ns|WR-NONSEQ | F832117C | ----- |  1 | -------- |  ----  |SINGLE|    4    | 0 |           0|
             |              391595 ns|              391600 ns|WR-NONSEQ | F832117C | ----- |  1 | -------- |  ----  |SINGLE|    4    | 0 |           0|
   Picked  : |              391600 ns|              391820 ns|WR-DATA   | F832117C |  1/ 1 | -- | 00000380 |  OKAY  | ---- | ------- | - | ---------- |
             |              391600 ns|              391820 ns|WR-DATA   | F832117C |  1/ 1 | -- | 00000380 |  OKAY  | ---- | ------- | - | ---------- |
   Picked  : |              401870 ns|              401875 ns|RD-NONSEQ | F832117C | ----- |  1 | -------- |  ----  |SINGLE|    4    | 0 |           0|
             |              401870 ns|              401875 ns|RD-NONSEQ | F832117C | ----- |  1 | -------- |  ----  |SINGLE|    4    | 0 |           0|
   Picked  : |              401875 ns|              402110 ns|RD-DATA   | F832117C |  1/ 1 | -- | 00000380 |  OKAY  | ---- | ------- | - | ---------- |
             |              401875 ns|              402110 ns|RD-DATA   | F832117C |  1/ 1 | -- | 00000380 |  OKAY  | ---- | ------- | - | ---------- |
   Picked  : |              402165 ns|              402170 ns|WR-NONSEQ | F832117C | ----- |  1 | -------- |  ----  |SINGLE|    4    | 0 |           0|
             |              402165 ns|              402170 ns|WR-NONSEQ | F832117C | ----- |  1 | -------- |  ----  |SINGLE|    4    | 0 |           0|
   Picked  : |              402170 ns|              402460 ns|WR-DATA   | F832117C |  1/ 1 | -- | 00000382 |  OKAY  | ---- | ------- | - | ---------- |
             |              402170 ns|              402460 ns|WR-DATA   | F832117C |  1/ 1 | -- | 00000382 |  OKAY  | ---- | ------- | - | ---------- |
   Picked  : |              452510 ns|              452515 ns|RD-NONSEQ | F832117C | ----- |  1 | -------- |  ----  |SINGLE|    4    | 0 |           0|
             |              452510 ns|              452515 ns|RD-NONSEQ | F832117C | ----- |  1 | -------- |  ----  |SINGLE|    4    | 0 |           0|
   Picked  : |              452515 ns|              452750 ns|RD-DATA   | F832117C |  1/ 1 | -- | 00000382 |  OKAY  | ---- | ------- | - | ---------- |
             |              452515 ns|              452750 ns|RD-DATA   | F832117C |  1/ 1 | -- | 00000382 |  OKAY  | ---- | ------- | - | ---------- |
   Picked  : |              452805 ns|              452810 ns|WR-NONSEQ | F832117C | ----- |  1 | -------- |  ----  |SINGLE|    4    | 0 |           0|
             |              452805 ns|              452810 ns|WR-NONSEQ | F832117C | ----- |  1 | -------- |  ----  |SINGLE|    4    | 0 |           0|
   Picked  : |              452810 ns|              453060 ns|WR-DATA   | F832117C |  1/ 1 | -- | 00000282 |  OKAY  | ---- | ------- | - | ---------- |
             |              452810 ns|              453060 ns|WR-DATA   | F832117C |  1/ 1 | -- | 00000282 |  OKAY  | ---- | ------- | - | ---------- |
   Picked  : |              453310 ns|              453315 ns|RD-NONSEQ | F832117C | ----- |  1 | -------- |  ----  |SINGLE|    4    | 0 |           0|
             |              453310 ns|              453315 ns|RD-NONSEQ | F832117C | ----- |  1 | -------- |  ----  |SINGLE|    4    | 0 |           0|
   Picked  : |              453315 ns|              453580 ns|RD-DATA   | F832117C |  1/ 1 | -- | 00000282 |  OKAY  | ---- | ------- | - | ---------- |
             |              453315 ns|              453580 ns|RD-DATA   | F832117C |  1/ 1 | -- | 00000282 |  OKAY  | ---- | ------- | - | ---------- |
   Picked  : |              453635 ns|              453640 ns|WR-NONSEQ | F832117C | ----- |  1 | -------- |  ----  |SINGLE|    4    | 0 |           0|
             |              453635 ns|              453640 ns|WR-NONSEQ | F832117C | ----- |  1 | -------- |  ----  |SINGLE|    4    | 0 |           0|
   Picked  : |              453640 ns|              453870 ns|WR-DATA   | F832117C |  1/ 1 | -- | 00000283 |  OKAY  | ---- | ------- | - | ---------- |
             |              453640 ns|              453870 ns|WR-DATA   | F832117C |  1/ 1 | -- | 00000283 |  OKAY  | ---- | ------- | - | ---------- |
   Picked  : |              454120 ns|              454125 ns|RD-NONSEQ | F832117C | ----- |  1 | -------- |  ----  |SINGLE|    4    | 0 |           0|
             |              454120 ns|              454125 ns|RD-NONSEQ | F832117C | ----- |  1 | -------- |  ----  |SINGLE|    4    | 0 |           0|
   Picked  : |              454125 ns|              454390 ns|RD-DATA   | F832117C |  1/ 1 | -- | 00000283 |  OKAY  | ---- | ------- | - | ---------- |
             |              454125 ns|              454390 ns|RD-DATA   | F832117C |  1/ 1 | -- | 00000283 |  OKAY  | ---- | ------- | - | ---------- |
   Picked  : |              454445 ns|              454450 ns|WR-NONSEQ | F832117C | ----- |  1 | -------- |  ----  |SINGLE|    4    | 0 |           0|
             |              454445 ns|              454450 ns|WR-NONSEQ | F832117C | ----- |  1 | -------- |  ----  |SINGLE|    4    | 0 |           0|
   Picked  : |              454450 ns|              454740 ns|WR-DATA   | F832117C |  1/ 1 | -- | 00000203 |  OKAY  | ---- | ------- | - | ---------- |
             |              454450 ns|              454740 ns|WR-DATA   | F832117C |  1/ 1 | -- | 00000203 |  OKAY  | ---- | ------- | - | ---------- |
   Picked  : |              455195 ns|              455200 ns|WR-NONSEQ | 482601C4 | ----- |  1 | -------- |  ----  |SINGLE|    4    | 0 |           0|
             |              455195 ns|              455200 ns|WR-NONSEQ | 482601C4 | ----- |  1 | -------- |  ----  |SINGLE|    4    | 0 |           0|
   Picked  : |              455200 ns|              455570 ns|WR-DATA   | 482601C4 |  1/ 1 | -- | FFFFFFFF |  OKAY  | ---- | ------- | - | ---------- |
             |              455200 ns|              455570 ns|WR-DATA   | 482601C4 |  1/ 1 | -- | FFFFFFFF |  OKAY  | ---- | ------- | - | ---------- |
   Picked  : |              455625 ns|              455630 ns|WR-NONSEQ | 482601C8 | ----- |  1 | -------- |  ----  |SINGLE|    4    | 0 |           0|
             |              455625 ns|              455630 ns|WR-NONSEQ | 482601C8 | ----- |  1 | -------- |  ----  |SINGLE|    4    | 0 |           0|
   Picked  : |              455630 ns|              455930 ns|WR-DATA   | 482601C8 |  1/ 1 | -- | FFFFFFFF |  OKAY  | ---- | ------- | - | ---------- |
             |              455630 ns|              455930 ns|WR-DATA   | 482601C8 |  1/ 1 | -- | FFFFFFFF |  OKAY  | ---- | ------- | - | ---------- |
   Picked  : |              455985 ns|              455990 ns|WR-NONSEQ | F83212A0 | ----- |  1 | -------- |  ----  |SINGLE|    4    | 0 |           0|
             |              455985 ns|              455990 ns|WR-NONSEQ | F83212A0 | ----- |  1 | -------- |  ----  |SINGLE|    4    | 0 |           0|
   Picked  : |              455990 ns|              456220 ns|WR-DATA   | F83212A0 |  1/ 1 | -- | FFFFFFFF |  OKAY  | ---- | ------- | - | ---------- |
             |              455990 ns|              456220 ns|WR-DATA   | F83212A0 |  1/ 1 | -- | FFFFFFFF |  OKAY  | ---- | ------- | - | ---------- |
   Picked  : |              456270 ns|              456275 ns|RD-NONSEQ | F8321278 | ----- |  1 | -------- |  ----  |SINGLE|    4    | 0 |           0|
             |              456270 ns|              456275 ns|RD-NONSEQ | F8321278 | ----- |  1 | -------- |  ----  |SINGLE|    4    | 0 |           0|
   Picked  : |              456275 ns|              456540 ns|RD-DATA   | F8321278 |  1/ 1 | -- | 00040B46 |  OKAY  | ---- | ------- | - | ---------- |
             |              456275 ns|              456540 ns|RD-DATA   | F8321278 |  1/ 1 | -- | 00040B46 |  OKAY  | ---- | ------- | - | ---------- |
   Picked  : |              456595 ns|              456600 ns|WR-NONSEQ | F8321278 | ----- |  1 | -------- |  ----  |SINGLE|    4    | 0 |           0|
             |              456595 ns|              456600 ns|WR-NONSEQ | F8321278 | ----- |  1 | -------- |  ----  |SINGLE|    4    | 0 |           0|
   Picked  : |              456600 ns|              456820 ns|WR-DATA   | F8321278 |  1/ 1 | -- | 00040B46 |  OKAY  | ---- | ------- | - | ---------- |
