Instance: uvm_test_top.top_env_i.ahbfab_env_i.mvc_ahb_mst_5_env_i.logger_handle_ahb
AHB Clk Cycle = 5 ns; AHB Clk Frequency = 200.00 MHz; Data bus width = 32 bits
------------------------------------------------------------------------------------------------------------------------------------------
|NONSEQ/SEQ Assert Time |  HREADY Assert Time   |  DIR     |   ADDR   | BEAT  |  L |   DATA   |  RESP  | BURST| BURST   | H |    HSEL    |
|                       |                       |   -      |          |  NUM  |  E |          |        | Type | Size    | P |   (SLAVE   |
|                       |                       | PHASE    |          |       |  N |          |        |      |= 2^HSIZE| R |    INDEX)  |
|                       |                       |          |          |       |    |          |        |      | bytes   | O |            |
|                       |                       |          |          |       |    |          |        |      |         | T |            |
|                       |                       |          |          |       |    |          |        |      |         |   |            |
------------------------------------------------------------------------------------------------------------------------------------------
|              677556 ns|              677561 ns|WR-NONSEQ | AFCD6C10 | ----- |  4 | -------- |  ----  |INCR4 |    4    | A |           0|
|              677561 ns|              677576 ns|WR-DATA   | AFCD6C10 |  1/ 4 | -- | 148830AE |  OKAY  | ---- | ------- | - | ---------- |
|              677576 ns|              677581 ns|WR-DATA   | AFCD6C14 |  2/ 4 | -- | 21834C4E |  OKAY  | ---- | ------- | - | ---------- |
|              677581 ns|              677586 ns|WR-DATA   | AFCD6C18 |  3/ 4 | -- | 3B1DC2AD |  OKAY  | ---- | ------- | - | ---------- |
|              677586 ns|              677631 ns|WR-NONSEQ | AFCD6C20 | ----- |  4 | -------- |  ----  |INCR4 |    4    | 8 |           0|
|              677586 ns|              677631 ns|WR-DATA   | AFCD6C1C |  1/ 4 | -- | 6845B0AC |  OKAY  | ---- | ------- | - | ---------- |
|              677631 ns|              677641 ns|WR-DATA   | AFCD6C20 |  2/ 4 | -- | 8F1DEDB9 |  OKAY  | ---- | ------- | - | ---------- |
|              677641 ns|              677646 ns|WR-DATA   | AFCD6C24 |  3/ 4 | -- | C6B9588C |  OKAY  | ---- | ------- | - | ---------- |
|              677646 ns|              677651 ns|WR-DATA   | AFCD6C28 |  4/ 4 | -- | 6DB26E32 |  OKAY  | ---- | ------- | - | ---------- |
|              677651 ns|              677696 ns|WR-NONSEQ | AFCD6C30 | ----- |  4 | -------- |  ----  |INCR4 |    4    | E |           0|
|              677651 ns|              677696 ns|WR-DATA   | AFCD6C2C |  1/ 4 | -- | F42574EF |  OKAY  | ---- | ------- | - | ---------- |
|              677696 ns|              677706 ns|WR-DATA   | AFCD6C30 |  2/ 4 | -- | 2F699F7B |  OKAY  | ---- | ------- | - | ---------- |
|              677706 ns|              677711 ns|WR-DATA   | AFCD6C34 |  3/ 4 | -- | 330E88F8 |  OKAY  | ---- | ------- | - | ---------- |
|              677711 ns|              677716 ns|WR-DATA   | AFCD6C38 |  4/ 4 | -- | 3012C222 |  OKAY  | ---- | ------- | - | ---------- |
|              677716 ns|              677761 ns|WR-NONSEQ | AFCD6C40 | ----- |  4 | -------- |  ----  |INCR4 |    4    | 6 |           0|
|              677716 ns|              677761 ns|WR-DATA   | AFCD6C3C |  1/ 4 | -- | 8234643E |  OKAY  | ---- | ------- | - | ---------- |
|              677761 ns|              677771 ns|WR-DATA   | AFCD6C40 |  2/ 4 | -- | 02A318BC |  OKAY  | ---- | ------- | - | ---------- |
|              677771 ns|              677776 ns|WR-DATA   | AFCD6C44 |  3/ 4 | -- | AF5B62F0 |  OKAY  | ---- | ------- | - | ---------- |
|              677776 ns|              677781 ns|WR-DATA   | AFCD6C48 |  4/ 4 | -- | B7F8ED8D |  OKAY  | ---- | ------- | - | ---------- |
|              677781 ns|              677821 ns|WR-NONSEQ | AFCD6C50 | ----- |  4 | -------- |  ----  |INCR4 |    4    | A |           0|
|              677781 ns|              677821 ns|WR-DATA   | AFCD6C4C |  1/ 4 | -- | 713B6E1B |  OKAY  | ---- | ------- | - | ---------- |
|              677821 ns|              677831 ns|WR-DATA   | AFCD6C50 |  2/ 4 | -- | 195C3514 |  OKAY  | ---- | ------- | - | ---------- |
|              677831 ns|              677836 ns|WR-DATA   | AFCD6C54 |  3/ 4 | -- | 57B8653A |  OKAY  | ---- | ------- | - | ---------- |
|              677836 ns|              677841 ns|WR-DATA   | AFCD6C58 |  4/ 4 | -- | 453F26F0 |  OKAY  | ---- | ------- | - | ---------- |
|              677841 ns|              677886 ns|WR-NONSEQ | AFCD6C60 | ----- |  4 | -------- |  ----  |INCR4 |    4    | 1 |           0|
|              677841 ns|              677886 ns|WR-DATA   | AFCD6C5C |  1/ 4 | -- | DBCAAAEE |  OKAY  | ---- | ------- | - | ---------- |
|              677886 ns|              677896 ns|WR-DATA   | AFCD6C60 |  2/ 4 | -- | 021402D9 |  OKAY  | ---- | ------- | - | ---------- |
|              677896 ns|              677901 ns|WR-DATA   | AFCD6C64 |  3/ 4 | -- | 8EC17B2E |  OKAY  | ---- | ------- | - | ---------- |
|              677901 ns|              677906 ns|WR-DATA   | AFCD6C68 |  4/ 4 | -- | 239871A7 |  OKAY  | ---- | ------- | - | ---------- |
|              677906 ns|              677946 ns|WR-NONSEQ | AFCD6C70 | ----- |  4 | -------- |  ----  |INCR4 |    4    | 6 |           0|
|              677906 ns|              677946 ns|WR-DATA   | AFCD6C6C |  1/ 4 | -- | 445AC894 |  OKAY  | ---- | ------- | - | ---------- |
|              677946 ns|              677956 ns|WR-DATA   | AFCD6C70 |  2/ 4 | -- | 510CBEB4 |  OKAY  | ---- | ------- | - | ---------- |
|              677956 ns|              677961 ns|WR-DATA   | AFCD6C74 |  3/ 4 | -- | 38C0CE0C |  OKAY  | ---- | ------- | - | ---------- |
|              677961 ns|              677966 ns|WR-DATA   | AFCD6C78 |  4/ 4 | -- | 30A11A2B |  OKAY  | ---- | ------- | - | ---------- |
|              677966 ns|              678006 ns|WR-NONSEQ | AFCD6C80 | ----- |  4 | -------- |  ----  |INCR4 |    4    | E |           0|
|              677966 ns|              678006 ns|WR-DATA   | AFCD6C7C |  1/ 4 | -- | 1C431890 |  OKAY  | ---- | ------- | - | ---------- |
|              678006 ns|              678016 ns|WR-DATA   | AFCD6C80 |  2/ 4 | -- | 3158A6CB |  OKAY  | ---- | ------- | - | ---------- |
|              678016 ns|              678021 ns|WR-DATA   | AFCD6C84 |  3/ 4 | -- | 5672ED2F |  OKAY  | ---- | ------- | - | ---------- |
|              678021 ns|              678026 ns|WR-DATA   | AFCD6C88 |  4/ 4 | -- | D861F703 |  OKAY  | ---- | ------- | - | ---------- |
|              678026 ns|              678071 ns|WR-NONSEQ | AFCD6C90 | ----- |  4 | -------- |  ----  |INCR4 |    4    | C |           0|
|              678026 ns|              678071 ns|WR-DATA   | AFCD6C8C |  1/ 4 | -- | 3EBD0864 |  OKAY  | ---- | ------- | - | ---------- |
|              678071 ns|              678081 ns|WR-DATA   | AFCD6C90 |  2/ 4 | -- | 6AF3F5E3 |  OKAY  | ---- | ------- | - | ---------- |
|              678081 ns|              678086 ns|WR-DATA   | AFCD6C94 |  3/ 4 | -- | 753149AF |  OKAY  | ---- | ------- | - | ---------- |
|              678086 ns|              678091 ns|WR-DATA   | AFCD6C98 |  4/ 4 | -- | 69650AD1 |  OKAY  | ---- | ------- | - | ---------- |
|              678091 ns|              678136 ns|WR-NONSEQ | AFCD6CA0 | ----- |  4 | -------- |  ----  |INCR4 |    4    | 0 |           0|
|              678091 ns|              678136 ns|WR-DATA   | AFCD6C9C |  1/ 4 | -- | 0A91BB47 |  OKAY  | ---- | ------- | - | ---------- |
|              678136 ns|              678146 ns|WR-DATA   | AFCD6CA0 |  2/ 4 | -- | B64EF8AB |  OKAY  | ---- | ------- | - | ---------- |
|              678146 ns|              678151 ns|WR-DATA   | AFCD6CA4 |  3/ 4 | -- | FB5DA1F7 |  OKAY  | ---- | ------- | - | ---------- |
|              678151 ns|              678156 ns|WR-DATA   | AFCD6CA8 |  4/ 4 | -- | 1EC894C6 |  OKAY  | ---- | ------- | - | ---------- |
|              678156 ns|              678196 ns|WR-NONSEQ | AFCD6CB0 | ----- |  4 | -------- |  ----  |INCR4 |    4    | D |           0|
|              678156 ns|              678196 ns|WR-DATA   | AFCD6CAC |  1/ 4 | -- | E2A840E6 |  OKAY  | ---- | ------- | - | ---------- |
|              678196 ns|              678206 ns|WR-DATA   | AFCD6CB0 |  2/ 4 | -- | 4CF62D6A |  OKAY  | ---- | ------- | - | ---------- |
|              678206 ns|              678211 ns|WR-DATA   | AFCD6CB4 |  3/ 4 | -- | 763558BF |  OKAY  | ---- | ------- | - | ---------- |
|              678211 ns|              678216 ns|WR-DATA   | AFCD6CB8 |  4/ 4 | -- | 78859F5C |  OKAY  | ---- | ------- | - | ---------- |
|              678216 ns|              678261 ns|WR-NONSEQ | AFCD6CC0 | ----- |  4 | -------- |  ----  |INCR4 |    4    | 2 |           0|
|              678216 ns|              678261 ns|WR-DATA   | AFCD6CBC |  1/ 4 | -- | D2B2BDEA |  OKAY  | ---- | ------- | - | ---------- |
|              678261 ns|              678271 ns|WR-DATA   | AFCD6CC0 |  2/ 4 | -- | DF6D0773 |  OKAY  | ---- | ------- | - | ---------- |
|              678271 ns|              678276 ns|WR-DATA   | AFCD6CC4 |  3/ 4 | -- | C90242C9 |  OKAY  | ---- | ------- | - | ---------- |
|              678276 ns|              678281 ns|WR-DATA   | AFCD6CC8 |  4/ 4 | -- | D6E95952 |  OKAY  | ---- | ------- | - | ---------- |
|              678281 ns|              678321 ns|WR-NONSEQ | AFCD6CD0 | ----- |  4 | -------- |  ----  |INCR4 |    4    | B |           0|
|              678281 ns|              678321 ns|WR-DATA   | AFCD6CCC |  1/ 4 | -- | 7AEFB4F4 |  OKAY  | ---- | ------- | - | ---------- |
|              678321 ns|              678331 ns|WR-DATA   | AFCD6CD0 |  2/ 4 | -- | AACD4427 |  OKAY  | ---- | ------- | - | ---------- |
|              678331 ns|              678336 ns|WR-DATA   | AFCD6CD4 |  3/ 4 | -- | D6C3D54C |  OKAY  | ---- | ------- | - | ---------- |
|              678336 ns|              678341 ns|WR-DATA   | AFCD6CD8 |  4/ 4 | -- | A20E938D |  OKAY  | ---- | ------- | - | ---------- |
|              678341 ns|              678386 ns|WR-NONSEQ | AFCD6CE0 | ----- |  4 | -------- |  ----  |INCR4 |    4    | C |           0|
|              678341 ns|              678386 ns|WR-DATA   | AFCD6CDC |  1/ 4 | -- | 015C6D89 |  OKAY  | ---- | ------- | - | ---------- |
|              678386 ns|              678396 ns|WR-DATA   | AFCD6CE0 |  2/ 4 | -- | 35D2BBDD |  OKAY  | ---- | ------- | - | ---------- |
|              678396 ns|              678401 ns|WR-DATA   | AFCD6CE4 |  3/ 4 | -- | FA19AFE1 |  OKAY  | ---- | ------- | - | ---------- |
|              678401 ns|              678406 ns|WR-DATA   | AFCD6CE8 |  4/ 4 | -- | CEFF0CFC |  OKAY  | ---- | ------- | - | ---------- |
|              678406 ns|              678451 ns|WR-NONSEQ | AFCD6CF0 | ----- |  4 | -------- |  ----  |INCR4 |    4    | 7 |           0|
|              678406 ns|              678451 ns|WR-DATA   | AFCD6CEC |  1/ 4 | -- | DA30DDDC |  OKAY  | ---- | ------- | - | ---------- |
|              678451 ns|              678461 ns|WR-DATA   | AFCD6CF0 |  2/ 4 | -- | F8D37C0E |  OKAY  | ---- | ------- | - | ---------- |
|              678461 ns|              678466 ns|WR-DATA   | AFCD6CF4 |  3/ 4 | -- | C5F649FE |  OKAY  | ---- | ------- | - | ---------- |
|              678466 ns|              678471 ns|WR-DATA   | AFCD6CF8 |  4/ 4 | -- | F7167AD9 |  OKAY  | ---- | ------- | - | ---------- |
|              678471 ns|              678511 ns|WR-NONSEQ | AFCD6D00 | ----- |  4 | -------- |  ----  |INCR4 |    4    | 4 |           0|
|              678471 ns|              678511 ns|WR-DATA   | AFCD6CFC |  1/ 4 | -- | A95790BD |  OKAY  | ---- | ------- | - | ---------- |
|              678511 ns|              678521 ns|WR-DATA   | AFCD6D00 |  2/ 4 | -- | 56C165E4 |  OKAY  | ---- | ------- | - | ---------- |
|              678521 ns|              678526 ns|WR-DATA   | AFCD6D04 |  3/ 4 | -- | D017D465 |  OKAY  | ---- | ------- | - | ---------- |
|              678526 ns|              678531 ns|WR-DATA   | AFCD6D08 |  4/ 4 | -- | 0309E059 |  OKAY  | ---- | ------- | - | ---------- |
|              678531 ns|              678571 ns|WR-NONSEQ | AFCD6D10 | ----- |  4 | -------- |  ----  |INCR4 |    4    | 7 |           0|
|              678531 ns|              678571 ns|WR-DATA   | AFCD6D0C |  1/ 4 | -- | 95F68FC8 |  OKAY  | ---- | ------- | - | ---------- |
|              678571 ns|              678581 ns|WR-DATA   | AFCD6D10 |  2/ 4 | -- | 2D7EC06D |  OKAY  | ---- | ------- | - | ---------- |
|              678581 ns|              678586 ns|WR-DATA   | AFCD6D14 |  3/ 4 | -- | A3B15300 |  OKAY  | ---- | ------- | - | ---------- |
|              678586 ns|              678591 ns|WR-DATA   | AFCD6D18 |  4/ 4 | -- | AFB3E37C |  OKAY  | ---- | ------- | - | ---------- |
|              678591 ns|              678631 ns|WR-NONSEQ | AFCD6D20 | ----- |  4 | -------- |  ----  |INCR4 |    4    | 4 |           0|
|              678591 ns|              678631 ns|WR-DATA   | AFCD6D1C |  1/ 4 | -- | 42C97680 |  OKAY  | ---- | ------- | - | ---------- |
|              678631 ns|              678641 ns|WR-DATA   | AFCD6D20 |  2/ 4 | -- | DE113F43 |  OKAY  | ---- | ------- | - | ---------- |
|              678641 ns|              678646 ns|WR-DATA   | AFCD6D24 |  3/ 4 | -- | D7CFBD3D |  OKAY  | ---- | ------- | - | ---------- |
|              678646 ns|              678651 ns|WR-DATA   | AFCD6D28 |  4/ 4 | -- | B784C62F |  OKAY  | ---- | ------- | - | ---------- |
|              678651 ns|              678691 ns|WR-NONSEQ | AFCD6D30 | ----- |  4 | -------- |  ----  |INCR4 |    4    | C |           0|
|              678651 ns|              678691 ns|WR-DATA   | AFCD6D2C |  1/ 4 | -- | A86CBDCE |  OKAY  | ---- | ------- | - | ---------- |
|              678691 ns|              678701 ns|WR-DATA   | AFCD6D30 |  2/ 4 | -- | 7953C12D |  OKAY  | ---- | ------- | - | ---------- |
|              678701 ns|              678706 ns|WR-DATA   | AFCD6D34 |  3/ 4 | -- | 98EB218A |  OKAY  | ---- | ------- | - | ---------- |
|              678706 ns|              678711 ns|WR-DATA   | AFCD6D38 |  4/ 4 | -- | C1EABAC3 |  OKAY  | ---- | ------- | - | ---------- |
|              678711 ns|              678756 ns|WR-NONSEQ | AFCD6D40 | ----- |  4 | -------- |  ----  |INCR4 |    4    | D |           0|
|              678711 ns|              678756 ns|WR-DATA   | AFCD6D3C |  1/ 4 | -- | B22CCA63 |  OKAY  | ---- | ------- | - | ---------- |
|              678756 ns|              678766 ns|WR-DATA   | AFCD6D40 |  2/ 4 | -- | 6B072DBA |  OKAY  | ---- | ------- | - | ---------- |
|              678766 ns|              678771 ns|WR-DATA   | AFCD6D44 |  3/ 4 | -- | 0A2D83B6 |  OKAY  | ---- | ------- | - | ---------- |
|              678771 ns|              678776 ns|WR-DATA   | AFCD6D48 |  4/ 4 | -- | 792E28EA |  OKAY  | ---- | ------- | - | ---------- |
|              678776 ns|              678821 ns|WR-NONSEQ | AFCD6D50 | ----- |  4 | -------- |  ----  |INCR4 |    4    | E |           0|
|              678776 ns|              678821 ns|WR-DATA   | AFCD6D4C |  1/ 4 | -- | 36866BAB |  OKAY  | ---- | ------- | - | ---------- |
|              678821 ns|              678831 ns|WR-DATA   | AFCD6D50 |  2/ 4 | -- | 02E41F0A |  OKAY  | ---- | ------- | - | ---------- |
|              678831 ns|              678836 ns|WR-DATA   | AFCD6D54 |  3/ 4 | -- | CF5D15B0 |  OKAY  | ---- | ------- | - | ---------- |
|              678836 ns|              678841 ns|WR-DATA   | AFCD6D58 |  4/ 4 | -- | 413C3265 |  OKAY  | ---- | ------- | - | ---------- |
|              678841 ns|              678886 ns|WR-NONSEQ | AFCD6D60 | ----- |  4 | -------- |  ----  |INCR4 |    4    | 0 |           0|
|              678841 ns|              678886 ns|WR-DATA   | AFCD6D5C |  1/ 4 | -- | F024F4A9 |  OKAY  | ---- | ------- | - | ---------- |
|              678886 ns|              678896 ns|WR-DATA   | AFCD6D60 |  2/ 4 | -- | AFE8F425 |  OKAY  | ---- | ------- | - | ---------- |
|              678896 ns|              678901 ns|WR-DATA   | AFCD6D64 |  3/ 4 | -- | B3D8C3FD |  OKAY  | ---- | ------- | - | ---------- |
|              678901 ns|              678906 ns|WR-DATA   | AFCD6D68 |  4/ 4 | -- | D5DFF127 |  OKAY  | ---- | ------- | - | ---------- |
|              678906 ns|              678946 ns|WR-NONSEQ | AFCD6D70 | ----- |  4 | -------- |  ----  |INCR4 |    4    | 7 |           0|
|              678906 ns|              678946 ns|WR-DATA   | AFCD6D6C |  1/ 4 | -- | BD1E6B38 |  OKAY  | ---- | ------- | - | ---------- |
|              678946 ns|              678956 ns|WR-DATA   | AFCD6D70 |  2/ 4 | -- | 19C3797A |  OKAY  | ---- | ------- | - | ---------- |
|              678956 ns|              678961 ns|WR-DATA   | AFCD6D74 |  3/ 4 | -- | E90D44F0 |  OKAY  | ---- | ------- | - | ---------- |
|              678961 ns|              678966 ns|WR-DATA   | AFCD6D78 |  4/ 4 | -- | B9FF1366 |  OKAY  | ---- | ------- | - | ---------- |
|              678966 ns|              679006 ns|WR-NONSEQ | AFCD6D80 | ----- |  4 | -------- |  ----  |INCR4 |    4    | 1 |           0|
|              678966 ns|              679006 ns|WR-DATA   | AFCD6D7C |  1/ 4 | -- | B5A3453E |  OKAY  | ---- | ------- | - | ---------- |
|              679006 ns|              679016 ns|WR-DATA   | AFCD6D80 |  2/ 4 | -- | 18DBD1AA |  OKAY  | ---- | ------- | - | ---------- |
|              679016 ns|              679021 ns|WR-DATA   | AFCD6D84 |  3/ 4 | -- | 5B61E983 |  OKAY  | ---- | ------- | - | ---------- |
|              679021 ns|              679026 ns|WR-DATA   | AFCD6D88 |  4/ 4 | -- | F32E217A |  OKAY  | ---- | ------- | - | ---------- |
|              679026 ns|              679066 ns|WR-NONSEQ | AFCD6D90 | ----- |  4 | -------- |  ----  |INCR4 |    4    | D |           0|
|              679026 ns|              679066 ns|WR-DATA   | AFCD6D8C |  1/ 4 | -- | AA6788A5 |  OKAY  | ---- | ------- | - | ---------- |
|              679066 ns|              679076 ns|WR-DATA   | AFCD6D90 |  2/ 4 | -- | A49BFD81 |  OKAY  | ---- | ------- | - | ---------- |
|              679076 ns|              679081 ns|WR-DATA   | AFCD6D94 |  3/ 4 | -- | 09720362 |  OKAY  | ---- | ------- | - | ---------- |
|              679081 ns|              679086 ns|WR-DATA   | AFCD6D98 |  4/ 4 | -- | 7147790F |  OKAY  | ---- | ------- | - | ---------- |
|              679086 ns|              679131 ns|WR-NONSEQ | AFCD6DA0 | ----- |  4 | -------- |  ----  |INCR4 |    4    | E |           0|
|              679086 ns|              679131 ns|WR-DATA   | AFCD6D9C |  1/ 4 | -- | B8ABADD1 |  OKAY  | ---- | ------- | - | ---------- |
|              679131 ns|              679141 ns|WR-DATA   | AFCD6DA0 |  2/ 4 | -- | 22F17244 |  OKAY  | ---- | ------- | - | ---------- |
|              679141 ns|              679146 ns|WR-DATA   | AFCD6DA4 |  3/ 4 | -- | 448A3B57 |  OKAY  | ---- | ------- | - | ---------- |
|              679146 ns|              679151 ns|WR-DATA   | AFCD6DA8 |  4/ 4 | -- | 528D20CE |  OKAY  | ---- | ------- | - | ---------- |
|              679151 ns|              679196 ns|WR-NONSEQ | AFCD6DB0 | ----- |  4 | -------- |  ----  |INCR4 |    4    | E |           0|
|              679151 ns|              679196 ns|WR-DATA   | AFCD6DAC |  1/ 4 | -- | 9195B4A2 |  OKAY  | ---- | ------- | - | ---------- |
|              679196 ns|              679206 ns|WR-DATA   | AFCD6DB0 |  2/ 4 | -- | 4E7008DF |  OKAY  | ---- | ------- | - | ---------- |
|              679206 ns|              679211 ns|WR-DATA   | AFCD6DB4 |  3/ 4 | -- | C2F275AA |  OKAY  | ---- | ------- | - | ---------- |
|              679211 ns|              679216 ns|WR-DATA   | AFCD6DB8 |  4/ 4 | -- | A6C75827 |  OKAY  | ---- | ------- | - | ---------- |
|              679216 ns|              679261 ns|WR-NONSEQ | AFCD6DC0 | ----- |  4 | -------- |  ----  |INCR4 |    4    | F |           0|
|              679216 ns|              679261 ns|WR-DATA   | AFCD6DBC |  1/ 4 | -- | B23C9C06 |  OKAY  | ---- | ------- | - | ---------- |
|              679261 ns|              679271 ns|WR-DATA   | AFCD6DC0 |  2/ 4 | -- | E395B601 |  OKAY  | ---- | ------- | - | ---------- |
|              679271 ns|              679276 ns|WR-DATA   | AFCD6DC4 |  3/ 4 | -- | 488440A6 |  OKAY  | ---- | ------- | - | ---------- |
|              679276 ns|              679281 ns|WR-DATA   | AFCD6DC8 |  4/ 4 | -- | 9A1C1DEF |  OKAY  | ---- | ------- | - | ---------- |
|              679281 ns|              679326 ns|WR-NONSEQ | AFCD6DD0 | ----- |  4 | -------- |  ----  |INCR4 |    4    | A |           0|
|              679281 ns|              679326 ns|WR-DATA   | AFCD6DCC |  1/ 4 | -- | 01B11AC4 |  OKAY  | ---- | ------- | - | ---------- |
|              679326 ns|              679336 ns|WR-DATA   | AFCD6DD0 |  2/ 4 | -- | B89F95CF |  OKAY  | ---- | ------- | - | ---------- |
|              679336 ns|              679341 ns|WR-DATA   | AFCD6DD4 |  3/ 4 | -- | B6C32B00 |  OKAY  | ---- | ------- | - | ---------- |
|              679341 ns|              679346 ns|WR-DATA   | AFCD6DD8 |  4/ 4 | -- | 701CAD5E |  OKAY  | ---- | ------- | - | ---------- |
|              679346 ns|              679391 ns|WR-NONSEQ | AFCD6DE0 | ----- |  4 | -------- |  ----  |INCR4 |    4    | B |           0|
|              679346 ns|              679391 ns|WR-DATA   | AFCD6DDC |  1/ 4 | -- | 92BCC385 |  OKAY  | ---- | ------- | - | ---------- |
|              679391 ns|              679401 ns|WR-DATA   | AFCD6DE0 |  2/ 4 | -- | EB756CF1 |  OKAY  | ---- | ------- | - | ---------- |
|              679401 ns|              679406 ns|WR-DATA   | AFCD6DE4 |  3/ 4 | -- | 5929B4FD |  OKAY  | ---- | ------- | - | ---------- |
|              679406 ns|              679411 ns|WR-DATA   | AFCD6DE8 |  4/ 4 | -- | 459ADB47 |  OKAY  | ---- | ------- | - | ---------- |
|              679411 ns|              679456 ns|WR-NONSEQ | AFCD6DF0 | ----- |  4 | -------- |  ----  |INCR4 |    4    | 9 |           0|
|              679411 ns|              679456 ns|WR-DATA   | AFCD6DEC |  1/ 4 | -- | 08EE5C6B |  OKAY  | ---- | ------- | - | ---------- |
|              679456 ns|              679466 ns|WR-DATA   | AFCD6DF0 |  2/ 4 | -- | 1F67AEBE |  OKAY  | ---- | ------- | - | ---------- |
|              679466 ns|              679471 ns|WR-DATA   | AFCD6DF4 |  3/ 4 | -- | C5D32F02 |  OKAY  | ---- | ------- | - | ---------- |
|              679471 ns|              679476 ns|WR-DATA   | AFCD6DF8 |  4/ 4 | -- | D2437C24 |  OKAY  | ---- | ------- | - | ---------- |
|              679476 ns|              679521 ns|WR-NONSEQ | AFCD6E00 | ----- |  4 | -------- |  ----  |INCR4 |    4    | E |           0|
|              679476 ns|              679521 ns|WR-DATA   | AFCD6DFC |  1/ 4 | -- | C0CAA36E |  OKAY  | ---- | ------- | - | ---------- |
|              679521 ns|              679531 ns|WR-DATA   | AFCD6E00 |  2/ 4 | -- | D0E77423 |  OKAY  | ---- | ------- | - | ---------- |
|              679531 ns|              679536 ns|WR-DATA   | AFCD6E04 |  3/ 4 | -- | 8A1BCBA8 |  OKAY  | ---- | ------- | - | ---------- |
|              679536 ns|              679541 ns|WR-DATA   | AFCD6E08 |  4/ 4 | -- | 7CBDFE7C |  OKAY  | ---- | ------- | - | ---------- |
|              679541 ns|              679586 ns|WR-NONSEQ | AFCD6E10 | ----- |  4 | -------- |  ----  |INCR4 |    4    | 6 |           0|
|              679541 ns|              679586 ns|WR-DATA   | AFCD6E0C |  1/ 4 | -- | D7E8C837 |  OKAY  | ---- | ------- | - | ---------- |
|              679586 ns|              679596 ns|WR-DATA   | AFCD6E10 |  2/ 4 | -- | 65F8D6F0 |  OKAY  | ---- | ------- | - | ---------- |
|              679596 ns|              679601 ns|WR-DATA   | AFCD6E14 |  3/ 4 | -- | 3D60CBFF |  OKAY  | ---- | ------- | - | ---------- |
|              679601 ns|              679606 ns|WR-DATA   | AFCD6E18 |  4/ 4 | -- | EA6FA026 |  OKAY  | ---- | ------- | - | ---------- |
|              679606 ns|              679646 ns|WR-NONSEQ | AFCD6E20 | ----- |  4 | -------- |  ----  |INCR4 |    4    | 0 |           0|
|              679606 ns|              679646 ns|WR-DATA   | AFCD6E1C |  1/ 4 | -- | F2C38361 |  OKAY  | ---- | ------- | - | ---------- |
|              679646 ns|              679656 ns|WR-DATA   | AFCD6E20 |  2/ 4 | -- | 73B529F4 |  OKAY  | ---- | ------- | - | ---------- |
|              679656 ns|              679661 ns|WR-DATA   | AFCD6E24 |  3/ 4 | -- | 7A50C97A |  OKAY  | ---- | ------- | - | ---------- |
|              679661 ns|              679666 ns|WR-DATA   | AFCD6E28 |  4/ 4 | -- | 41366BE8 |  OKAY  | ---- | ------- | - | ---------- |
|              679666 ns|              679706 ns|WR-NONSEQ | AFCD6E30 | ----- |  4 | -------- |  ----  |INCR4 |    4    | B |           0|
|              679666 ns|              679706 ns|WR-DATA   | AFCD6E2C |  1/ 4 | -- | 5FABFCC0 |  OKAY  | ---- | ------- | - | ---------- |
|              679706 ns|              679716 ns|WR-DATA   | AFCD6E30 |  2/ 4 | -- | 9407E482 |  OKAY  | ---- | ------- | - | ---------- |
|              679716 ns|              679721 ns|WR-DATA   | AFCD6E34 |  3/ 4 | -- | E3EFB84C |  OKAY  | ---- | ------- | - | ---------- |
|              679721 ns|              679726 ns|WR-DATA   | AFCD6E38 |  4/ 4 | -- | A6E89D19 |  OKAY  | ---- | ------- | - | ---------- |
|              679726 ns|              679771 ns|WR-NONSEQ | AFCD6E40 | ----- |  4 | -------- |  ----  |INCR4 |    4    | 8 |           0|
|              679726 ns|              679771 ns|WR-DATA   | AFCD6E3C |  1/ 4 | -- | 9B8D1775 |  OKAY  | ---- | ------- | - | ---------- |
|              679771 ns|              679781 ns|WR-DATA   | AFCD6E40 |  2/ 4 | -- | B2A82F6A |  OKAY  | ---- | ------- | - | ---------- |
|              679781 ns|              679786 ns|WR-DATA   | AFCD6E44 |  3/ 4 | -- | 0B0107C5 |  OKAY  | ---- | ------- | - | ---------- |
|              679786 ns|              679791 ns|WR-DATA   | AFCD6E48 |  4/ 4 | -- | 5AA210AC |  OKAY  | ---- | ------- | - | ---------- |
|              679791 ns|              679836 ns|WR-NONSEQ | AFCD6E50 | ----- |  4 | -------- |  ----  |INCR4 |    4    | C |           0|
|              679791 ns|              679836 ns|WR-DATA   | AFCD6E4C |  1/ 4 | -- | D39738F1 |  OKAY  | ---- | ------- | - | ---------- |
|              679836 ns|              679846 ns|WR-DATA   | AFCD6E50 |  2/ 4 | -- | D17B2869 |  OKAY  | ---- | ------- | - | ---------- |
|              679846 ns|              679851 ns|WR-DATA   | AFCD6E54 |  3/ 4 | -- | 80184461 |  OKAY  | ---- | ------- | - | ---------- |
|              679851 ns|              679856 ns|WR-DATA   | AFCD6E58 |  4/ 4 | -- | FA9FF1DC |  OKAY  | ---- | ------- | - | ---------- |
|              679856 ns|              679901 ns|WR-NONSEQ | AFCD6E60 | ----- |  4 | -------- |  ----  |INCR4 |    4    | E |           0|
|              679856 ns|              679901 ns|WR-DATA   | AFCD6E5C |  1/ 4 | -- | 0C5E0FA3 |  OKAY  | ---- | ------- | - | ---------- |
|              679901 ns|              679911 ns|WR-DATA   | AFCD6E60 |  2/ 4 | -- | FA8C8F82 |  OKAY  | ---- | ------- | - | ---------- |
|              679911 ns|              679916 ns|WR-DATA   | AFCD6E64 |  3/ 4 | -- | 40B69A65 |  OKAY  | ---- | ------- | - | ---------- |
|              679916 ns|              679921 ns|WR-DATA   | AFCD6E68 |  4/ 4 | -- | 4CAA75C9 |  OKAY  | ---- | ------- | - | ---------- |
|              679921 ns|              679966 ns|WR-NONSEQ | AFCD6E70 | ----- |  4 | -------- |  ----  |INCR4 |    4    | F |           0|
|              679921 ns|              679966 ns|WR-DATA   | AFCD6E6C |  1/ 4 | -- | 2CBA45A5 |  OKAY  | ---- | ------- | - | ---------- |
|              679966 ns|              679976 ns|WR-DATA   | AFCD6E70 |  2/ 4 | -- | C70206DC |  OKAY  | ---- | ------- | - | ---------- |
|              679976 ns|              679981 ns|WR-DATA   | AFCD6E74 |  3/ 4 | -- | 24E222EA |  OKAY  | ---- | ------- | - | ---------- |
|              679981 ns|              679986 ns|WR-DATA   | AFCD6E78 |  4/ 4 | -- | C28A8B2C |  OKAY  | ---- | ------- | - | ---------- |
|              679986 ns|              680031 ns|WR-NONSEQ | AFCD6E80 | ----- |  4 | -------- |  ----  |INCR4 |    4    | 3 |           0|
|              679986 ns|              680031 ns|WR-DATA   | AFCD6E7C |  1/ 4 | -- | 98CD25AD |  OKAY  | ---- | ------- | - | ---------- |
|              680031 ns|              680041 ns|WR-DATA   | AFCD6E80 |  2/ 4 | -- | 8EDB719F |  OKAY  | ---- | ------- | - | ---------- |
|              680041 ns|              680046 ns|WR-DATA   | AFCD6E84 |  3/ 4 | -- | BF891A97 |  OKAY  | ---- | ------- | - | ---------- |
|              680046 ns|              680051 ns|WR-DATA   | AFCD6E88 |  4/ 4 | -- | 2BC5F617 |  OKAY  | ---- | ------- | - | ---------- |
|              680051 ns|              680091 ns|WR-NONSEQ | AFCD6E90 | ----- |  4 | -------- |  ----  |INCR4 |    4    | 8 |           0|
|              680051 ns|              680091 ns|WR-DATA   | AFCD6E8C |  1/ 4 | -- | 3421B4A4 |  OKAY  | ---- | ------- | - | ---------- |
|              680091 ns|              680101 ns|WR-DATA   | AFCD6E90 |  2/ 4 | -- | A44819B2 |  OKAY  | ---- | ------- | - | ---------- |
|              680101 ns|              680106 ns|WR-DATA   | AFCD6E94 |  3/ 4 | -- | FB42649F |  OKAY  | ---- | ------- | - | ---------- |
|              680106 ns|              680111 ns|WR-DATA   | AFCD6E98 |  4/ 4 | -- | D780F191 |  OKAY  | ---- | ------- | - | ---------- |
|              680111 ns|              680156 ns|WR-NONSEQ | AFCD6EA0 | ----- |  4 | -------- |  ----  |INCR4 |    4    | 7 |           0|
|              680111 ns|              680156 ns|WR-DATA   | AFCD6E9C |  1/ 4 | -- | E10D31E4 |  OKAY  | ---- | ------- | - | ---------- |
|              680156 ns|              680166 ns|WR-DATA   | AFCD6EA0 |  2/ 4 | -- | C86FEA31 |  OKAY  | ---- | ------- | - | ---------- |
|              680166 ns|              680171 ns|WR-DATA   | AFCD6EA4 |  3/ 4 | -- | A160D4E8 |  OKAY  | ---- | ------- | - | ---------- |
|              680171 ns|              680176 ns|WR-DATA   | AFCD6EA8 |  4/ 4 | -- | 8E155B2F |  OKAY  | ---- | ------- | - | ---------- |
|              680176 ns|              680216 ns|WR-NONSEQ | AFCD6EB0 | ----- |  4 | -------- |  ----  |INCR4 |    4    | 5 |           0|
|              680176 ns|              680216 ns|WR-DATA   | AFCD6EAC |  1/ 4 | -- | D4CEA1AA |  OKAY  | ---- | ------- | - | ---------- |
|              680216 ns|              680226 ns|WR-DATA   | AFCD6EB0 |  2/ 4 | -- | 074799F8 |  OKAY  | ---- | ------- | - | ---------- |
|              680226 ns|              680231 ns|WR-DATA   | AFCD6EB4 |  3/ 4 | -- | F56B4335 |  OKAY  | ---- | ------- | - | ---------- |
|              680231 ns|              680236 ns|WR-DATA   | AFCD6EB8 |  4/ 4 | -- | DF747A77 |  OKAY  | ---- | ------- | - | ---------- |
|              680236 ns|              680276 ns|WR-NONSEQ | AFCD6EC0 | ----- |  4 | -------- |  ----  |INCR4 |    4    | 3 |           0|
|              680236 ns|              680276 ns|WR-DATA   | AFCD6EBC |  1/ 4 | -- | 392E1BFC |  OKAY  | ---- | ------- | - | ---------- |
|              680276 ns|              680286 ns|WR-DATA   | AFCD6EC0 |  2/ 4 | -- | 90F3ED95 |  OKAY  | ---- | ------- | - | ---------- |
|              680286 ns|              680291 ns|WR-DATA   | AFCD6EC4 |  3/ 4 | -- | 2051732E |  OKAY  | ---- | ------- | - | ---------- |
|              680291 ns|              680296 ns|WR-DATA   | AFCD6EC8 |  4/ 4 | -- | FFDC1EBE |  OKAY  | ---- | ------- | - | ---------- |
|              680296 ns|              680336 ns|WR-NONSEQ | AFCD6ED0 | ----- |  4 | -------- |  ----  |INCR4 |    4    | A |           0|
|              680296 ns|              680336 ns|WR-DATA   | AFCD6ECC |  1/ 4 | -- | DC648125 |  OKAY  | ---- | ------- | - | ---------- |
|              680336 ns|              680346 ns|WR-DATA   | AFCD6ED0 |  2/ 4 | -- | A23D2049 |  OKAY  | ---- | ------- | - | ---------- |
|              680346 ns|              680351 ns|WR-DATA   | AFCD6ED4 |  3/ 4 | -- | 985A3F0A |  OKAY  | ---- | ------- | - | ---------- |
|              680351 ns|              680356 ns|WR-DATA   | AFCD6ED8 |  4/ 4 | -- | A5932BE9 |  OKAY  | ---- | ------- | - | ---------- |
|              680356 ns|              680401 ns|WR-NONSEQ | AFCD6EE0 | ----- |  4 | -------- |  ----  |INCR4 |    4    | E |           0|
|              680356 ns|              680401 ns|WR-DATA   | AFCD6EDC |  1/ 4 | -- | 063ADBB8 |  OKAY  | ---- | ------- | - | ---------- |
|              680401 ns|              680411 ns|WR-DATA   | AFCD6EE0 |  2/ 4 | -- | 5A3D0981 |  OKAY  | ---- | ------- | - | ---------- |
|              680411 ns|              680416 ns|WR-DATA   | AFCD6EE4 |  3/ 4 | -- | 91A09C8F |  OKAY  | ---- | ------- | - | ---------- |
|              680416 ns|              680421 ns|WR-DATA   | AFCD6EE8 |  4/ 4 | -- | 8C8974ED |  OKAY  | ---- | ------- | - | ---------- |
|              680421 ns|              680466 ns|WR-NONSEQ | AFCD6EF0 | ----- |  4 | -------- |  ----  |INCR4 |    4    | 8 |           0|
|              680421 ns|              680466 ns|WR-DATA   | AFCD6EEC |  1/ 4 | -- | 96BAA361 |  OKAY  | ---- | ------- | - | ---------- |
|              680466 ns|              680476 ns|WR-DATA   | AFCD6EF0 |  2/ 4 | -- | 539D1A9D |  OKAY  | ---- | ------- | - | ---------- |
|              680476 ns|              680481 ns|WR-DATA   | AFCD6EF4 |  3/ 4 | -- | 9BAAD539 |  OKAY  | ---- | ------- | - | ---------- |
|              680481 ns|              680486 ns|WR-DATA   | AFCD6EF8 |  4/ 4 | -- | 8F600F44 |  OKAY  | ---- | ------- | - | ---------- |
|              680486 ns|              680531 ns|WR-NONSEQ | AFCD6F00 | ----- |  4 | -------- |  ----  |INCR4 |    4    | 5 |           0|
|              680486 ns|              680531 ns|WR-DATA   | AFCD6EFC |  1/ 4 | -- | 3E85BA23 |  OKAY  | ---- | ------- | - | ---------- |
|              680531 ns|              680541 ns|WR-DATA   | AFCD6F00 |  2/ 4 | -- | 697ACFE3 |  OKAY  | ---- | ------- | - | ---------- |
|              680541 ns|              680546 ns|WR-DATA   | AFCD6F04 |  3/ 4 | -- | 8FC0C557 |  OKAY  | ---- | ------- | - | ---------- |
|              680546 ns|              680551 ns|WR-DATA   | AFCD6F08 |  4/ 4 | -- | 1D0F41FA |  OKAY  | ---- | ------- | - | ---------- |
|              680551 ns|              680591 ns|WR-NONSEQ | AFCD6F10 | ----- |  4 | -------- |  ----  |INCR4 |    4    | 9 |           0|
|              680551 ns|              680591 ns|WR-DATA   | AFCD6F0C |  1/ 4 | -- | F5C96D48 |  OKAY  | ---- | ------- | - | ---------- |
|              680591 ns|              680601 ns|WR-DATA   | AFCD6F10 |  2/ 4 | -- | 55082857 |  OKAY  | ---- | ------- | - | ---------- |
|              680601 ns|              680606 ns|WR-DATA   | AFCD6F14 |  3/ 4 | -- | 025AEA2B |  OKAY  | ---- | ------- | - | ---------- |
|              680606 ns|              680611 ns|WR-DATA   | AFCD6F18 |  4/ 4 | -- | CCA8E776 |  OKAY  | ---- | ------- | - | ---------- |
|              680611 ns|              680656 ns|WR-NONSEQ | AFCD6F20 | ----- |  4 | -------- |  ----  |INCR4 |    4    | 1 |           0|
|              680611 ns|              680656 ns|WR-DATA   | AFCD6F1C |  1/ 4 | -- | 60B824D6 |  OKAY  | ---- | ------- | - | ---------- |
|              680656 ns|              680666 ns|WR-DATA   | AFCD6F20 |  2/ 4 | -- | 756B0B4E |  OKAY  | ---- | ------- | - | ---------- |
|              680666 ns|              680671 ns|WR-DATA   | AFCD6F24 |  3/ 4 | -- | 92DE61AE |  OKAY  | ---- | ------- | - | ---------- |
|              680671 ns|              680676 ns|WR-DATA   | AFCD6F28 |  4/ 4 | -- | 511ECDA3 |  OKAY  | ---- | ------- | - | ---------- |
|              680676 ns|              680716 ns|WR-NONSEQ | AFCD6F30 | ----- |  4 | -------- |  ----  |INCR4 |    4    | 9 |           0|
|              680676 ns|              680716 ns|WR-DATA   | AFCD6F2C |  1/ 4 | -- | 30159BE9 |  OKAY  | ---- | ------- | - | ---------- |
|              680716 ns|              680726 ns|WR-DATA   | AFCD6F30 |  2/ 4 | -- | 75090F0A |  OKAY  | ---- | ------- | - | ---------- |
|              680726 ns|              680731 ns|WR-DATA   | AFCD6F34 |  3/ 4 | -- | C087DADE |  OKAY  | ---- | ------- | - | ---------- |
|              680731 ns|              680736 ns|WR-DATA   | AFCD6F38 |  4/ 4 | -- | 31DEC7FC |  OKAY  | ---- | ------- | - | ---------- |
|              680736 ns|              680781 ns|WR-NONSEQ | AFCD6F40 | ----- |  4 | -------- |  ----  |INCR4 |    4    | 8 |           0|
|              680736 ns|              680781 ns|WR-DATA   | AFCD6F3C |  1/ 4 | -- | 4089CAB4 |  OKAY  | ---- | ------- | - | ---------- |
|              680781 ns|              680791 ns|WR-DATA   | AFCD6F40 |  2/ 4 | -- | 42D6E663 |  OKAY  | ---- | ------- | - | ---------- |
|              680791 ns|              680796 ns|WR-DATA   | AFCD6F44 |  3/ 4 | -- | AA31C369 |  OKAY  | ---- | ------- | - | ---------- |
|              680796 ns|              680801 ns|WR-DATA   | AFCD6F48 |  4/ 4 | -- | 1FB14590 |  OKAY  | ---- | ------- | - | ---------- |
|              680801 ns|              680846 ns|WR-NONSEQ | AFCD6F50 | ----- |  4 | -------- |  ----  |INCR4 |    4    | 9 |           0|
|              680801 ns|              680846 ns|WR-DATA   | AFCD6F4C |  1/ 4 | -- | 5A15ECD5 |  OKAY  | ---- | ------- | - | ---------- |
|              680846 ns|              680856 ns|WR-DATA   | AFCD6F50 |  2/ 4 | -- | 3968410D |  OKAY  | ---- | ------- | - | ---------- |
|              680856 ns|              680861 ns|WR-DATA   | AFCD6F54 |  3/ 4 | -- | 7A7D36A7 |  OKAY  | ---- | ------- | - | ---------- |
|              680861 ns|              680866 ns|WR-DATA   | AFCD6F58 |  4/ 4 | -- | 229F6AD6 |  OKAY  | ---- | ------- | - | ---------- |
|              680866 ns|              680911 ns|WR-NONSEQ | AFCD6F60 | ----- |  4 | -------- |  ----  |INCR4 |    4    | 8 |           0|
|              680866 ns|              680911 ns|WR-DATA   | AFCD6F5C |  1/ 4 | -- | 33AAA336 |  OKAY  | ---- | ------- | - | ---------- |
|              680911 ns|              680921 ns|WR-DATA   | AFCD6F60 |  2/ 4 | -- | CAF25D2B |  OKAY  | ---- | ------- | - | ---------- |
|              680921 ns|              680926 ns|WR-DATA   | AFCD6F64 |  3/ 4 | -- | 02D0BC16 |  OKAY  | ---- | ------- | - | ---------- |
|              680926 ns|              680931 ns|WR-DATA   | AFCD6F68 |  4/ 4 | -- | 3C48B1D8 |  OKAY  | ---- | ------- | - | ---------- |
|              680931 ns|              680976 ns|WR-NONSEQ | AFCD6F70 | ----- |  4 | -------- |  ----  |INCR4 |    4    | C |           0|
|              680931 ns|              680976 ns|WR-DATA   | AFCD6F6C |  1/ 4 | -- | A5964290 |  OKAY  | ---- | ------- | - | ---------- |
|              680976 ns|              680986 ns|WR-DATA   | AFCD6F70 |  2/ 4 | -- | F58DAD48 |  OKAY  | ---- | ------- | - | ---------- |
|              680986 ns|              680991 ns|WR-DATA   | AFCD6F74 |  3/ 4 | -- | B0C77B93 |  OKAY  | ---- | ------- | - | ---------- |
|              680991 ns|              680996 ns|WR-DATA   | AFCD6F78 |  4/ 4 | -- | E2F6372D |  OKAY  | ---- | ------- | - | ---------- |
|              680996 ns|              681041 ns|WR-NONSEQ | AFCD6F80 | ----- |  4 | -------- |  ----  |INCR4 |    4    | B |           0|
|              680996 ns|              681041 ns|WR-DATA   | AFCD6F7C |  1/ 4 | -- | 9BCDBBA4 |  OKAY  | ---- | ------- | - | ---------- |
|              681041 ns|              681051 ns|WR-DATA   | AFCD6F80 |  2/ 4 | -- | 4E583AB1 |  OKAY  | ---- | ------- | - | ---------- |
|              681051 ns|              681056 ns|WR-DATA   | AFCD6F84 |  3/ 4 | -- | 8988326C |  OKAY  | ---- | ------- | - | ---------- |
|              681056 ns|              681061 ns|WR-DATA   | AFCD6F88 |  4/ 4 | -- | E6188EEA |  OKAY  | ---- | ------- | - | ---------- |
|              681061 ns|              681106 ns|WR-NONSEQ | AFCD6F90 | ----- |  4 | -------- |  ----  |INCR4 |    4    | C |           0|
|              681061 ns|              681106 ns|WR-DATA   | AFCD6F8C |  1/ 4 | -- | 108F9E13 |  OKAY  | ---- | ------- | - | ---------- |
|              681106 ns|              681116 ns|WR-DATA   | AFCD6F90 |  2/ 4 | -- | C91C0494 |  OKAY  | ---- | ------- | - | ---------- |
|              681116 ns|              681121 ns|WR-DATA   | AFCD6F94 |  3/ 4 | -- | BB47C97F |  OKAY  | ---- | ------- | - | ---------- |
|              681121 ns|              681126 ns|WR-DATA   | AFCD6F98 |  4/ 4 | -- | 18334A94 |  OKAY  | ---- | ------- | - | ---------- |
|              681126 ns|              681171 ns|WR-NONSEQ | AFCD6FA0 | ----- |  4 | -------- |  ----  |INCR4 |    4    | 1 |           0|
|              681126 ns|              681171 ns|WR-DATA   | AFCD6F9C |  1/ 4 | -- | 5AC235B0 |  OKAY  | ---- | ------- | - | ---------- |
|              681171 ns|              681181 ns|WR-DATA   | AFCD6FA0 |  2/ 4 | -- | 1B62778C |  OKAY  | ---- | ------- | - | ---------- |
|              681181 ns|              681186 ns|WR-DATA   | AFCD6FA4 |  3/ 4 | -- | D46B4811 |  OKAY  | ---- | ------- | - | ---------- |
|              681186 ns|              681191 ns|WR-DATA   | AFCD6FA8 |  4/ 4 | -- | 78A11614 |  OKAY  | ---- | ------- | - | ---------- |
|              681191 ns|              681231 ns|WR-NONSEQ | AFCD6FB0 | ----- |  4 | -------- |  ----  |INCR4 |    4    | B |           0|
|              681191 ns|              681231 ns|WR-DATA   | AFCD6FAC |  1/ 4 | -- | 53C9F514 |  OKAY  | ---- | ------- | - | ---------- |
|              681231 ns|              681241 ns|WR-DATA   | AFCD6FB0 |  2/ 4 | -- | C63EDE16 |  OKAY  | ---- | ------- | - | ---------- |
|              681241 ns|              681246 ns|WR-DATA   | AFCD6FB4 |  3/ 4 | -- | C712EB9B |  OKAY  | ---- | ------- | - | ---------- |
|              681246 ns|              681251 ns|WR-DATA   | AFCD6FB8 |  4/ 4 | -- | 3E695572 |  OKAY  | ---- | ------- | - | ---------- |
|              681251 ns|              681296 ns|WR-NONSEQ | AFCD6FC0 | ----- |  4 | -------- |  ----  |INCR4 |    4    | 2 |           0|
|              681251 ns|              681296 ns|WR-DATA   | AFCD6FBC |  1/ 4 | -- | D4F8C3C8 |  OKAY  | ---- | ------- | - | ---------- |
|              681296 ns|              681306 ns|WR-DATA   | AFCD6FC0 |  2/ 4 | -- | 95BECF6E |  OKAY  | ---- | ------- | - | ---------- |
|              681306 ns|              681311 ns|WR-DATA   | AFCD6FC4 |  3/ 4 | -- | 84CCFA54 |  OKAY  | ---- | ------- | - | ---------- |
|              681311 ns|              681316 ns|WR-DATA   | AFCD6FC8 |  4/ 4 | -- | 82F5C63D |  OKAY  | ---- | ------- | - | ---------- |
|              681316 ns|              681356 ns|WR-NONSEQ | AFCD6FD0 | ----- |  4 | -------- |  ----  |INCR4 |    4    | 7 |           0|
|              681316 ns|              681356 ns|WR-DATA   | AFCD6FCC |  1/ 4 | -- | DC2969FF |  OKAY  | ---- | ------- | - | ---------- |
|              681356 ns|              681366 ns|WR-DATA   | AFCD6FD0 |  2/ 4 | -- | 4C7A100A |  OKAY  | ---- | ------- | - | ---------- |
|              681366 ns|              681371 ns|WR-DATA   | AFCD6FD4 |  3/ 4 | -- | 1869A223 |  OKAY  | ---- | ------- | - | ---------- |
|              681371 ns|              681376 ns|WR-DATA   | AFCD6FD8 |  4/ 4 | -- | 30C1D9F4 |  OKAY  | ---- | ------- | - | ---------- |
|              681376 ns|              681416 ns|WR-NONSEQ | AFCD6FE0 | ----- |  4 | -------- |  ----  |INCR4 |    4    | 3 |           0|
|              681376 ns|              681416 ns|WR-DATA   | AFCD6FDC |  1/ 4 | -- | 97F48D6E |  OKAY  | ---- | ------- | - | ---------- |
|              681416 ns|              681426 ns|WR-DATA   | AFCD6FE0 |  2/ 4 | -- | B6509448 |  OKAY  | ---- | ------- | - | ---------- |
|              681426 ns|              681431 ns|WR-DATA   | AFCD6FE4 |  3/ 4 | -- | 8EB0CB63 |  OKAY  | ---- | ------- | - | ---------- |
|              681431 ns|              681436 ns|WR-DATA   | AFCD6FE8 |  4/ 4 | -- | E381AF95 |  OKAY  | ---- | ------- | - | ---------- |
|              681436 ns|              681476 ns|WR-NONSEQ | AFCD6FF0 | ----- |  4 | -------- |  ----  |INCR4 |    4    | 7 |           0|
|              681436 ns|              681476 ns|WR-DATA   | AFCD6FEC |  1/ 4 | -- | 6D64A406 |  OKAY  | ---- | ------- | - | ---------- |
|              681476 ns|              681486 ns|WR-DATA   | AFCD6FF0 |  2/ 4 | -- | 26E84F8D |  OKAY  | ---- | ------- | - | ---------- |
|              681486 ns|              681491 ns|WR-DATA   | AFCD6FF4 |  3/ 4 | -- | 349883C9 |  OKAY  | ---- | ------- | - | ---------- |
|              681491 ns|              681496 ns|WR-DATA   | AFCD6FF8 |  4/ 4 | -- | 34637558 |  OKAY  | ---- | ------- | - | ---------- |
|              681496 ns|              681536 ns|WR-NONSEQ | AFCD7000 | ----- |  4 | -------- |  ----  |INCR4 |    4    | E |           0|
|              681496 ns|              681536 ns|WR-DATA   | AFCD6FFC |  1/ 4 | -- | 7C6B6E3E |  OKAY  | ---- | ------- | - | ---------- |
|              681536 ns|              681546 ns|WR-DATA   | AFCD7000 |  2/ 4 | -- | 2A1AA6DF |  OKAY  | ---- | ------- | - | ---------- |
|              681546 ns|              681551 ns|WR-DATA   | AFCD7004 |  3/ 4 | -- | B70F7AA8 |  OKAY  | ---- | ------- | - | ---------- |
|              681551 ns|              681556 ns|WR-DATA   | AFCD7008 |  4/ 4 | -- | 9C720F7E |  OKAY  | ---- | ------- | - | ---------- |
|              681556 ns|              681601 ns|WR-NONSEQ | AFCD7010 | ----- |  4 | -------- |  ----  |INCR4 |    4    | 7 |           0|
|              681556 ns|              681601 ns|WR-DATA   | AFCD700C |  1/ 4 | -- | 46B068C9 |  OKAY  | ---- | ------- | - | ---------- |
|              681601 ns|              681611 ns|WR-DATA   | AFCD7010 |  2/ 4 | -- | 2012AB87 |  OKAY  | ---- | ------- | - | ---------- |
|              681611 ns|              681616 ns|WR-DATA   | AFCD7014 |  3/ 4 | -- | 5B0CAE80 |  OKAY  | ---- | ------- | - | ---------- |
|              681616 ns|              681621 ns|WR-DATA   | AFCD7018 |  4/ 4 | -- | CDC97817 |  OKAY  | ---- | ------- | - | ---------- |
|              681621 ns|              681661 ns|WR-NONSEQ | AFCD7020 | ----- |  4 | -------- |  ----  |INCR4 |    4    | 1 |           0|
|              681621 ns|              681661 ns|WR-DATA   | AFCD701C |  1/ 4 | -- | 907D2E1B |  OKAY  | ---- | ------- | - | ---------- |
|              681661 ns|              681671 ns|WR-DATA   | AFCD7020 |  2/ 4 | -- | D6319A35 |  OKAY  | ---- | ------- | - | ---------- |
|              681671 ns|              681676 ns|WR-DATA   | AFCD7024 |  3/ 4 | -- | 228C1C56 |  OKAY  | ---- | ------- | - | ---------- |
|              681676 ns|              681681 ns|WR-DATA   | AFCD7028 |  4/ 4 | -- | BC6B7730 |  OKAY  | ---- | ------- | - | ---------- |
|              681681 ns|              681721 ns|WR-NONSEQ | AFCD7030 | ----- |  4 | -------- |  ----  |INCR4 |    4    | 0 |           0|
|              681681 ns|              681721 ns|WR-DATA   | AFCD702C |  1/ 4 | -- | 85418164 |  OKAY  | ---- | ------- | - | ---------- |
|              681721 ns|              681731 ns|WR-DATA   | AFCD7030 |  2/ 4 | -- | 047BB263 |  OKAY  | ---- | ------- | - | ---------- |
|              681731 ns|              681736 ns|WR-DATA   | AFCD7034 |  3/ 4 | -- | F2381603 |  OKAY  | ---- | ------- | - | ---------- |
|              681736 ns|              681741 ns|WR-DATA   | AFCD7038 |  4/ 4 | -- | F9FAB69F |  OKAY  | ---- | ------- | - | ---------- |
|              681741 ns|              681781 ns|WR-NONSEQ | AFCD7040 | ----- |  4 | -------- |  ----  |INCR4 |    4    | B |           0|
|              681741 ns|              681781 ns|WR-DATA   | AFCD703C |  1/ 4 | -- | 1BC947DF |  OKAY  | ---- | ------- | - | ---------- |
|              681781 ns|              681791 ns|WR-DATA   | AFCD7040 |  2/ 4 | -- | 8C30C87F |  OKAY  | ---- | ------- | - | ---------- |
|              681791 ns|              681796 ns|WR-DATA   | AFCD7044 |  3/ 4 | -- | 9B1F71AA |  OKAY  | ---- | ------- | - | ---------- |
|              681796 ns|              681801 ns|WR-DATA   | AFCD7048 |  4/ 4 | -- | 05B9B1A4 |  OKAY  | ---- | ------- | - | ---------- |
|              681801 ns|              681846 ns|WR-NONSEQ | AFCD7050 | ----- |  4 | -------- |  ----  |INCR4 |    4    | D |           0|
|              681801 ns|              681846 ns|WR-DATA   | AFCD704C |  1/ 4 | -- | CED566B4 |  OKAY  | ---- | ------- | - | ---------- |
|              681846 ns|              681856 ns|WR-DATA   | AFCD7050 |  2/ 4 | -- | 75EFD407 |  OKAY  | ---- | ------- | - | ---------- |
|              681856 ns|              681861 ns|WR-DATA   | AFCD7054 |  3/ 4 | -- | 7A1F07A5 |  OKAY  | ---- | ------- | - | ---------- |
|              681861 ns|              681866 ns|WR-DATA   | AFCD7058 |  4/ 4 | -- | F36276E0 |  OKAY  | ---- | ------- | - | ---------- |
|              681866 ns|              681911 ns|WR-NONSEQ | AFCD7060 | ----- |  4 | -------- |  ----  |INCR4 |    4    | C |           0|
|              681866 ns|              681911 ns|WR-DATA   | AFCD705C |  1/ 4 | -- | E0E7848C |  OKAY  | ---- | ------- | - | ---------- |
|              681911 ns|              681921 ns|WR-DATA   | AFCD7060 |  2/ 4 | -- | B2AD6DA0 |  OKAY  | ---- | ------- | - | ---------- |
|              681921 ns|              681926 ns|WR-DATA   | AFCD7064 |  3/ 4 | -- | 7AD37CA9 |  OKAY  | ---- | ------- | - | ---------- |
|              681926 ns|              681931 ns|WR-DATA   | AFCD7068 |  4/ 4 | -- | 974D8D54 |  OKAY  | ---- | ------- | - | ---------- |
|              681931 ns|              681976 ns|WR-NONSEQ | AFCD7070 | ----- |  4 | -------- |  ----  |INCR4 |    4    | 2 |           0|
|              681931 ns|              681976 ns|WR-DATA   | AFCD706C |  1/ 4 | -- | C1110903 |  OKAY  | ---- | ------- | - | ---------- |
|              681976 ns|              681986 ns|WR-DATA   | AFCD7070 |  2/ 4 | -- | 1417AFFB |  OKAY  | ---- | ------- | - | ---------- |
|              681986 ns|              681991 ns|WR-DATA   | AFCD7074 |  3/ 4 | -- | C71D54CF |  OKAY  | ---- | ------- | - | ---------- |
|              681991 ns|              681996 ns|WR-DATA   | AFCD7078 |  4/ 4 | -- | DFCEE805 |  OKAY  | ---- | ------- | - | ---------- |
|              681996 ns|              682036 ns|WR-NONSEQ | AFCD7080 | ----- |  4 | -------- |  ----  |INCR4 |    4    | B |           0|
|              681996 ns|              682036 ns|WR-DATA   | AFCD707C |  1/ 4 | -- | 94F09095 |  OKAY  | ---- | ------- | - | ---------- |
|              682036 ns|              682046 ns|WR-DATA   | AFCD7080 |  2/ 4 | -- | E3AE7987 |  OKAY  | ---- | ------- | - | ---------- |
|              682046 ns|              682051 ns|WR-DATA   | AFCD7084 |  3/ 4 | -- | B74C2EDF |  OKAY  | ---- | ------- | - | ---------- |
|              682051 ns|              682056 ns|WR-DATA   | AFCD7088 |  4/ 4 | -- | A6B4538F |  OKAY  | ---- | ------- | - | ---------- |
|              682056 ns|              682101 ns|WR-NONSEQ | AFCD7090 | ----- |  4 | -------- |  ----  |INCR4 |    4    | 4 |           0|
|              682056 ns|              682101 ns|WR-DATA   | AFCD708C |  1/ 4 | -- | 3E20197F |  OKAY  | ---- | ------- | - | ---------- |
|              682101 ns|              682111 ns|WR-DATA   | AFCD7090 |  2/ 4 | -- | 723A3D48 |  OKAY  | ---- | ------- | - | ---------- |
|              682111 ns|              682116 ns|WR-DATA   | AFCD7094 |  3/ 4 | -- | 826F6C42 |  OKAY  | ---- | ------- | - | ---------- |
|              682116 ns|              682121 ns|WR-DATA   | AFCD7098 |  4/ 4 | -- | 3CED13F1 |  OKAY  | ---- | ------- | - | ---------- |
|              682121 ns|              682161 ns|WR-NONSEQ | AFCD70A0 | ----- |  4 | -------- |  ----  |INCR4 |    4    | 8 |           0|
|              682121 ns|              682161 ns|WR-DATA   | AFCD709C |  1/ 4 | -- | 338374F1 |  OKAY  | ---- | ------- | - | ---------- |
|              682161 ns|              682171 ns|WR-DATA   | AFCD70A0 |  2/ 4 | -- | 1216A98C |  OKAY  | ---- | ------- | - | ---------- |
|              682171 ns|              682176 ns|WR-DATA   | AFCD70A4 |  3/ 4 | -- | 7F5EA534 |  OKAY  | ---- | ------- | - | ---------- |
|              682176 ns|              682181 ns|WR-DATA   | AFCD70A8 |  4/ 4 | -- | 77549510 |  OKAY  | ---- | ------- | - | ---------- |
|              682181 ns|              682226 ns|WR-NONSEQ | AFCD70B0 | ----- |  4 | -------- |  ----  |INCR4 |    4    | 8 |           0|
|              682181 ns|              682226 ns|WR-DATA   | AFCD70AC |  1/ 4 | -- | 0DB7C5FC |  OKAY  | ---- | ------- | - | ---------- |
|              682226 ns|              682236 ns|WR-DATA   | AFCD70B0 |  2/ 4 | -- | C3F9B8B6 |  OKAY  | ---- | ------- | - | ---------- |
|              682236 ns|              682241 ns|WR-DATA   | AFCD70B4 |  3/ 4 | -- | 43E1A02D |  OKAY  | ---- | ------- | - | ---------- |
|              682241 ns|              682246 ns|WR-DATA   | AFCD70B8 |  4/ 4 | -- | 6BFD0F93 |  OKAY  | ---- | ------- | - | ---------- |
|              682246 ns|              682291 ns|WR-NONSEQ | AFCD70C0 | ----- |  4 | -------- |  ----  |INCR4 |    4    | D |           0|
|              682246 ns|              682291 ns|WR-DATA   | AFCD70BC |  1/ 4 | -- | 7A6173EF |  OKAY  | ---- | ------- | - | ---------- |
|              682291 ns|              682301 ns|WR-DATA   | AFCD70C0 |  2/ 4 | -- | 75C8FF36 |  OKAY  | ---- | ------- | - | ---------- |
|              682301 ns|              682306 ns|WR-DATA   | AFCD70C4 |  3/ 4 | -- | 015221F9 |  OKAY  | ---- | ------- | - | ---------- |
|              682306 ns|              682311 ns|WR-DATA   | AFCD70C8 |  4/ 4 | -- | 22C06288 |  OKAY  | ---- | ------- | - | ---------- |
|              682311 ns|              682356 ns|WR-NONSEQ | AFCD70D0 | ----- |  4 | -------- |  ----  |INCR4 |    4    | E |           0|
|              682311 ns|              682356 ns|WR-DATA   | AFCD70CC |  1/ 4 | -- | 0B2F0830 |  OKAY  | ---- | ------- | - | ---------- |
|              682356 ns|              682366 ns|WR-DATA   | AFCD70D0 |  2/ 4 | -- | 913394AA |  OKAY  | ---- | ------- | - | ---------- |
|              682366 ns|              682371 ns|WR-DATA   | AFCD70D4 |  3/ 4 | -- | F8BBBE2C |  OKAY  | ---- | ------- | - | ---------- |
|              682371 ns|              682376 ns|WR-DATA   | AFCD70D8 |  4/ 4 | -- | CDB2C4CA |  OKAY  | ---- | ------- | - | ---------- |
|              682376 ns|              682421 ns|WR-NONSEQ | AFCD70E0 | ----- |  4 | -------- |  ----  |INCR4 |    4    | 3 |           0|
|              682376 ns|              682421 ns|WR-DATA   | AFCD70DC |  1/ 4 | -- | E239B29F |  OKAY  | ---- | ------- | - | ---------- |
|              682421 ns|              682431 ns|WR-DATA   | AFCD70E0 |  2/ 4 | -- | 4BB519D9 |  OKAY  | ---- | ------- | - | ---------- |
|              682431 ns|              682436 ns|WR-DATA   | AFCD70E4 |  3/ 4 | -- | 9C631922 |  OKAY  | ---- | ------- | - | ---------- |
|              682436 ns|              682441 ns|WR-DATA   | AFCD70E8 |  4/ 4 | -- | 51DFEEC3 |  OKAY  | ---- | ------- | - | ---------- |
|              682441 ns|              682481 ns|WR-NONSEQ | AFCD70F0 | ----- |  4 | -------- |  ----  |INCR4 |    4    | E |           0|
|              682441 ns|              682481 ns|WR-DATA   | AFCD70EC |  1/ 4 | -- | 5A5DE869 |  OKAY  | ---- | ------- | - | ---------- |
|              682481 ns|              682491 ns|WR-DATA   | AFCD70F0 |  2/ 4 | -- | 5E2A9ABE |  OKAY  | ---- | ------- | - | ---------- |
|              682491 ns|              682496 ns|WR-DATA   | AFCD70F4 |  3/ 4 | -- | A3F65D77 |  OKAY  | ---- | ------- | - | ---------- |
|              682496 ns|              682501 ns|WR-DATA   | AFCD70F8 |  4/ 4 | -- | ED295101 |  OKAY  | ---- | ------- | - | ---------- |
|              682501 ns|              682546 ns|WR-NONSEQ | AFCD7100 | ----- |  4 | -------- |  ----  |INCR4 |    4    | F |           0|
|              682501 ns|              682546 ns|WR-DATA   | AFCD70FC |  1/ 4 | -- | 7E2615D1 |  OKAY  | ---- | ------- | - | ---------- |
|              682546 ns|              682556 ns|WR-DATA   | AFCD7100 |  2/ 4 | -- | D6B088E2 |  OKAY  | ---- | ------- | - | ---------- |
|              682556 ns|              682561 ns|WR-DATA   | AFCD7104 |  3/ 4 | -- | C224B808 |  OKAY  | ---- | ------- | - | ---------- |
|              682561 ns|              682566 ns|WR-DATA   | AFCD7108 |  4/ 4 | -- | 14DDF6B8 |  OKAY  | ---- | ------- | - | ---------- |
|              682566 ns|              682611 ns|WR-NONSEQ | AFCD7110 | ----- |  4 | -------- |  ----  |INCR4 |    4    | E |           0|
|              682566 ns|              682611 ns|WR-DATA   | AFCD710C |  1/ 4 | -- | 7E61F54E |  OKAY  | ---- | ------- | - | ---------- |
|              682611 ns|              682621 ns|WR-DATA   | AFCD7110 |  2/ 4 | -- | B21E0F6D |  OKAY  | ---- | ------- | - | ---------- |
|              682621 ns|              682626 ns|WR-DATA   | AFCD7114 |  3/ 4 | -- | 1ADC1BC6 |  OKAY  | ---- | ------- | - | ---------- |
|              682626 ns|              682631 ns|WR-DATA   | AFCD7118 |  4/ 4 | -- | F8749501 |  OKAY  | ---- | ------- | - | ---------- |
|              682631 ns|              682676 ns|WR-NONSEQ | AFCD7120 | ----- |  4 | -------- |  ----  |INCR4 |    4    | 6 |           0|
|              682631 ns|              682676 ns|WR-DATA   | AFCD711C |  1/ 4 | -- | 63E1EE62 |  OKAY  | ---- | ------- | - | ---------- |
|              682676 ns|              682686 ns|WR-DATA   | AFCD7120 |  2/ 4 | -- | EF75C8C8 |  OKAY  | ---- | ------- | - | ---------- |
|              682686 ns|              682691 ns|WR-DATA   | AFCD7124 |  3/ 4 | -- | C3A10D7A |  OKAY  | ---- | ------- | - | ---------- |
|              682691 ns|              682696 ns|WR-DATA   | AFCD7128 |  4/ 4 | -- | 4D80246A |  OKAY  | ---- | ------- | - | ---------- |
|              682696 ns|              682736 ns|WR-NONSEQ | AFCD7130 | ----- |  4 | -------- |  ----  |INCR4 |    4    | 4 |           0|
|              682696 ns|              682736 ns|WR-DATA   | AFCD712C |  1/ 4 | -- | 7F964F10 |  OKAY  | ---- | ------- | - | ---------- |
|              682736 ns|              682746 ns|WR-DATA   | AFCD7130 |  2/ 4 | -- | A6D14D20 |  OKAY  | ---- | ------- | - | ---------- |
|              682746 ns|              682751 ns|WR-DATA   | AFCD7134 |  3/ 4 | -- | E4A30D06 |  OKAY  | ---- | ------- | - | ---------- |
|              682751 ns|              682756 ns|WR-DATA   | AFCD7138 |  4/ 4 | -- | 1A0FB68B |  OKAY  | ---- | ------- | - | ---------- |
|              682756 ns|              682796 ns|WR-NONSEQ | AFCD7140 | ----- |  4 | -------- |  ----  |INCR4 |    4    | E |           0|
|              682756 ns|              682796 ns|WR-DATA   | AFCD713C |  1/ 4 | -- | D13FB557 |  OKAY  | ---- | ------- | - | ---------- |
|              682796 ns|              682806 ns|WR-DATA   | AFCD7140 |  2/ 4 | -- | B0A06D45 |  OKAY  | ---- | ------- | - | ---------- |
|              682806 ns|              682811 ns|WR-DATA   | AFCD7144 |  3/ 4 | -- | 32B57ABD |  OKAY  | ---- | ------- | - | ---------- |
|              682811 ns|              682816 ns|WR-DATA   | AFCD7148 |  4/ 4 | -- | 4EC7B328 |  OKAY  | ---- | ------- | - | ---------- |
|              682816 ns|              682861 ns|WR-NONSEQ | AFCD7150 | ----- |  4 | -------- |  ----  |INCR4 |    4    | 0 |           0|
|              682816 ns|              682861 ns|WR-DATA   | AFCD714C |  1/ 4 | -- | 70F62756 |  OKAY  | ---- | ------- | - | ---------- |
|              682861 ns|              682871 ns|WR-DATA   | AFCD7150 |  2/ 4 | -- | 4CDDA60D |  OKAY  | ---- | ------- | - | ---------- |
|              682871 ns|              682876 ns|WR-DATA   | AFCD7154 |  3/ 4 | -- | 08A1A8DF |  OKAY  | ---- | ------- | - | ---------- |
|              682876 ns|              682881 ns|WR-DATA   | AFCD7158 |  4/ 4 | -- | 61098FA6 |  OKAY  | ---- | ------- | - | ---------- |
|              682881 ns|              682921 ns|WR-NONSEQ | AFCD7160 | ----- |  4 | -------- |  ----  |INCR4 |    4    | 9 |           0|
|              682881 ns|              682921 ns|WR-DATA   | AFCD715C |  1/ 4 | -- | 49CD87D0 |  OKAY  | ---- | ------- | - | ---------- |
|              682921 ns|              682931 ns|WR-DATA   | AFCD7160 |  2/ 4 | -- | 8BD90820 |  OKAY  | ---- | ------- | - | ---------- |
|              682931 ns|              682936 ns|WR-DATA   | AFCD7164 |  3/ 4 | -- | A8E939B4 |  OKAY  | ---- | ------- | - | ---------- |
|              682936 ns|              682941 ns|WR-DATA   | AFCD7168 |  4/ 4 | -- | 1026CAE0 |  OKAY  | ---- | ------- | - | ---------- |
|              682941 ns|              682986 ns|WR-NONSEQ | AFCD7170 | ----- |  4 | -------- |  ----  |INCR4 |    4    | 0 |           0|
|              682941 ns|              682986 ns|WR-DATA   | AFCD716C |  1/ 4 | -- | 67EFE668 |  OKAY  | ---- | ------- | - | ---------- |
|              682986 ns|              682996 ns|WR-DATA   | AFCD7170 |  2/ 4 | -- | 1CF691DD |  OKAY  | ---- | ------- | - | ---------- |
|              682996 ns|              683001 ns|WR-DATA   | AFCD7174 |  3/ 4 | -- | 2CE1E727 |  OKAY  | ---- | ------- | - | ---------- |
|              683001 ns|              683006 ns|WR-DATA   | AFCD7178 |  4/ 4 | -- | 9B230848 |  OKAY  | ---- | ------- | - | ---------- |
|              683006 ns|              683046 ns|WR-NONSEQ | AFCD7180 | ----- |  4 | -------- |  ----  |INCR4 |    4    | E |           0|
|              683006 ns|              683046 ns|WR-DATA   | AFCD717C |  1/ 4 | -- | E1397257 |  OKAY  | ---- | ------- | - | ---------- |
|              683046 ns|              683056 ns|WR-DATA   | AFCD7180 |  2/ 4 | -- | DE7A09B7 |  OKAY  | ---- | ------- | - | ---------- |
|              683056 ns|              683061 ns|WR-DATA   | AFCD7184 |  3/ 4 | -- | E9F7CF4F |  OKAY  | ---- | ------- | - | ---------- |
|              683061 ns|              683066 ns|WR-DATA   | AFCD7188 |  4/ 4 | -- | F24BACA1 |  OKAY  | ---- | ------- | - | ---------- |
|              683066 ns|              683111 ns|WR-NONSEQ | AFCD7190 | ----- |  4 | -------- |  ----  |INCR4 |    4    | 5 |           0|
|              683066 ns|              683111 ns|WR-DATA   | AFCD718C |  1/ 4 | -- | 7CD9D082 |  OKAY  | ---- | ------- | - | ---------- |
|              683111 ns|              683121 ns|WR-DATA   | AFCD7190 |  2/ 4 | -- | CEABC2C1 |  OKAY  | ---- | ------- | - | ---------- |
|              683121 ns|              683126 ns|WR-DATA   | AFCD7194 |  3/ 4 | -- | 920037A5 |  OKAY  | ---- | ------- | - | ---------- |
|              683126 ns|              683131 ns|WR-DATA   | AFCD7198 |  4/ 4 | -- | A980E0CE |  OKAY  | ---- | ------- | - | ---------- |
|              683131 ns|              683171 ns|WR-NONSEQ | AFCD71A0 | ----- |  4 | -------- |  ----  |INCR4 |    4    | A |           0|
|              683131 ns|              683171 ns|WR-DATA   | AFCD719C |  1/ 4 | -- | 0CDB9051 |  OKAY  | ---- | ------- | - | ---------- |
|              683171 ns|              683181 ns|WR-DATA   | AFCD71A0 |  2/ 4 | -- | 9FD6F9DD |  OKAY  | ---- | ------- | - | ---------- |
|              683181 ns|              683186 ns|WR-DATA   | AFCD71A4 |  3/ 4 | -- | 3270352E |  OKAY  | ---- | ------- | - | ---------- |
|              683186 ns|              683191 ns|WR-DATA   | AFCD71A8 |  4/ 4 | -- | F3D78FE9 |  OKAY  | ---- | ------- | - | ---------- |
|              683191 ns|              683236 ns|WR-NONSEQ | AFCD71B0 | ----- |  4 | -------- |  ----  |INCR4 |    4    | 0 |           0|
|              683191 ns|              683236 ns|WR-DATA   | AFCD71AC |  1/ 4 | -- | 23055521 |  OKAY  | ---- | ------- | - | ---------- |
|              683236 ns|              683246 ns|WR-DATA   | AFCD71B0 |  2/ 4 | -- | 117CDB4C |  OKAY  | ---- | ------- | - | ---------- |
|              683246 ns|              683251 ns|WR-DATA   | AFCD71B4 |  3/ 4 | -- | 5BCBBBFD |  OKAY  | ---- | ------- | - | ---------- |
|              683251 ns|              683256 ns|WR-DATA   | AFCD71B8 |  4/ 4 | -- | 385AAC85 |  OKAY  | ---- | ------- | - | ---------- |
|              683256 ns|              683296 ns|WR-NONSEQ | AFCD71C0 | ----- |  4 | -------- |  ----  |INCR4 |    4    | E |           0|
|              683256 ns|              683296 ns|WR-DATA   | AFCD71BC |  1/ 4 | -- | 64235D8C |  OKAY  | ---- | ------- | - | ---------- |
|              683296 ns|              683306 ns|WR-DATA   | AFCD71C0 |  2/ 4 | -- | B4AACC9C |  OKAY  | ---- | ------- | - | ---------- |
|              683306 ns|              683311 ns|WR-DATA   | AFCD71C4 |  3/ 4 | -- | 1DD0E685 |  OKAY  | ---- | ------- | - | ---------- |
|              683311 ns|              683316 ns|WR-DATA   | AFCD71C8 |  4/ 4 | -- | 2C72B265 |  OKAY  | ---- | ------- | - | ---------- |
|              683316 ns|              683361 ns|WR-NONSEQ | AFCD71D0 | ----- |  4 | -------- |  ----  |INCR4 |    4    | 8 |           0|
|              683316 ns|              683361 ns|WR-DATA   | AFCD71CC |  1/ 4 | -- | 6F9F466E |  OKAY  | ---- | ------- | - | ---------- |
|              683361 ns|              683371 ns|WR-DATA   | AFCD71D0 |  2/ 4 | -- | 72975F0F |  OKAY  | ---- | ------- | - | ---------- |
|              683371 ns|              683376 ns|WR-DATA   | AFCD71D4 |  3/ 4 | -- | 23006A60 |  OKAY  | ---- | ------- | - | ---------- |
|              683376 ns|              683381 ns|WR-DATA   | AFCD71D8 |  4/ 4 | -- | 11C34736 |  OKAY  | ---- | ------- | - | ---------- |
|              683381 ns|              683426 ns|WR-NONSEQ | AFCD71E0 | ----- |  4 | -------- |  ----  |INCR4 |    4    | D |           0|
|              683381 ns|              683426 ns|WR-DATA   | AFCD71DC |  1/ 4 | -- | 94CC15E9 |  OKAY  | ---- | ------- | - | ---------- |
|              683426 ns|              683436 ns|WR-DATA   | AFCD71E0 |  2/ 4 | -- | 4A2CA525 |  OKAY  | ---- | ------- | - | ---------- |
|              683436 ns|              683441 ns|WR-DATA   | AFCD71E4 |  3/ 4 | -- | C1FEEE96 |  OKAY  | ---- | ------- | - | ---------- |
|              683441 ns|              683446 ns|WR-DATA   | AFCD71E8 |  4/ 4 | -- | B7BC6534 |  OKAY  | ---- | ------- | - | ---------- |
|              683446 ns|              683491 ns|WR-NONSEQ | AFCD71F0 | ----- |  4 | -------- |  ----  |INCR4 |    4    | C |           0|
|              683446 ns|              683491 ns|WR-DATA   | AFCD71EC |  1/ 4 | -- | 4C9A3B12 |  OKAY  | ---- | ------- | - | ---------- |
|              683491 ns|              683501 ns|WR-DATA   | AFCD71F0 |  2/ 4 | -- | DF40145F |  OKAY  | ---- | ------- | - | ---------- |
|              683501 ns|              683506 ns|WR-DATA   | AFCD71F4 |  3/ 4 | -- | 1A00E7ED |  OKAY  | ---- | ------- | - | ---------- |
|              683506 ns|              683511 ns|WR-DATA   | AFCD71F8 |  4/ 4 | -- | 6CFC55B3 |  OKAY  | ---- | ------- | - | ---------- |
|              683511 ns|              683556 ns|WR-NONSEQ | AFCD7200 | ----- |  4 | -------- |  ----  |INCR4 |    4    | 6 |           0|
|              683511 ns|              683556 ns|WR-DATA   | AFCD71FC |  1/ 4 | -- | C63C5D6A |  OKAY  | ---- | ------- | - | ---------- |
|              683556 ns|              683566 ns|WR-DATA   | AFCD7200 |  2/ 4 | -- | 1323BBA7 |  OKAY  | ---- | ------- | - | ---------- |
|              683566 ns|              683571 ns|WR-DATA   | AFCD7204 |  3/ 4 | -- | C45F6A84 |  OKAY  | ---- | ------- | - | ---------- |
|              683571 ns|              683576 ns|WR-DATA   | AFCD7208 |  4/ 4 | -- | 24A41527 |  OKAY  | ---- | ------- | - | ---------- |
|              683576 ns|              683616 ns|WR-NONSEQ | AFCD7210 | ----- |  4 | -------- |  ----  |INCR4 |    4    | E |           0|
|              683576 ns|              683616 ns|WR-DATA   | AFCD720C |  1/ 4 | -- | CFA3B2BD |  OKAY  | ---- | ------- | - | ---------- |
|              683616 ns|              683626 ns|WR-DATA   | AFCD7210 |  2/ 4 | -- | 7FF5FE31 |  OKAY  | ---- | ------- | - | ---------- |
|              683626 ns|              683631 ns|WR-DATA   | AFCD7214 |  3/ 4 | -- | 9E8D43A3 |  OKAY  | ---- | ------- | - | ---------- |
|              683631 ns|              683636 ns|WR-DATA   | AFCD7218 |  4/ 4 | -- | 23F2A721 |  OKAY  | ---- | ------- | - | ---------- |
|              683636 ns|              683681 ns|WR-NONSEQ | AFCD7220 | ----- |  4 | -------- |  ----  |INCR4 |    4    | E |           0|
|              683636 ns|              683681 ns|WR-DATA   | AFCD721C |  1/ 4 | -- | 57AB2C54 |  OKAY  | ---- | ------- | - | ---------- |
|              683681 ns|              683691 ns|WR-DATA   | AFCD7220 |  2/ 4 | -- | 1FC5E18D |  OKAY  | ---- | ------- | - | ---------- |
|              683691 ns|              683696 ns|WR-DATA   | AFCD7224 |  3/ 4 | -- | FD82E6CF |  OKAY  | ---- | ------- | - | ---------- |
|              683696 ns|              683701 ns|WR-DATA   | AFCD7228 |  4/ 4 | -- | 25397BA2 |  OKAY  | ---- | ------- | - | ---------- |
|              683701 ns|              683746 ns|WR-NONSEQ | AFCD7230 | ----- |  4 | -------- |  ----  |INCR4 |    4    | 9 |           0|
|              683701 ns|              683746 ns|WR-DATA   | AFCD722C |  1/ 4 | -- | FADECFFE |  OKAY  | ---- | ------- | - | ---------- |
|              683746 ns|              683756 ns|WR-DATA   | AFCD7230 |  2/ 4 | -- | 095E50A8 |  OKAY  | ---- | ------- | - | ---------- |
|              683756 ns|              683761 ns|WR-DATA   | AFCD7234 |  3/ 4 | -- | A25CA2BE |  OKAY  | ---- | ------- | - | ---------- |
|              683761 ns|              683766 ns|WR-DATA   | AFCD7238 |  4/ 4 | -- | C1A8F2CD |  OKAY  | ---- | ------- | - | ---------- |
|              683766 ns|              683811 ns|WR-NONSEQ | AFCD7240 | ----- |  4 | -------- |  ----  |INCR4 |    4    | 9 |           0|
|              683766 ns|              683811 ns|WR-DATA   | AFCD723C |  1/ 4 | -- | 02ADF419 |  OKAY  | ---- | ------- | - | ---------- |
|              683811 ns|              683821 ns|WR-DATA   | AFCD7240 |  2/ 4 | -- | 6106C5BE |  OKAY  | ---- | ------- | - | ---------- |
|              683821 ns|              683826 ns|WR-DATA   | AFCD7244 |  3/ 4 | -- | 291A69C8 |  OKAY  | ---- | ------- | - | ---------- |
|              683826 ns|              683831 ns|WR-DATA   | AFCD7248 |  4/ 4 | -- | 14255105 |  OKAY  | ---- | ------- | - | ---------- |
|              683831 ns|              683876 ns|WR-NONSEQ | AFCD7250 | ----- |  4 | -------- |  ----  |INCR4 |    4    | 1 |           0|
|              683831 ns|              683876 ns|WR-DATA   | AFCD724C |  1/ 4 | -- | BC1D5633 |  OKAY  | ---- | ------- | - | ---------- |
|              683876 ns|              683886 ns|WR-DATA   | AFCD7250 |  2/ 4 | -- | 0339E30A |  OKAY  | ---- | ------- | - | ---------- |
|              683886 ns|              683891 ns|WR-DATA   | AFCD7254 |  3/ 4 | -- | 00D486DB |  OKAY  | ---- | ------- | - | ---------- |
|              683891 ns|              683896 ns|WR-DATA   | AFCD7258 |  4/ 4 | -- | E9C1F53A |  OKAY  | ---- | ------- | - | ---------- |
|              683896 ns|              683936 ns|WR-NONSEQ | AFCD7260 | ----- |  4 | -------- |  ----  |INCR4 |    4    | 8 |           0|
|              683896 ns|              683936 ns|WR-DATA   | AFCD725C |  1/ 4 | -- | 94E4C3C7 |  OKAY  | ---- | ------- | - | ---------- |
|              683936 ns|              683946 ns|WR-DATA   | AFCD7260 |  2/ 4 | -- | 33FFC368 |  OKAY  | ---- | ------- | - | ---------- |
|              683946 ns|              683951 ns|WR-DATA   | AFCD7264 |  3/ 4 | -- | 2C9EBE09 |  OKAY  | ---- | ------- | - | ---------- |
|              683951 ns|              683956 ns|WR-DATA   | AFCD7268 |  4/ 4 | -- | 7CA3883E |  OKAY  | ---- | ------- | - | ---------- |
|              683956 ns|              684001 ns|WR-NONSEQ | AFCD7270 | ----- |  4 | -------- |  ----  |INCR4 |    4    | E |           0|
|              683956 ns|              684001 ns|WR-DATA   | AFCD726C |  1/ 4 | -- | FB56EA5F |  OKAY  | ---- | ------- | - | ---------- |
|              684001 ns|              684011 ns|WR-DATA   | AFCD7270 |  2/ 4 | -- | B464084E |  OKAY  | ---- | ------- | - | ---------- |
|              684011 ns|              684016 ns|WR-DATA   | AFCD7274 |  3/ 4 | -- | 97BC0D7D |  OKAY  | ---- | ------- | - | ---------- |
|              684016 ns|              684021 ns|WR-DATA   | AFCD7278 |  4/ 4 | -- | 19F0B7A6 |  OKAY  | ---- | ------- | - | ---------- |
|              684021 ns|              684066 ns|WR-NONSEQ | AFCD7280 | ----- |  4 | -------- |  ----  |INCR4 |    4    | A |           0|
|              684021 ns|              684066 ns|WR-DATA   | AFCD727C |  1/ 4 | -- | BB772928 |  OKAY  | ---- | ------- | - | ---------- |
|              684066 ns|              684076 ns|WR-DATA   | AFCD7280 |  2/ 4 | -- | 6C5B01D5 |  OKAY  | ---- | ------- | - | ---------- |
|              684076 ns|              684081 ns|WR-DATA   | AFCD7284 |  3/ 4 | -- | C2FE6FCD |  OKAY  | ---- | ------- | - | ---------- |
|              684081 ns|              684086 ns|WR-DATA   | AFCD7288 |  4/ 4 | -- | 5331AF73 |  OKAY  | ---- | ------- | - | ---------- |
|              684086 ns|              684131 ns|WR-NONSEQ | AFCD7290 | ----- |  4 | -------- |  ----  |INCR4 |    4    | 2 |           0|
|              684086 ns|              684131 ns|WR-DATA   | AFCD728C |  1/ 4 | -- | 56785A3B |  OKAY  | ---- | ------- | - | ---------- |
|              684131 ns|              684141 ns|WR-DATA   | AFCD7290 |  2/ 4 | -- | A08F31A7 |  OKAY  | ---- | ------- | - | ---------- |
|              684141 ns|              684146 ns|WR-DATA   | AFCD7294 |  3/ 4 | -- | 823DB7CA |  OKAY  | ---- | ------- | - | ---------- |
|              684146 ns|              684151 ns|WR-DATA   | AFCD7298 |  4/ 4 | -- | D6D09926 |  OKAY  | ---- | ------- | - | ---------- |
|              684151 ns|              684191 ns|WR-NONSEQ | AFCD72A0 | ----- |  4 | -------- |  ----  |INCR4 |    4    | B |           0|
|              684151 ns|              684191 ns|WR-DATA   | AFCD729C |  1/ 4 | -- | 23A60EB4 |  OKAY  | ---- | ------- | - | ---------- |
|              684191 ns|              684201 ns|WR-DATA   | AFCD72A0 |  2/ 4 | -- | EA118D74 |  OKAY  | ---- | ------- | - | ---------- |
|              684201 ns|              684206 ns|WR-DATA   | AFCD72A4 |  3/ 4 | -- | 9F5E6986 |  OKAY  | ---- | ------- | - | ---------- |
|              684206 ns|              684211 ns|WR-DATA   | AFCD72A8 |  4/ 4 | -- | E5EB8B60 |  OKAY  | ---- | ------- | - | ---------- |
|              684211 ns|              684256 ns|WR-NONSEQ | AFCD72B0 | ----- |  4 | -------- |  ----  |INCR4 |    4    | 5 |           0|
|              684211 ns|              684256 ns|WR-DATA   | AFCD72AC |  1/ 4 | -- | 8B9AC349 |  OKAY  | ---- | ------- | - | ---------- |
|              684256 ns|              684266 ns|WR-DATA   | AFCD72B0 |  2/ 4 | -- | CC564A77 |  OKAY  | ---- | ------- | - | ---------- |
|              684266 ns|              684271 ns|WR-DATA   | AFCD72B4 |  3/ 4 | -- | 3E7484B5 |  OKAY  | ---- | ------- | - | ---------- |
|              684271 ns|              684276 ns|WR-DATA   | AFCD72B8 |  4/ 4 | -- | A1426EC4 |  OKAY  | ---- | ------- | - | ---------- |
|              684276 ns|              684316 ns|WR-NONSEQ | AFCD72C0 | ----- |  4 | -------- |  ----  |INCR4 |    4    | C |           0|
|              684276 ns|              684316 ns|WR-DATA   | AFCD72BC |  1/ 4 | -- | F3CFAE42 |  OKAY  | ---- | ------- | - | ---------- |
|              684316 ns|              684326 ns|WR-DATA   | AFCD72C0 |  2/ 4 | -- | 5FAFD69B |  OKAY  | ---- | ------- | - | ---------- |
|              684326 ns|              684331 ns|WR-DATA   | AFCD72C4 |  3/ 4 | -- | F6170FD1 |  OKAY  | ---- | ------- | - | ---------- |
|              684331 ns|              684336 ns|WR-DATA   | AFCD72C8 |  4/ 4 | -- | A4679F33 |  OKAY  | ---- | ------- | - | ---------- |
|              684336 ns|              684381 ns|WR-NONSEQ | AFCD72D0 | ----- |  4 | -------- |  ----  |INCR4 |    4    | 6 |           0|
|              684336 ns|              684381 ns|WR-DATA   | AFCD72CC |  1/ 4 | -- | 9C66FF17 |  OKAY  | ---- | ------- | - | ---------- |
|              684381 ns|              684391 ns|WR-DATA   | AFCD72D0 |  2/ 4 | -- | B0E40824 |  OKAY  | ---- | ------- | - | ---------- |
|              684391 ns|              684396 ns|WR-DATA   | AFCD72D4 |  3/ 4 | -- | 5BA3D636 |  OKAY  | ---- | ------- | - | ---------- |
|              684396 ns|              684401 ns|WR-DATA   | AFCD72D8 |  4/ 4 | -- | E36A717A |  OKAY  | ---- | ------- | - | ---------- |
|              684401 ns|              684441 ns|WR-NONSEQ | AFCD72E0 | ----- |  4 | -------- |  ----  |INCR4 |    4    | A |           0|
|              684401 ns|              684441 ns|WR-DATA   | AFCD72DC |  1/ 4 | -- | F3DCBCBC |  OKAY  | ---- | ------- | - | ---------- |
|              684441 ns|              684451 ns|WR-DATA   | AFCD72E0 |  2/ 4 | -- | 6E996C75 |  OKAY  | ---- | ------- | - | ---------- |
|              684451 ns|              684456 ns|WR-DATA   | AFCD72E4 |  3/ 4 | -- | F70D91C8 |  OKAY  | ---- | ------- | - | ---------- |
|              684456 ns|              684461 ns|WR-DATA   | AFCD72E8 |  4/ 4 | -- | 707DCE9F |  OKAY  | ---- | ------- | - | ---------- |
|              684461 ns|              684506 ns|WR-NONSEQ | AFCD72F0 | ----- |  4 | -------- |  ----  |INCR4 |    4    | 9 |           0|
|              684461 ns|              684506 ns|WR-DATA   | AFCD72EC |  1/ 4 | -- | F8FDCB16 |  OKAY  | ---- | ------- | - | ---------- |
|              684506 ns|              684516 ns|WR-DATA   | AFCD72F0 |  2/ 4 | -- | 4A7B8016 |  OKAY  | ---- | ------- | - | ---------- |
|              684516 ns|              684521 ns|WR-DATA   | AFCD72F4 |  3/ 4 | -- | 7BA30648 |  OKAY  | ---- | ------- | - | ---------- |
|              684521 ns|              684526 ns|WR-DATA   | AFCD72F8 |  4/ 4 | -- | A3AA97EA |  OKAY  | ---- | ------- | - | ---------- |
|              684526 ns|              684571 ns|WR-NONSEQ | AFCD7300 | ----- |  4 | -------- |  ----  |INCR4 |    4    | 9 |           0|
|              684526 ns|              684571 ns|WR-DATA   | AFCD72FC |  1/ 4 | -- | 0B7B6FF3 |  OKAY  | ---- | ------- | - | ---------- |
|              684571 ns|              684581 ns|WR-DATA   | AFCD7300 |  2/ 4 | -- | 38C50EDC |  OKAY  | ---- | ------- | - | ---------- |
|              684581 ns|              684586 ns|WR-DATA   | AFCD7304 |  3/ 4 | -- | 7BF329DC |  OKAY  | ---- | ------- | - | ---------- |
|              684586 ns|              684591 ns|WR-DATA   | AFCD7308 |  4/ 4 | -- | 8ADE9797 |  OKAY  | ---- | ------- | - | ---------- |
|              684591 ns|              684636 ns|WR-NONSEQ | AFCD7310 | ----- |  4 | -------- |  ----  |INCR4 |    4    | C |           0|
|              684591 ns|              684636 ns|WR-DATA   | AFCD730C |  1/ 4 | -- | C9083D69 |  OKAY  | ---- | ------- | - | ---------- |
|              684636 ns|              684646 ns|WR-DATA   | AFCD7310 |  2/ 4 | -- | 09BC1594 |  OKAY  | ---- | ------- | - | ---------- |
|              684646 ns|              684651 ns|WR-DATA   | AFCD7314 |  3/ 4 | -- | C83E0405 |  OKAY  | ---- | ------- | - | ---------- |
|              684651 ns|              684656 ns|WR-DATA   | AFCD7318 |  4/ 4 | -- | 6F108A28 |  OKAY  | ---- | ------- | - | ---------- |
|              684656 ns|              684701 ns|WR-NONSEQ | AFCD7320 | ----- |  4 | -------- |  ----  |INCR4 |    4    | F |           0|
|              684656 ns|              684701 ns|WR-DATA   | AFCD731C |  1/ 4 | -- | AD1C888E |  OKAY  | ---- | ------- | - | ---------- |
|              684701 ns|              684711 ns|WR-DATA   | AFCD7320 |  2/ 4 | -- | 5F269F82 |  OKAY  | ---- | ------- | - | ---------- |
|              684711 ns|              684716 ns|WR-DATA   | AFCD7324 |  3/ 4 | -- | 1B87AF8C |  OKAY  | ---- | ------- | - | ---------- |
|              684716 ns|              684721 ns|WR-DATA   | AFCD7328 |  4/ 4 | -- | 8AA5D36D |  OKAY  | ---- | ------- | - | ---------- |
|              684721 ns|              684766 ns|WR-NONSEQ | AFCD7330 | ----- |  4 | -------- |  ----  |INCR4 |    4    | 0 |           0|
|              684721 ns|              684766 ns|WR-DATA   | AFCD732C |  1/ 4 | -- | 6063FE01 |  OKAY  | ---- | ------- | - | ---------- |
|              684766 ns|              684776 ns|WR-DATA   | AFCD7330 |  2/ 4 | -- | B37552D2 |  OKAY  | ---- | ------- | - | ---------- |
|              684776 ns|              684781 ns|WR-DATA   | AFCD7334 |  3/ 4 | -- | C1AB8C9F |  OKAY  | ---- | ------- | - | ---------- |
|              684781 ns|              684786 ns|WR-DATA   | AFCD7338 |  4/ 4 | -- | 47D15AA8 |  OKAY  | ---- | ------- | - | ---------- |
|              684786 ns|              684826 ns|WR-NONSEQ | AFCD7340 | ----- |  4 | -------- |  ----  |INCR4 |    4    | 7 |           0|
|              684786 ns|              684826 ns|WR-DATA   | AFCD733C |  1/ 4 | -- | CBFD9C77 |  OKAY  | ---- | ------- | - | ---------- |
|              684826 ns|              684836 ns|WR-DATA   | AFCD7340 |  2/ 4 | -- | CAB518EC |  OKAY  | ---- | ------- | - | ---------- |
|              684836 ns|              684841 ns|WR-DATA   | AFCD7344 |  3/ 4 | -- | 9C3CF4CE |  OKAY  | ---- | ------- | - | ---------- |
|              684841 ns|              684846 ns|WR-DATA   | AFCD7348 |  4/ 4 | -- | 009D5D3B |  OKAY  | ---- | ------- | - | ---------- |
|              684846 ns|              684886 ns|WR-NONSEQ | AFCD7350 | ----- |  4 | -------- |  ----  |INCR4 |    4    | 9 |           0|
|              684846 ns|              684886 ns|WR-DATA   | AFCD734C |  1/ 4 | -- | 78A2940C |  OKAY  | ---- | ------- | - | ---------- |
|              684886 ns|              684896 ns|WR-DATA   | AFCD7350 |  2/ 4 | -- | 8EF597F0 |  OKAY  | ---- | ------- | - | ---------- |
|              684896 ns|              684901 ns|WR-DATA   | AFCD7354 |  3/ 4 | -- | 5F300CF1 |  OKAY  | ---- | ------- | - | ---------- |
|              684901 ns|              684906 ns|WR-DATA   | AFCD7358 |  4/ 4 | -- | 471C715C |  OKAY  | ---- | ------- | - | ---------- |
|              684906 ns|              684951 ns|WR-NONSEQ | AFCD7360 | ----- |  4 | -------- |  ----  |INCR4 |    4    | 8 |           0|
|              684906 ns|              684951 ns|WR-DATA   | AFCD735C |  1/ 4 | -- | 573660B0 |  OKAY  | ---- | ------- | - | ---------- |
|              684951 ns|              684961 ns|WR-DATA   | AFCD7360 |  2/ 4 | -- | 653B09C5 |  OKAY  | ---- | ------- | - | ---------- |
|              684961 ns|              684966 ns|WR-DATA   | AFCD7364 |  3/ 4 | -- | 856DCDBD |  OKAY  | ---- | ------- | - | ---------- |
|              684966 ns|              684971 ns|WR-DATA   | AFCD7368 |  4/ 4 | -- | EEA2F8A5 |  OKAY  | ---- | ------- | - | ---------- |
|              684971 ns|              685016 ns|WR-NONSEQ | AFCD7370 | ----- |  4 | -------- |  ----  |INCR4 |    4    | E |           0|
|              684971 ns|              685016 ns|WR-DATA   | AFCD736C |  1/ 4 | -- | CCA0D9BC |  OKAY  | ---- | ------- | - | ---------- |
|              685016 ns|              685026 ns|WR-DATA   | AFCD7370 |  2/ 4 | -- | 61E9D9BC |  OKAY  | ---- | ------- | - | ---------- |
|              685026 ns|              685031 ns|WR-DATA   | AFCD7374 |  3/ 4 | -- | 6F762F11 |  OKAY  | ---- | ------- | - | ---------- |
|              685031 ns|              685036 ns|WR-DATA   | AFCD7378 |  4/ 4 | -- | 3371F90E |  OKAY  | ---- | ------- | - | ---------- |
|              685036 ns|              685081 ns|WR-NONSEQ | AFCD7380 | ----- |  4 | -------- |  ----  |INCR4 |    4    | F |           0|
|              685036 ns|              685081 ns|WR-DATA   | AFCD737C |  1/ 4 | -- | B325CBD2 |  OKAY  | ---- | ------- | - | ---------- |
|              685081 ns|              685091 ns|WR-DATA   | AFCD7380 |  2/ 4 | -- | 4E17E569 |  OKAY  | ---- | ------- | - | ---------- |
|              685091 ns|              685096 ns|WR-DATA   | AFCD7384 |  3/ 4 | -- | 3582F32E |  OKAY  | ---- | ------- | - | ---------- |
|              685096 ns|              685101 ns|WR-DATA   | AFCD7388 |  4/ 4 | -- | A11D8DC7 |  OKAY  | ---- | ------- | - | ---------- |
|              685101 ns|              685146 ns|WR-NONSEQ | AFCD7390 | ----- |  4 | -------- |  ----  |INCR4 |    4    | E |           0|
|              685101 ns|              685146 ns|WR-DATA   | AFCD738C |  1/ 4 | -- | 4903E5B0 |  OKAY  | ---- | ------- | - | ---------- |
|              685146 ns|              685156 ns|WR-DATA   | AFCD7390 |  2/ 4 | -- | DCAD98F2 |  OKAY  | ---- | ------- | - | ---------- |
|              685156 ns|              685161 ns|WR-DATA   | AFCD7394 |  3/ 4 | -- | 0D658FE9 |  OKAY  | ---- | ------- | - | ---------- |
|              685161 ns|              685166 ns|WR-DATA   | AFCD7398 |  4/ 4 | -- | CDB02459 |  OKAY  | ---- | ------- | - | ---------- |
|              685166 ns|              685211 ns|WR-NONSEQ | AFCD73A0 | ----- |  4 | -------- |  ----  |INCR4 |    4    | C |           0|
|              685166 ns|              685211 ns|WR-DATA   | AFCD739C |  1/ 4 | -- | 47F7EF04 |  OKAY  | ---- | ------- | - | ---------- |
|              685211 ns|              685221 ns|WR-DATA   | AFCD73A0 |  2/ 4 | -- | FE130FD1 |  OKAY  | ---- | ------- | - | ---------- |
|              685221 ns|              685226 ns|WR-DATA   | AFCD73A4 |  3/ 4 | -- | 9312E75B |  OKAY  | ---- | ------- | - | ---------- |
|              685226 ns|              685231 ns|WR-DATA   | AFCD73A8 |  4/ 4 | -- | 44582210 |  OKAY  | ---- | ------- | - | ---------- |
|              685231 ns|              685276 ns|WR-NONSEQ | AFCD73B0 | ----- |  4 | -------- |  ----  |INCR4 |    4    | E |           0|
|              685231 ns|              685276 ns|WR-DATA   | AFCD73AC |  1/ 4 | -- | 4E60327C |  OKAY  | ---- | ------- | - | ---------- |
|              685276 ns|              685286 ns|WR-DATA   | AFCD73B0 |  2/ 4 | -- | A086A3B7 |  OKAY  | ---- | ------- | - | ---------- |
|              685286 ns|              685291 ns|WR-DATA   | AFCD73B4 |  3/ 4 | -- | 4E7DD78F |  OKAY  | ---- | ------- | - | ---------- |
|              685291 ns|              685296 ns|WR-DATA   | AFCD73B8 |  4/ 4 | -- | A923FC53 |  OKAY  | ---- | ------- | - | ---------- |
|              685296 ns|              685341 ns|WR-NONSEQ | AFCD73C0 | ----- |  4 | -------- |  ----  |INCR4 |    4    | A |           0|
|              685296 ns|              685341 ns|WR-DATA   | AFCD73BC |  1/ 4 | -- | 495BD100 |  OKAY  | ---- | ------- | - | ---------- |
|              685341 ns|              685351 ns|WR-DATA   | AFCD73C0 |  2/ 4 | -- | 0DC23561 |  OKAY  | ---- | ------- | - | ---------- |
|              685351 ns|              685356 ns|WR-DATA   | AFCD73C4 |  3/ 4 | -- | 186588F5 |  OKAY  | ---- | ------- | - | ---------- |
|              685356 ns|              685361 ns|WR-DATA   | AFCD73C8 |  4/ 4 | -- | 2FB7999E |  OKAY  | ---- | ------- | - | ---------- |
|              685361 ns|              685406 ns|WR-NONSEQ | AFCD73D0 | ----- |  4 | -------- |  ----  |INCR4 |    4    | C |           0|
|              685361 ns|              685406 ns|WR-DATA   | AFCD73CC |  1/ 4 | -- | 00CE7896 |  OKAY  | ---- | ------- | - | ---------- |
|              685406 ns|              685416 ns|WR-DATA   | AFCD73D0 |  2/ 4 | -- | A994BF46 |  OKAY  | ---- | ------- | - | ---------- |
|              685416 ns|              685421 ns|WR-DATA   | AFCD73D4 |  3/ 4 | -- | 94C29393 |  OKAY  | ---- | ------- | - | ---------- |
|              685421 ns|              685426 ns|WR-DATA   | AFCD73D8 |  4/ 4 | -- | F28C7A58 |  OKAY  | ---- | ------- | - | ---------- |
|              685426 ns|              685471 ns|WR-NONSEQ | AFCD73E0 | ----- |  4 | -------- |  ----  |INCR4 |    4    | 5 |           0|
|              685426 ns|              685471 ns|WR-DATA   | AFCD73DC |  1/ 4 | -- | EC908D5F |  OKAY  | ---- | ------- | - | ---------- |
|              685471 ns|              685481 ns|WR-DATA   | AFCD73E0 |  2/ 4 | -- | 5461DB3C |  OKAY  | ---- | ------- | - | ---------- |
|              685481 ns|              685486 ns|WR-DATA   | AFCD73E4 |  3/ 4 | -- | 9BC068DB |  OKAY  | ---- | ------- | - | ---------- |
|              685486 ns|              685491 ns|WR-DATA   | AFCD73E8 |  4/ 4 | -- | C8FA1493 |  OKAY  | ---- | ------- | - | ---------- |
|              685491 ns|              685531 ns|WR-NONSEQ | AFCD73F0 | ----- |  4 | -------- |  ----  |INCR4 |    4    | 8 |           0|
|              685491 ns|              685531 ns|WR-DATA   | AFCD73EC |  1/ 4 | -- | CE11BAB5 |  OKAY  | ---- | ------- | - | ---------- |
|              685531 ns|              685541 ns|WR-DATA   | AFCD73F0 |  2/ 4 | -- | 2096D1D6 |  OKAY  | ---- | ------- | - | ---------- |
|              685541 ns|              685546 ns|WR-DATA   | AFCD73F4 |  3/ 4 | -- | 153EC8E4 |  OKAY  | ---- | ------- | - | ---------- |
|              685546 ns|              685551 ns|WR-DATA   | AFCD73F8 |  4/ 4 | -- | 013A5692 |  OKAY  | ---- | ------- | - | ---------- |
|              685551 ns|              685596 ns|WR-NONSEQ | AFCD7400 | ----- |  4 | -------- |  ----  |INCR4 |    4    | B |           0|
|              685551 ns|              685596 ns|WR-DATA   | AFCD73FC |  1/ 4 | -- | 4A3CA9D3 |  OKAY  | ---- | ------- | - | ---------- |
|              685596 ns|              685606 ns|WR-DATA   | AFCD7400 |  2/ 4 | -- | 3E437B91 |  OKAY  | ---- | ------- | - | ---------- |
|              685606 ns|              685611 ns|WR-DATA   | AFCD7404 |  3/ 4 | -- | A29DFAE8 |  OKAY  | ---- | ------- | - | ---------- |
|              685611 ns|              685616 ns|WR-DATA   | AFCD7408 |  4/ 4 | -- | ADA42944 |  OKAY  | ---- | ------- | - | ---------- |
|              685616 ns|              685661 ns|WR-NONSEQ | AFCD7410 | ----- |  4 | -------- |  ----  |INCR4 |    4    | 5 |           0|
|              685616 ns|              685661 ns|WR-DATA   | AFCD740C |  1/ 4 | -- | 30AB9575 |  OKAY  | ---- | ------- | - | ---------- |
|              685661 ns|              685671 ns|WR-DATA   | AFCD7410 |  2/ 4 | -- | 10048369 |  OKAY  | ---- | ------- | - | ---------- |
|              685671 ns|              685676 ns|WR-DATA   | AFCD7414 |  3/ 4 | -- | B75CC95E |  OKAY  | ---- | ------- | - | ---------- |
|              685676 ns|              685681 ns|WR-DATA   | AFCD7418 |  4/ 4 | -- | 56F4840D |  OKAY  | ---- | ------- | - | ---------- |
|              685681 ns|              685721 ns|WR-NONSEQ | AFCD7420 | ----- |  4 | -------- |  ----  |INCR4 |    4    | 6 |           0|
|              685681 ns|              685721 ns|WR-DATA   | AFCD741C |  1/ 4 | -- | 4036BF42 |  OKAY  | ---- | ------- | - | ---------- |
|              685721 ns|              685731 ns|WR-DATA   | AFCD7420 |  2/ 4 | -- | 50806ADF |  OKAY  | ---- | ------- | - | ---------- |
|              685731 ns|              685736 ns|WR-DATA   | AFCD7424 |  3/ 4 | -- | 1C0ABAC6 |  OKAY  | ---- | ------- | - | ---------- |
|              685736 ns|              685741 ns|WR-DATA   | AFCD7428 |  4/ 4 | -- | F3DC996A |  OKAY  | ---- | ------- | - | ---------- |
|              685741 ns|              685781 ns|WR-NONSEQ | AFCD7430 | ----- |  4 | -------- |  ----  |INCR4 |    4    | 3 |           0|
|              685741 ns|              685781 ns|WR-DATA   | AFCD742C |  1/ 4 | -- | DC7A1AE9 |  OKAY  | ---- | ------- | - | ---------- |
|              685781 ns|              685791 ns|WR-DATA   | AFCD7430 |  2/ 4 | -- | B1561723 |  OKAY  | ---- | ------- | - | ---------- |
|              685791 ns|              685796 ns|WR-DATA   | AFCD7434 |  3/ 4 | -- | D5F9E68D |  OKAY  | ---- | ------- | - | ---------- |
|              685796 ns|              685801 ns|WR-DATA   | AFCD7438 |  4/ 4 | -- | 33778779 |  OKAY  | ---- | ------- | - | ---------- |
|              685801 ns|              685841 ns|WR-NONSEQ | AFCD7440 | ----- |  4 | -------- |  ----  |INCR4 |    4    | E |           0|
|              685801 ns|              685841 ns|WR-DATA   | AFCD743C |  1/ 4 | -- | 4CE072AB |  OKAY  | ---- | ------- | - | ---------- |
|              685841 ns|              685851 ns|WR-DATA   | AFCD7440 |  2/ 4 | -- | 05250335 |  OKAY  | ---- | ------- | - | ---------- |
|              685851 ns|              685856 ns|WR-DATA   | AFCD7444 |  3/ 4 | -- | D47D0144 |  OKAY  | ---- | ------- | - | ---------- |
|              685856 ns|              685861 ns|WR-DATA   | AFCD7448 |  4/ 4 | -- | DBF89C9A |  OKAY  | ---- | ------- | - | ---------- |
|              685861 ns|              685906 ns|WR-NONSEQ | AFCD7450 | ----- |  4 | -------- |  ----  |INCR4 |    4    | 2 |           0|
|              685861 ns|              685906 ns|WR-DATA   | AFCD744C |  1/ 4 | -- | B6C7F8FA |  OKAY  | ---- | ------- | - | ---------- |
|              685906 ns|              685916 ns|WR-DATA   | AFCD7450 |  2/ 4 | -- | 4C85CF43 |  OKAY  | ---- | ------- | - | ---------- |
|              685916 ns|              685921 ns|WR-DATA   | AFCD7454 |  3/ 4 | -- | 186B7C8D |  OKAY  | ---- | ------- | - | ---------- |
|              685921 ns|              685926 ns|WR-DATA   | AFCD7458 |  4/ 4 | -- | C4F860DF |  OKAY  | ---- | ------- | - | ---------- |
|              685926 ns|              685966 ns|WR-NONSEQ | AFCD7460 | ----- |  4 | -------- |  ----  |INCR4 |    4    | F |           0|
|              685926 ns|              685966 ns|WR-DATA   | AFCD745C |  1/ 4 | -- | 7FB415C8 |  OKAY  | ---- | ------- | - | ---------- |
|              685966 ns|              685976 ns|WR-DATA   | AFCD7460 |  2/ 4 | -- | 398E66D4 |  OKAY  | ---- | ------- | - | ---------- |
|              685976 ns|              685981 ns|WR-DATA   | AFCD7464 |  3/ 4 | -- | 00CC22EB |  OKAY  | ---- | ------- | - | ---------- |
|              685981 ns|              685986 ns|WR-DATA   | AFCD7468 |  4/ 4 | -- | 98F64524 |  OKAY  | ---- | ------- | - | ---------- |
|              685986 ns|              686031 ns|WR-NONSEQ | AFCD7470 | ----- |  4 | -------- |  ----  |INCR4 |    4    | 5 |           0|
|              685986 ns|              686031 ns|WR-DATA   | AFCD746C |  1/ 4 | -- | C4F3FED7 |  OKAY  | ---- | ------- | - | ---------- |
|              686031 ns|              686041 ns|WR-DATA   | AFCD7470 |  2/ 4 | -- | 3FC84B5A |  OKAY  | ---- | ------- | - | ---------- |
|              686041 ns|              686046 ns|WR-DATA   | AFCD7474 |  3/ 4 | -- | A75F5AB4 |  OKAY  | ---- | ------- | - | ---------- |
|              686046 ns|              686051 ns|WR-DATA   | AFCD7478 |  4/ 4 | -- | ED6205F2 |  OKAY  | ---- | ------- | - | ---------- |
|              686051 ns|              686091 ns|WR-NONSEQ | AFCD7480 | ----- |  4 | -------- |  ----  |INCR4 |    4    | 6 |           0|
|              686051 ns|              686091 ns|WR-DATA   | AFCD747C |  1/ 4 | -- | FF2EB81A |  OKAY  | ---- | ------- | - | ---------- |
|              686091 ns|              686101 ns|WR-DATA   | AFCD7480 |  2/ 4 | -- | 8B7008B7 |  OKAY  | ---- | ------- | - | ---------- |
|              686101 ns|              686106 ns|WR-DATA   | AFCD7484 |  3/ 4 | -- | 0D60FBC0 |  OKAY  | ---- | ------- | - | ---------- |
|              686106 ns|              686111 ns|WR-DATA   | AFCD7488 |  4/ 4 | -- | 22BF9A33 |  OKAY  | ---- | ------- | - | ---------- |
|              686111 ns|              686151 ns|WR-NONSEQ | AFCD7490 | ----- |  4 | -------- |  ----  |INCR4 |    4    | B |           0|
|              686111 ns|              686151 ns|WR-DATA   | AFCD748C |  1/ 4 | -- | AE39D555 |  OKAY  | ---- | ------- | - | ---------- |
|              686151 ns|              686161 ns|WR-DATA   | AFCD7490 |  2/ 4 | -- | B9245D94 |  OKAY  | ---- | ------- | - | ---------- |
|              686161 ns|              686166 ns|WR-DATA   | AFCD7494 |  3/ 4 | -- | C4706ADC |  OKAY  | ---- | ------- | - | ---------- |
|              686166 ns|              686171 ns|WR-DATA   | AFCD7498 |  4/ 4 | -- | E2ABAB8F |  OKAY  | ---- | ------- | - | ---------- |
|              686171 ns|              686216 ns|WR-NONSEQ | AFCD74A0 | ----- |  4 | -------- |  ----  |INCR4 |    4    | B |           0|
|              686171 ns|              686216 ns|WR-DATA   | AFCD749C |  1/ 4 | -- | F1E7EB2D |  OKAY  | ---- | ------- | - | ---------- |
|              686216 ns|              686226 ns|WR-DATA   | AFCD74A0 |  2/ 4 | -- | 459BC45A |  OKAY  | ---- | ------- | - | ---------- |
|              686226 ns|              686231 ns|WR-DATA   | AFCD74A4 |  3/ 4 | -- | AC27A00E |  OKAY  | ---- | ------- | - | ---------- |
|              686231 ns|              686236 ns|WR-DATA   | AFCD74A8 |  4/ 4 | -- | 41FC312A |  OKAY  | ---- | ------- | - | ---------- |
|              686236 ns|              686281 ns|WR-NONSEQ | AFCD74B0 | ----- |  4 | -------- |  ----  |INCR4 |    4    | B |           0|
|              686236 ns|              686281 ns|WR-DATA   | AFCD74AC |  1/ 4 | -- | 3B515E1A |  OKAY  | ---- | ------- | - | ---------- |
|              686281 ns|              686291 ns|WR-DATA   | AFCD74B0 |  2/ 4 | -- | A4FD0ACE |  OKAY  | ---- | ------- | - | ---------- |
|              686291 ns|              686296 ns|WR-DATA   | AFCD74B4 |  3/ 4 | -- | 95BBFFEB |  OKAY  | ---- | ------- | - | ---------- |
|              686296 ns|              686301 ns|WR-DATA   | AFCD74B8 |  4/ 4 | -- | 7FAD9732 |  OKAY  | ---- | ------- | - | ---------- |
|              686301 ns|              686346 ns|WR-NONSEQ | AFCD74C0 | ----- |  4 | -------- |  ----  |INCR4 |    4    | D |           0|
|              686301 ns|              686346 ns|WR-DATA   | AFCD74BC |  1/ 4 | -- | 23A27549 |  OKAY  | ---- | ------- | - | ---------- |
|              686346 ns|              686356 ns|WR-DATA   | AFCD74C0 |  2/ 4 | -- | CC5D313E |  OKAY  | ---- | ------- | - | ---------- |
|              686356 ns|              686361 ns|WR-DATA   | AFCD74C4 |  3/ 4 | -- | 4277B0BC |  OKAY  | ---- | ------- | - | ---------- |
|              686361 ns|              686366 ns|WR-DATA   | AFCD74C8 |  4/ 4 | -- | 40EF2983 |  OKAY  | ---- | ------- | - | ---------- |
|              686366 ns|              686411 ns|WR-NONSEQ | AFCD74D0 | ----- |  4 | -------- |  ----  |INCR4 |    4    | 8 |           0|
|              686366 ns|              686411 ns|WR-DATA   | AFCD74CC |  1/ 4 | -- | 58FA556C |  OKAY  | ---- | ------- | - | ---------- |
|              686411 ns|              686421 ns|WR-DATA   | AFCD74D0 |  2/ 4 | -- | F4CFD061 |  OKAY  | ---- | ------- | - | ---------- |
|              686421 ns|              686426 ns|WR-DATA   | AFCD74D4 |  3/ 4 | -- | FE80089C |  OKAY  | ---- | ------- | - | ---------- |
|              686426 ns|              686431 ns|WR-DATA   | AFCD74D8 |  4/ 4 | -- | 13443FBB |  OKAY  | ---- | ------- | - | ---------- |
|              686431 ns|              686476 ns|WR-NONSEQ | AFCD74E0 | ----- |  4 | -------- |  ----  |INCR4 |    4    | F |           0|
|              686431 ns|              686476 ns|WR-DATA   | AFCD74DC |  1/ 4 | -- | FBC7D895 |  OKAY  | ---- | ------- | - | ---------- |
|              686476 ns|              686486 ns|WR-DATA   | AFCD74E0 |  2/ 4 | -- | F00D50C4 |  OKAY  | ---- | ------- | - | ---------- |
|              686486 ns|              686491 ns|WR-DATA   | AFCD74E4 |  3/ 4 | -- | 50A2BE0A |  OKAY  | ---- | ------- | - | ---------- |
|              686491 ns|              686496 ns|WR-DATA   | AFCD74E8 |  4/ 4 | -- | 1C6EE309 |  OKAY  | ---- | ------- | - | ---------- |
|              686496 ns|              686541 ns|WR-NONSEQ | AFCD74F0 | ----- |  4 | -------- |  ----  |INCR4 |    4    | B |           0|
