   Picked  : Instance: uvm_test_top.top_env_i.ahbfab_env_i.mvc_ahb_mon_6_env_i.logger_handle_ahb :: Header
             Instance: uvm_test_top.top_env_i.ahbfab_env_i.mvc_ahb_mon_6_env_i.logger_handle_ahb
   Picked  : AHB Clk Cycle = 40 ns; AHB Clk Frequency = 25.00 MHz; Data bus width = 32 bits
             AHB Clk Cycle = 40 ns; AHB Clk Frequency = 25.00 MHz; Data bus width = 32 bits
   Skipped : ------------------------------------------------------------------------------------------------------------------------------------------
   Skipped : |NONSEQ/SEQ Assert Time |  HREADY Assert Time   |  DIR     |   ADDR   | BEAT  |  L |   DATA   |  RESP  | BURST| BURST   | H |    HSEL    |
   Skipped : |                       |                       |   -      |          |  NUM  |  E |          |        | Type | Size    | P |   (SLAVE   |
   Skipped : |                       |                       | PHASE    |          |       |  N |          |        |      |= 2^HSIZE| R |    INDEX)  |
   Skipped : |                       |                       |          |          |       |    |          |        |      | bytes   | O |            |
   Skipped : |                       |                       |          |          |       |    |          |        |      |         | T |            |
   Skipped : |                       |                       |          |          |       |    |          |        |      |         |   |            |
   Skipped : ------------------------------------------------------------------------------------------------------------------------------------------
   Picked  : |              606796 ns|              606801 ns|RD-NONSEQ | F8315248 | ----- |  1 | -------- |  ----  |SINGLE|    4    | 1 |           0|
             |              606796 ns|              606801 ns|RD-NONSEQ | F8315248 | ----- |  1 | -------- |  ----  |SINGLE|    4    | 1 |           0|
   Picked  : |              606801 ns|              606931 ns|RD-DATA   | F8315248 |  1/ 1 | -- | 0000000A |  OKAY  | ---- | ------- | - | ---------- |
             |              606801 ns|              606931 ns|RD-DATA   | F8315248 |  1/ 1 | -- | 0000000A |  OKAY  | ---- | ------- | - | ---------- |
   Picked  : |              606976 ns|              606981 ns|WR-NONSEQ | F8315248 | ----- |  ? | -------- |  ----  |INCR  |    4    | 1 |           0|
             |              606976 ns|              606981 ns|WR-NONSEQ | F8315248 | ----- |  ? | -------- |  ----  |INCR  |    4    | 1 |           0|
   Picked  : |              606981 ns|              607096 ns|WR-DATA   | F8315248 |  1/ ? | -- | 00000005 |  OKAY  | ---- | ------- | - | ---------- |
             |              606981 ns|              607096 ns|WR-DATA   | F8315248 |  1/ ? | -- | 00000005 |  OKAY  | ---- | ------- | - | ---------- |
   Picked  : |              607131 ns|              607136 ns|RD-NONSEQ | F831524C | ----- |  1 | -------- |  ----  |SINGLE|    4    | 1 |           0|
             |              607131 ns|              607136 ns|RD-NONSEQ | F831524C | ----- |  1 | -------- |  ----  |SINGLE|    4    | 1 |           0|
   Picked  : |              607136 ns|              607261 ns|RD-DATA   | F831524C |  1/ 1 | -- | 0000000F |  OKAY  | ---- | ------- | - | ---------- |
             |              607136 ns|              607261 ns|RD-DATA   | F831524C |  1/ 1 | -- | 0000000F |  OKAY  | ---- | ------- | - | ---------- |
   Picked  : |              607306 ns|              607311 ns|WR-NONSEQ | F831524C | ----- |  ? | -------- |  ----  |INCR  |    4    | 1 |           0|
             |              607306 ns|              607311 ns|WR-NONSEQ | F831524C | ----- |  ? | -------- |  ----  |INCR  |    4    | 1 |           0|
   Picked  : |              607311 ns|              607436 ns|WR-DATA   | F831524C |  1/ ? | -- | 00000005 |  OKAY  | ---- | ------- | - | ---------- |
             |              607311 ns|              607436 ns|WR-DATA   | F831524C |  1/ ? | -- | 00000005 |  OKAY  | ---- | ------- | - | ---------- |
   Picked  : |              607471 ns|              607476 ns|RD-NONSEQ | F8315250 | ----- |  1 | -------- |  ----  |SINGLE|    4    | 1 |           0|
             |              607471 ns|              607476 ns|RD-NONSEQ | F8315250 | ----- |  1 | -------- |  ----  |SINGLE|    4    | 1 |           0|
   Picked  : |              607476 ns|              607611 ns|RD-DATA   | F8315250 |  1/ 1 | -- | 0000000F |  OKAY  | ---- | ------- | - | ---------- |
             |              607476 ns|              607611 ns|RD-DATA   | F8315250 |  1/ 1 | -- | 0000000F |  OKAY  | ---- | ------- | - | ---------- |
   Picked  : |              607651 ns|              607656 ns|WR-NONSEQ | F8315250 | ----- |  ? | -------- |  ----  |INCR  |    4    | 1 |           0|
             |              607651 ns|              607656 ns|WR-NONSEQ | F8315250 | ----- |  ? | -------- |  ----  |INCR  |    4    | 1 |           0|
   Picked  : |              607656 ns|              607776 ns|WR-DATA   | F8315250 |  1/ ? | -- | 00000005 |  OKAY  | ---- | ------- | - | ---------- |
             |              607656 ns|              607776 ns|WR-DATA   | F8315250 |  1/ ? | -- | 00000005 |  OKAY  | ---- | ------- | - | ---------- |
   Picked  : |              607811 ns|              607816 ns|RD-NONSEQ | F8315254 | ----- |  1 | -------- |  ----  |SINGLE|    4    | 1 |           0|
             |              607811 ns|              607816 ns|RD-NONSEQ | F8315254 | ----- |  1 | -------- |  ----  |SINGLE|    4    | 1 |           0|
   Picked  : |              607816 ns|              607941 ns|RD-DATA   | F8315254 |  1/ 1 | -- | 0000000A |  OKAY  | ---- | ------- | - | ---------- |
             |              607816 ns|              607941 ns|RD-DATA   | F8315254 |  1/ 1 | -- | 0000000A |  OKAY  | ---- | ------- | - | ---------- |
   Picked  : |              607991 ns|              607996 ns|WR-NONSEQ | F8315254 | ----- |  ? | -------- |  ----  |INCR  |    4    | 1 |           0|
             |              607991 ns|              607996 ns|WR-NONSEQ | F8315254 | ----- |  ? | -------- |  ----  |INCR  |    4    | 1 |           0|
   Picked  : |              607996 ns|              608126 ns|WR-DATA   | F8315254 |  1/ ? | -- | 00000005 |  OKAY  | ---- | ------- | - | ---------- |
             |              607996 ns|              608126 ns|WR-DATA   | F8315254 |  1/ ? | -- | 00000005 |  OKAY  | ---- | ------- | - | ---------- |
   Picked  : |              608161 ns|              608166 ns|RD-NONSEQ | F8315258 | ----- |  1 | -------- |  ----  |SINGLE|    4    | 1 |           0|
             |              608161 ns|              608166 ns|RD-NONSEQ | F8315258 | ----- |  1 | -------- |  ----  |SINGLE|    4    | 1 |           0|
   Picked  : |              608166 ns|              608291 ns|RD-DATA   | F8315258 |  1/ 1 | -- | 0000000A |  OKAY  | ---- | ------- | - | ---------- |
             |              608166 ns|              608291 ns|RD-DATA   | F8315258 |  1/ 1 | -- | 0000000A |  OKAY  | ---- | ------- | - | ---------- |
   Picked  : |              608341 ns|              608346 ns|WR-NONSEQ | F8315258 | ----- |  ? | -------- |  ----  |INCR  |    4    | 1 |           0|
             |              608341 ns|              608346 ns|WR-NONSEQ | F8315258 | ----- |  ? | -------- |  ----  |INCR  |    4    | 1 |           0|
   Picked  : |              608346 ns|              608466 ns|WR-DATA   | F8315258 |  1/ ? | -- | 00000005 |  OKAY  | ---- | ------- | - | ---------- |
             |              608346 ns|              608466 ns|WR-DATA   | F8315258 |  1/ ? | -- | 00000005 |  OKAY  | ---- | ------- | - | ---------- |
   Picked  : |              608501 ns|              608506 ns|RD-NONSEQ | F831525C | ----- |  1 | -------- |  ----  |SINGLE|    4    | 1 |           0|
             |              608501 ns|              608506 ns|RD-NONSEQ | F831525C | ----- |  1 | -------- |  ----  |SINGLE|    4    | 1 |           0|
   Picked  : |              608506 ns|              608631 ns|RD-DATA   | F831525C |  1/ 1 | -- | 0000000F |  OKAY  | ---- | ------- | - | ---------- |
             |              608506 ns|              608631 ns|RD-DATA   | F831525C |  1/ 1 | -- | 0000000F |  OKAY  | ---- | ------- | - | ---------- |
   Picked  : |              608671 ns|              608676 ns|WR-NONSEQ | F831525C | ----- |  ? | -------- |  ----  |INCR  |    4    | 1 |           0|
             |              608671 ns|              608676 ns|WR-NONSEQ | F831525C | ----- |  ? | -------- |  ----  |INCR  |    4    | 1 |           0|
   Picked  : |              608676 ns|              608806 ns|WR-DATA   | F831525C |  1/ ? | -- | 00000000 |  OKAY  | ---- | ------- | - | ---------- |
             |              608676 ns|              608806 ns|WR-DATA   | F831525C |  1/ ? | -- | 00000000 |  OKAY  | ---- | ------- | - | ---------- |
   Picked  : |              820811 ns|              820816 ns|RD-NONSEQ | F8316CB8 | ----- |  1 | -------- |  ----  |SINGLE|    4    | 1 |           0|
             |              820811 ns|              820816 ns|RD-NONSEQ | F8316CB8 | ----- |  1 | -------- |  ----  |SINGLE|    4    | 1 |           0|
   Picked  : |              820816 ns|              820911 ns|RD-DATA   | F8316CB8 |  1/ 1 | -- | 00000000 |  OKAY  | ---- | ------- | - | ---------- |
             |              820816 ns|              820911 ns|RD-DATA   | F8316CB8 |  1/ 1 | -- | 00000000 |  OKAY  | ---- | ------- | - | ---------- |
   Picked  : |              820946 ns|              820951 ns|RD-NONSEQ | F8316CBC | ----- |  1 | -------- |  ----  |SINGLE|    4    | 1 |           0|
             |              820946 ns|              820951 ns|RD-NONSEQ | F8316CBC | ----- |  1 | -------- |  ----  |SINGLE|    4    | 1 |           0|
   Picked  : |              820951 ns|              821031 ns|RD-DATA   | F8316CBC |  1/ 1 | -- | 00000000 |  OKAY  | ---- | ------- | - | ---------- |
             |              820951 ns|              821031 ns|RD-DATA   | F8316CBC |  1/ 1 | -- | 00000000 |  OKAY  | ---- | ------- | - | ---------- |
   Picked  : |              821066 ns|              821071 ns|RD-NONSEQ | F8316CCC | ----- |  1 | -------- |  ----  |SINGLE|    4    | 1 |           0|
             |              821066 ns|              821071 ns|RD-NONSEQ | F8316CCC | ----- |  1 | -------- |  ----  |SINGLE|    4    | 1 |           0|
   Picked  : |              821071 ns|              821151 ns|RD-DATA   | F8316CCC |  1/ 1 | -- | 00000000 |  OKAY  | ---- | ------- | - | ---------- |
             |              821071 ns|              821151 ns|RD-DATA   | F8316CCC |  1/ 1 | -- | 00000000 |  OKAY  | ---- | ------- | - | ---------- |
   Picked  : |              821186 ns|              821191 ns|RD-NONSEQ | F8316CD0 | ----- |  1 | -------- |  ----  |SINGLE|    4    | 1 |           0|
             |              821186 ns|              821191 ns|RD-NONSEQ | F8316CD0 | ----- |  1 | -------- |  ----  |SINGLE|    4    | 1 |           0|
   Picked  : |              821191 ns|              821271 ns|RD-DATA   | F8316CD0 |  1/ 1 | -- | 00000000 |  OKAY  | ---- | ------- | - | ---------- |
             |              821191 ns|              821271 ns|RD-DATA   | F8316CD0 |  1/ 1 | -- | 00000000 |  OKAY  | ---- | ------- | - | ---------- |
   Picked  : |              821306 ns|              821311 ns|RD-NONSEQ | F8316CE0 | ----- |  1 | -------- |  ----  |SINGLE|    4    | 1 |           0|
             |              821306 ns|              821311 ns|RD-NONSEQ | F8316CE0 | ----- |  1 | -------- |  ----  |SINGLE|    4    | 1 |           0|
   Picked  : |              821311 ns|              821401 ns|RD-DATA   | F8316CE0 |  1/ 1 | -- | 00000000 |  OKAY  | ---- | ------- | - | ---------- |
             |              821311 ns|              821401 ns|RD-DATA   | F8316CE0 |  1/ 1 | -- | 00000000 |  OKAY  | ---- | ------- | - | ---------- |
   Picked  : |              821436 ns|              821441 ns|RD-NONSEQ | F8316CE4 | ----- |  1 | -------- |  ----  |SINGLE|    4    | 1 |           0|
             |              821436 ns|              821441 ns|RD-NONSEQ | F8316CE4 | ----- |  1 | -------- |  ----  |SINGLE|    4    | 1 |           0|
   Picked  : |              821441 ns|              821521 ns|RD-DATA   | F8316CE4 |  1/ 1 | -- | 00000000 |  OKAY  | ---- | ------- | - | ---------- |
             |              821441 ns|              821521 ns|RD-DATA   | F8316CE4 |  1/ 1 | -- | 00000000 |  OKAY  | ---- | ------- | - | ---------- |
   Picked  : |              821556 ns|              821561 ns|RD-NONSEQ | F8316CF4 | ----- |  1 | -------- |  ----  |SINGLE|    4    | 1 |           0|
             |              821556 ns|              821561 ns|RD-NONSEQ | F8316CF4 | ----- |  1 | -------- |  ----  |SINGLE|    4    | 1 |           0|
   Picked  : |              821561 ns|              821651 ns|RD-DATA   | F8316CF4 |  1/ 1 | -- | 00000000 |  OKAY  | ---- | ------- | - | ---------- |
             |              821561 ns|              821651 ns|RD-DATA   | F8316CF4 |  1/ 1 | -- | 00000000 |  OKAY  | ---- | ------- | - | ---------- |
   Picked  : |              821686 ns|              821691 ns|RD-NONSEQ | F8316CF8 | ----- |  1 | -------- |  ----  |SINGLE|    4    | 1 |           0|
             |              821686 ns|              821691 ns|RD-NONSEQ | F8316CF8 | ----- |  1 | -------- |  ----  |SINGLE|    4    | 1 |           0|
   Picked  : |              821691 ns|              821771 ns|RD-DATA   | F8316CF8 |  1/ 1 | -- | 00000000 |  OKAY  | ---- | ------- | - | ---------- |
             |              821691 ns|              821771 ns|RD-DATA   | F8316CF8 |  1/ 1 | -- | 00000000 |  OKAY  | ---- | ------- | - | ---------- |
   Picked  : |              821806 ns|              821811 ns|RD-NONSEQ | F8316D08 | ----- |  1 | -------- |  ----  |SINGLE|    4    | 1 |           0|
             |              821806 ns|              821811 ns|RD-NONSEQ | F8316D08 | ----- |  1 | -------- |  ----  |SINGLE|    4    | 1 |           0|
   Picked  : |              821811 ns|              821901 ns|RD-DATA   | F8316D08 |  1/ 1 | -- | 870AAE7C |  OKAY  | ---- | ------- | - | ---------- |
             |              821811 ns|              821901 ns|RD-DATA   | F8316D08 |  1/ 1 | -- | 870AAE7C |  OKAY  | ---- | ------- | - | ---------- |
   Picked  : |              821936 ns|              821941 ns|RD-NONSEQ | F8316D0C | ----- |  1 | -------- |  ----  |SINGLE|    4    | 1 |           0|
             |              821936 ns|              821941 ns|RD-NONSEQ | F8316D0C | ----- |  1 | -------- |  ----  |SINGLE|    4    | 1 |           0|
   Picked  : |              821941 ns|              822021 ns|RD-DATA   | F8316D0C |  1/ 1 | -- | 00000000 |  OKAY  | ---- | ------- | - | ---------- |
             |              821941 ns|              822021 ns|RD-DATA   | F8316D0C |  1/ 1 | -- | 00000000 |  OKAY  | ---- | ------- | - | ---------- |
   Picked  : |              822056 ns|              822061 ns|RD-NONSEQ | F8316D1C | ----- |  1 | -------- |  ----  |SINGLE|    4    | 1 |           0|
             |              822056 ns|              822061 ns|RD-NONSEQ | F8316D1C | ----- |  1 | -------- |  ----  |SINGLE|    4    | 1 |           0|
   Picked  : |              822061 ns|              822141 ns|RD-DATA   | F8316D1C |  1/ 1 | -- | 00000000 |  OKAY  | ---- | ------- | - | ---------- |
             |              822061 ns|              822141 ns|RD-DATA   | F8316D1C |  1/ 1 | -- | 00000000 |  OKAY  | ---- | ------- | - | ---------- |
   Picked  : |              822176 ns|              822181 ns|RD-NONSEQ | F8316D20 | ----- |  1 | -------- |  ----  |SINGLE|    4    | 1 |           0|
             |              822176 ns|              822181 ns|RD-NONSEQ | F8316D20 | ----- |  1 | -------- |  ----  |SINGLE|    4    | 1 |           0|
   Picked  : |              822181 ns|              822261 ns|RD-DATA   | F8316D20 |  1/ 1 | -- | 00000000 |  OKAY  | ---- | ------- | - | ---------- |
             |              822181 ns|              822261 ns|RD-DATA   | F8316D20 |  1/ 1 | -- | 00000000 |  OKAY  | ---- | ------- | - | ---------- |
   Picked  : |              822296 ns|              822301 ns|RD-NONSEQ | F8316D30 | ----- |  1 | -------- |  ----  |SINGLE|    4    | 1 |           0|
             |              822296 ns|              822301 ns|RD-NONSEQ | F8316D30 | ----- |  1 | -------- |  ----  |SINGLE|    4    | 1 |           0|
   Picked  : |              822301 ns|              822381 ns|RD-DATA   | F8316D30 |  1/ 1 | -- | 00000000 |  OKAY  | ---- | ------- | - | ---------- |
             |              822301 ns|              822381 ns|RD-DATA   | F8316D30 |  1/ 1 | -- | 00000000 |  OKAY  | ---- | ------- | - | ---------- |
   Picked  : |              822416 ns|              822421 ns|RD-NONSEQ | F8316D34 | ----- |  1 | -------- |  ----  |SINGLE|    4    | 1 |           0|
             |              822416 ns|              822421 ns|RD-NONSEQ | F8316D34 | ----- |  1 | -------- |  ----  |SINGLE|    4    | 1 |           0|
   Picked  : |              822421 ns|              822501 ns|RD-DATA   | F8316D34 |  1/ 1 | -- | 00000000 |  OKAY  | ---- | ------- | - | ---------- |
             |              822421 ns|              822501 ns|RD-DATA   | F8316D34 |  1/ 1 | -- | 00000000 |  OKAY  | ---- | ------- | - | ---------- |
   Picked  : |              822536 ns|              822541 ns|RD-NONSEQ | F8316D44 | ----- |  1 | -------- |  ----  |SINGLE|    4    | 1 |           0|
             |              822536 ns|              822541 ns|RD-NONSEQ | F8316D44 | ----- |  1 | -------- |  ----  |SINGLE|    4    | 1 |           0|
   Picked  : |              822541 ns|              822631 ns|RD-DATA   | F8316D44 |  1/ 1 | -- | 48250018 |  OKAY  | ---- | ------- | - | ---------- |
             |              822541 ns|              822631 ns|RD-DATA   | F8316D44 |  1/ 1 | -- | 48250018 |  OKAY  | ---- | ------- | - | ---------- |
   Picked  : |              822666 ns|              822671 ns|RD-NONSEQ | F8316D48 | ----- |  1 | -------- |  ----  |SINGLE|    4    | 1 |           0|
             |              822666 ns|              822671 ns|RD-NONSEQ | F8316D48 | ----- |  1 | -------- |  ----  |SINGLE|    4    | 1 |           0|
   Picked  : |              822671 ns|              822751 ns|RD-DATA   | F8316D48 |  1/ 1 | -- | 00000000 |  OKAY  | ---- | ------- | - | ---------- |
             |              822671 ns|              822751 ns|RD-DATA   | F8316D48 |  1/ 1 | -- | 00000000 |  OKAY  | ---- | ------- | - | ---------- |
   Picked  : |              822786 ns|              822791 ns|RD-NONSEQ | F8316D58 | ----- |  1 | -------- |  ----  |SINGLE|    4    | 1 |           0|
             |              822786 ns|              822791 ns|RD-NONSEQ | F8316D58 | ----- |  1 | -------- |  ----  |SINGLE|    4    | 1 |           0|
   Picked  : |              822791 ns|              822881 ns|RD-DATA   | F8316D58 |  1/ 1 | -- | 00000000 |  OKAY  | ---- | ------- | - | ---------- |
             |              822791 ns|              822881 ns|RD-DATA   | F8316D58 |  1/ 1 | -- | 00000000 |  OKAY  | ---- | ------- | - | ---------- |
   Picked  : |              822916 ns|              822921 ns|RD-NONSEQ | F8316D5C | ----- |  1 | -------- |  ----  |SINGLE|    4    | 1 |           0|
             |              822916 ns|              822921 ns|RD-NONSEQ | F8316D5C | ----- |  1 | -------- |  ----  |SINGLE|    4    | 1 |           0|
   Picked  : |              822921 ns|              823011 ns|RD-DATA   | F8316D5C |  1/ 1 | -- | 00000000 |  OKAY  | ---- | ------- | - | ---------- |
             |              822921 ns|              823011 ns|RD-DATA   | F8316D5C |  1/ 1 | -- | 00000000 |  OKAY  | ---- | ------- | - | ---------- |
   Picked  : |              823046 ns|              823051 ns|RD-NONSEQ | F8316D6C | ----- |  1 | -------- |  ----  |SINGLE|    4    | 1 |           0|
             |              823046 ns|              823051 ns|RD-NONSEQ | F8316D6C | ----- |  1 | -------- |  ----  |SINGLE|    4    | 1 |           0|
   Picked  : |              823051 ns|              823141 ns|RD-DATA   | F8316D6C |  1/ 1 | -- | 00000000 |  OKAY  | ---- | ------- | - | ---------- |
             |              823051 ns|              823141 ns|RD-DATA   | F8316D6C |  1/ 1 | -- | 00000000 |  OKAY  | ---- | ------- | - | ---------- |
   Picked  : |              823176 ns|              823181 ns|RD-NONSEQ | F8316D70 | ----- |  1 | -------- |  ----  |SINGLE|    4    | 1 |           0|
             |              823176 ns|              823181 ns|RD-NONSEQ | F8316D70 | ----- |  1 | -------- |  ----  |SINGLE|    4    | 1 |           0|
   Picked  : |              823181 ns|              823261 ns|RD-DATA   | F8316D70 |  1/ 1 | -- | 00000000 |  OKAY  | ---- | ------- | - | ---------- |
             |              823181 ns|              823261 ns|RD-DATA   | F8316D70 |  1/ 1 | -- | 00000000 |  OKAY  | ---- | ------- | - | ---------- |
   Picked  : |              823296 ns|              823301 ns|RD-NONSEQ | F8316D80 | ----- |  1 | -------- |  ----  |SINGLE|    4    | 1 |           0|
             |              823296 ns|              823301 ns|RD-NONSEQ | F8316D80 | ----- |  1 | -------- |  ----  |SINGLE|    4    | 1 |           0|
   Picked  : |              823301 ns|              823381 ns|RD-DATA   | F8316D80 |  1/ 1 | -- | F8316D80 |  OKAY  | ---- | ------- | - | ---------- |
             |              823301 ns|              823381 ns|RD-DATA   | F8316D80 |  1/ 1 | -- | F8316D80 |  OKAY  | ---- | ------- | - | ---------- |
   Picked  : |              823416 ns|              823421 ns|RD-NONSEQ | F8316D84 | ----- |  1 | -------- |  ----  |SINGLE|    4    | 1 |           0|
             |              823416 ns|              823421 ns|RD-NONSEQ | F8316D84 | ----- |  1 | -------- |  ----  |SINGLE|    4    | 1 |           0|
   Picked  : |              823421 ns|              823511 ns|RD-DATA   | F8316D84 |  1/ 1 | -- | 00000000 |  OKAY  | ---- | ------- | - | ---------- |
             |              823421 ns|              823511 ns|RD-DATA   | F8316D84 |  1/ 1 | -- | 00000000 |  OKAY  | ---- | ------- | - | ---------- |
   Picked  : |              823546 ns|              823551 ns|RD-NONSEQ | F8316D94 | ----- |  1 | -------- |  ----  |SINGLE|    4    | 1 |           0|
             |              823546 ns|              823551 ns|RD-NONSEQ | F8316D94 | ----- |  1 | -------- |  ----  |SINGLE|    4    | 1 |           0|
   Picked  : |              823551 ns|              823631 ns|RD-DATA   | F8316D94 |  1/ 1 | -- | 00000000 |  OKAY  | ---- | ------- | - | ---------- |
             |              823551 ns|              823631 ns|RD-DATA   | F8316D94 |  1/ 1 | -- | 00000000 |  OKAY  | ---- | ------- | - | ---------- |
   Picked  : |              823666 ns|              823671 ns|RD-NONSEQ | F8316D98 | ----- |  1 | -------- |  ----  |SINGLE|    4    | 1 |           0|
             |              823666 ns|              823671 ns|RD-NONSEQ | F8316D98 | ----- |  1 | -------- |  ----  |SINGLE|    4    | 1 |           0|
   Picked  : |              823671 ns|              823761 ns|RD-DATA   | F8316D98 |  1/ 1 | -- | 00000000 |  OKAY  | ---- | ------- | - | ---------- |
             |              823671 ns|              823761 ns|RD-DATA   | F8316D98 |  1/ 1 | -- | 00000000 |  OKAY  | ---- | ------- | - | ---------- |
   Picked  : |              823796 ns|              823801 ns|RD-NONSEQ | F8316DA8 | ----- |  1 | -------- |  ----  |SINGLE|    4    | 1 |           0|
             |              823796 ns|              823801 ns|RD-NONSEQ | F8316DA8 | ----- |  1 | -------- |  ----  |SINGLE|    4    | 1 |           0|
   Picked  : |              823801 ns|              823881 ns|RD-DATA   | F8316DA8 |  1/ 1 | -- | 00000000 |  OKAY  | ---- | ------- | - | ---------- |
             |              823801 ns|              823881 ns|RD-DATA   | F8316DA8 |  1/ 1 | -- | 00000000 |  OKAY  | ---- | ------- | - | ---------- |
   Picked  : |              823916 ns|              823921 ns|RD-NONSEQ | F8316DAC | ----- |  1 | -------- |  ----  |SINGLE|    4    | 1 |           0|
             |              823916 ns|              823921 ns|RD-NONSEQ | F8316DAC | ----- |  1 | -------- |  ----  |SINGLE|    4    | 1 |           0|
   Picked  : |              823921 ns|              824001 ns|RD-DATA   | F8316DAC |  1/ 1 | -- | 00000000 |  OKAY  | ---- | ------- | - | ---------- |
             |              823921 ns|              824001 ns|RD-DATA   | F8316DAC |  1/ 1 | -- | 00000000 |  OKAY  | ---- | ------- | - | ---------- |
   Picked  : |              824036 ns|              824041 ns|RD-NONSEQ | F8316DBC | ----- |  1 | -------- |  ----  |SINGLE|    4    | 1 |           0|
             |              824036 ns|              824041 ns|RD-NONSEQ | F8316DBC | ----- |  1 | -------- |  ----  |SINGLE|    4    | 1 |           0|
   Picked  : |              824041 ns|              824141 ns|RD-DATA   | F8316DBC |  1/ 1 | -- | 00000000 |  OKAY  | ---- | ------- | - | ---------- |
             |              824041 ns|              824141 ns|RD-DATA   | F8316DBC |  1/ 1 | -- | 00000000 |  OKAY  | ---- | ------- | - | ---------- |
   Picked  : |              824176 ns|              824181 ns|RD-NONSEQ | F8316DC0 | ----- |  1 | -------- |  ----  |SINGLE|    4    | 1 |           0|
             |              824176 ns|              824181 ns|RD-NONSEQ | F8316DC0 | ----- |  1 | -------- |  ----  |SINGLE|    4    | 1 |           0|
   Picked  : |              824181 ns|              824271 ns|RD-DATA   | F8316DC0 |  1/ 1 | -- | 00000000 |  OKAY  | ---- | ------- | - | ---------- |
             |              824181 ns|              824271 ns|RD-DATA   | F8316DC0 |  1/ 1 | -- | 00000000 |  OKAY  | ---- | ------- | - | ---------- |
   Picked  : |              824306 ns|              824311 ns|RD-NONSEQ | F8316DD0 | ----- |  1 | -------- |  ----  |SINGLE|    4    | 1 |           0|
             |              824306 ns|              824311 ns|RD-NONSEQ | F8316DD0 | ----- |  1 | -------- |  ----  |SINGLE|    4    | 1 |           0|
   Picked  : |              824311 ns|              824401 ns|RD-DATA   | F8316DD0 |  1/ 1 | -- | 00000000 |  OKAY  | ---- | ------- | - | ---------- |
             |              824311 ns|              824401 ns|RD-DATA   | F8316DD0 |  1/ 1 | -- | 00000000 |  OKAY  | ---- | ------- | - | ---------- |
   Picked  : |              824436 ns|              824441 ns|RD-NONSEQ | F8316DD4 | ----- |  1 | -------- |  ----  |SINGLE|    4    | 1 |           0|
             |              824436 ns|              824441 ns|RD-NONSEQ | F8316DD4 | ----- |  1 | -------- |  ----  |SINGLE|    4    | 1 |           0|
   Picked  : |              824441 ns|              824521 ns|RD-DATA   | F8316DD4 |  1/ 1 | -- | 00000000 |  OKAY  | ---- | ------- | - | ---------- |
             |              824441 ns|              824521 ns|RD-DATA   | F8316DD4 |  1/ 1 | -- | 00000000 |  OKAY  | ---- | ------- | - | ---------- |
   Picked  : |              824556 ns|              824561 ns|RD-NONSEQ | F8316DE4 | ----- |  1 | -------- |  ----  |SINGLE|    4    | 1 |           0|
             |              824556 ns|              824561 ns|RD-NONSEQ | F8316DE4 | ----- |  1 | -------- |  ----  |SINGLE|    4    | 1 |           0|
   Picked  : |              824561 ns|              824651 ns|RD-DATA   | F8316DE4 |  1/ 1 | -- | 00000000 |  OKAY  | ---- | ------- | - | ---------- |
             |              824561 ns|              824651 ns|RD-DATA   | F8316DE4 |  1/ 1 | -- | 00000000 |  OKAY  | ---- | ------- | - | ---------- |
   Picked  : |              824686 ns|              824691 ns|RD-NONSEQ | F8316DE8 | ----- |  1 | -------- |  ----  |SINGLE|    4    | 1 |           0|
             |              824686 ns|              824691 ns|RD-NONSEQ | F8316DE8 | ----- |  1 | -------- |  ----  |SINGLE|    4    | 1 |           0|
   Picked  : |              824691 ns|              824771 ns|RD-DATA   | F8316DE8 |  1/ 1 | -- | 00000000 |  OKAY  | ---- | ------- | - | ---------- |
             |              824691 ns|              824771 ns|RD-DATA   | F8316DE8 |  1/ 1 | -- | 00000000 |  OKAY  | ---- | ------- | - | ---------- |
   Picked  : |              824806 ns|              824811 ns|RD-NONSEQ | F8316DF8 | ----- |  1 | -------- |  ----  |SINGLE|    4    | 1 |           0|
             |              824806 ns|              824811 ns|RD-NONSEQ | F8316DF8 | ----- |  1 | -------- |  ----  |SINGLE|    4    | 1 |           0|
   Picked  : |              824811 ns|              824891 ns|RD-DATA   | F8316DF8 |  1/ 1 | -- | 00000000 |  OKAY  | ---- | ------- | - | ---------- |
             |              824811 ns|              824891 ns|RD-DATA   | F8316DF8 |  1/ 1 | -- | 00000000 |  OKAY  | ---- | ------- | - | ---------- |
   Picked  : |              824926 ns|              824931 ns|RD-NONSEQ | F8316DFC | ----- |  1 | -------- |  ----  |SINGLE|    4    | 1 |           0|
             |              824926 ns|              824931 ns|RD-NONSEQ | F8316DFC | ----- |  1 | -------- |  ----  |SINGLE|    4    | 1 |           0|
   Picked  : |              824931 ns|              825021 ns|RD-DATA   | F8316DFC |  1/ 1 | -- | 00000000 |  OKAY  | ---- | ------- | - | ---------- |
             |              824931 ns|              825021 ns|RD-DATA   | F8316DFC |  1/ 1 | -- | 00000000 |  OKAY  | ---- | ------- | - | ---------- |
   Picked  : |              825056 ns|              825061 ns|RD-NONSEQ | F8316E0C | ----- |  1 | -------- |  ----  |SINGLE|    4    | 1 |           0|
             |              825056 ns|              825061 ns|RD-NONSEQ | F8316E0C | ----- |  1 | -------- |  ----  |SINGLE|    4    | 1 |           0|
   Picked  : |              825061 ns|              825141 ns|RD-DATA   | F8316E0C |  1/ 1 | -- | 00000000 |  OKAY  | ---- | ------- | - | ---------- |
             |              825061 ns|              825141 ns|RD-DATA   | F8316E0C |  1/ 1 | -- | 00000000 |  OKAY  | ---- | ------- | - | ---------- |
   Picked  : |              825176 ns|              825181 ns|RD-NONSEQ | F8316E10 | ----- |  1 | -------- |  ----  |SINGLE|    4    | 1 |           0|
             |              825176 ns|              825181 ns|RD-NONSEQ | F8316E10 | ----- |  1 | -------- |  ----  |SINGLE|    4    | 1 |           0|
   Picked  : |              825181 ns|              825271 ns|RD-DATA   | F8316E10 |  1/ 1 | -- | 00000000 |  OKAY  | ---- | ------- | - | ---------- |
             |              825181 ns|              825271 ns|RD-DATA   | F8316E10 |  1/ 1 | -- | 00000000 |  OKAY  | ---- | ------- | - | ---------- |
   Picked  : |              825306 ns|              825311 ns|RD-NONSEQ | F8316E20 | ----- |  1 | -------- |  ----  |SINGLE|    4    | 1 |           0|
             |              825306 ns|              825311 ns|RD-NONSEQ | F8316E20 | ----- |  1 | -------- |  ----  |SINGLE|    4    | 1 |           0|
   Picked  : |              825311 ns|              825401 ns|RD-DATA   | F8316E20 |  1/ 1 | -- | 00000000 |  OKAY  | ---- | ------- | - | ---------- |
             |              825311 ns|              825401 ns|RD-DATA   | F8316E20 |  1/ 1 | -- | 00000000 |  OKAY  | ---- | ------- | - | ---------- |
   Picked  : |              825436 ns|              825441 ns|RD-NONSEQ | F8316E24 | ----- |  1 | -------- |  ----  |SINGLE|    4    | 1 |           0|
             |              825436 ns|              825441 ns|RD-NONSEQ | F8316E24 | ----- |  1 | -------- |  ----  |SINGLE|    4    | 1 |           0|
   Picked  : |              825441 ns|              825531 ns|RD-DATA   | F8316E24 |  1/ 1 | -- | 00000000 |  OKAY  | ---- | ------- | - | ---------- |
             |              825441 ns|              825531 ns|RD-DATA   | F8316E24 |  1/ 1 | -- | 00000000 |  OKAY  | ---- | ------- | - | ---------- |
   Picked  : |              825566 ns|              825571 ns|RD-NONSEQ | F8316E34 | ----- |  1 | -------- |  ----  |SINGLE|    4    | 1 |           0|
             |              825566 ns|              825571 ns|RD-NONSEQ | F8316E34 | ----- |  1 | -------- |  ----  |SINGLE|    4    | 1 |           0|
   Picked  : |              825571 ns|              825651 ns|RD-DATA   | F8316E34 |  1/ 1 | -- | 00000000 |  OKAY  | ---- | ------- | - | ---------- |
             |              825571 ns|              825651 ns|RD-DATA   | F8316E34 |  1/ 1 | -- | 00000000 |  OKAY  | ---- | ------- | - | ---------- |
   Picked  : |              825686 ns|              825691 ns|RD-NONSEQ | F8316E38 | ----- |  1 | -------- |  ----  |SINGLE|    4    | 1 |           0|
             |              825686 ns|              825691 ns|RD-NONSEQ | F8316E38 | ----- |  1 | -------- |  ----  |SINGLE|    4    | 1 |           0|
   Picked  : |              825691 ns|              825771 ns|RD-DATA   | F8316E38 |  1/ 1 | -- | 00000000 |  OKAY  | ---- | ------- | - | ---------- |
             |              825691 ns|              825771 ns|RD-DATA   | F8316E38 |  1/ 1 | -- | 00000000 |  OKAY  | ---- | ------- | - | ---------- |
   Picked  : |              825806 ns|              825811 ns|RD-NONSEQ | F8316E48 | ----- |  1 | -------- |  ----  |SINGLE|    4    | 1 |           0|
             |              825806 ns|              825811 ns|RD-NONSEQ | F8316E48 | ----- |  1 | -------- |  ----  |SINGLE|    4    | 1 |           0|
   Picked  : |              825811 ns|              825901 ns|RD-DATA   | F8316E48 |  1/ 1 | -- | 00000000 |  OKAY  | ---- | ------- | - | ---------- |
             |              825811 ns|              825901 ns|RD-DATA   | F8316E48 |  1/ 1 | -- | 00000000 |  OKAY  | ---- | ------- | - | ---------- |
   Picked  : |              825936 ns|              825941 ns|RD-NONSEQ | F8316E4C | ----- |  1 | -------- |  ----  |SINGLE|    4    | 1 |           0|
             |              825936 ns|              825941 ns|RD-NONSEQ | F8316E4C | ----- |  1 | -------- |  ----  |SINGLE|    4    | 1 |           0|
   Picked  : |              825941 ns|              826031 ns|RD-DATA   | F8316E4C |  1/ 1 | -- | 00000000 |  OKAY  | ---- | ------- | - | ---------- |
             |              825941 ns|              826031 ns|RD-DATA   | F8316E4C |  1/ 1 | -- | 00000000 |  OKAY  | ---- | ------- | - | ---------- |
   Picked  : |              826066 ns|              826071 ns|RD-NONSEQ | F8316E5C | ----- |  1 | -------- |  ----  |SINGLE|    4    | 1 |           0|
             |              826066 ns|              826071 ns|RD-NONSEQ | F8316E5C | ----- |  1 | -------- |  ----  |SINGLE|    4    | 1 |           0|
   Picked  : |              826071 ns|              826161 ns|RD-DATA   | F8316E5C |  1/ 1 | -- | 00000000 |  OKAY  | ---- | ------- | - | ---------- |
             |              826071 ns|              826161 ns|RD-DATA   | F8316E5C |  1/ 1 | -- | 00000000 |  OKAY  | ---- | ------- | - | ---------- |
   Picked  : |              826196 ns|              826201 ns|RD-NONSEQ | F8316E60 | ----- |  1 | -------- |  ----  |SINGLE|    4    | 1 |           0|
             |              826196 ns|              826201 ns|RD-NONSEQ | F8316E60 | ----- |  1 | -------- |  ----  |SINGLE|    4    | 1 |           0|
   Picked  : |              826201 ns|              826281 ns|RD-DATA   | F8316E60 |  1/ 1 | -- | 00000000 |  OKAY  | ---- | ------- | - | ---------- |
             |              826201 ns|              826281 ns|RD-DATA   | F8316E60 |  1/ 1 | -- | 00000000 |  OKAY  | ---- | ------- | - | ---------- |
   Picked  : |              826316 ns|              826321 ns|RD-NONSEQ | F8316E70 | ----- |  1 | -------- |  ----  |SINGLE|    4    | 1 |           0|
             |              826316 ns|              826321 ns|RD-NONSEQ | F8316E70 | ----- |  1 | -------- |  ----  |SINGLE|    4    | 1 |           0|
   Picked  : |              826321 ns|              826401 ns|RD-DATA   | F8316E70 |  1/ 1 | -- | 00000000 |  OKAY  | ---- | ------- | - | ---------- |
             |              826321 ns|              826401 ns|RD-DATA   | F8316E70 |  1/ 1 | -- | 00000000 |  OKAY  | ---- | ------- | - | ---------- |
   Picked  : |              826436 ns|              826441 ns|RD-NONSEQ | F8316E74 | ----- |  1 | -------- |  ----  |SINGLE|    4    | 1 |           0|
             |              826436 ns|              826441 ns|RD-NONSEQ | F8316E74 | ----- |  1 | -------- |  ----  |SINGLE|    4    | 1 |           0|
   Picked  : |              826441 ns|              826521 ns|RD-DATA   | F8316E74 |  1/ 1 | -- | 00000000 |  OKAY  | ---- | ------- | - | ---------- |
             |              826441 ns|              826521 ns|RD-DATA   | F8316E74 |  1/ 1 | -- | 00000000 |  OKAY  | ---- | ------- | - | ---------- |
   Picked  : |              826556 ns|              826561 ns|RD-NONSEQ | F8316E84 | ----- |  1 | -------- |  ----  |SINGLE|    4    | 1 |           0|
             |              826556 ns|              826561 ns|RD-NONSEQ | F8316E84 | ----- |  1 | -------- |  ----  |SINGLE|    4    | 1 |           0|
   Picked  : |              826561 ns|              826641 ns|RD-DATA   | F8316E84 |  1/ 1 | -- | 00000000 |  OKAY  | ---- | ------- | - | ---------- |
             |              826561 ns|              826641 ns|RD-DATA   | F8316E84 |  1/ 1 | -- | 00000000 |  OKAY  | ---- | ------- | - | ---------- |
   Picked  : |              826676 ns|              826681 ns|RD-NONSEQ | F8316E88 | ----- |  1 | -------- |  ----  |SINGLE|    4    | 1 |           0|
             |              826676 ns|              826681 ns|RD-NONSEQ | F8316E88 | ----- |  1 | -------- |  ----  |SINGLE|    4    | 1 |           0|
   Picked  : |              826681 ns|              826761 ns|RD-DATA   | F8316E88 |  1/ 1 | -- | 00000000 |  OKAY  | ---- | ------- | - | ---------- |
             |              826681 ns|              826761 ns|RD-DATA   | F8316E88 |  1/ 1 | -- | 00000000 |  OKAY  | ---- | ------- | - | ---------- |
   Picked  : |              826796 ns|              826801 ns|RD-NONSEQ | F8316E98 | ----- |  1 | -------- |  ----  |SINGLE|    4    | 1 |           0|
             |              826796 ns|              826801 ns|RD-NONSEQ | F8316E98 | ----- |  1 | -------- |  ----  |SINGLE|    4    | 1 |           0|
   Picked  : |              826801 ns|              826881 ns|RD-DATA   | F8316E98 |  1/ 1 | -- | 00000000 |  OKAY  | ---- | ------- | - | ---------- |
             |              826801 ns|              826881 ns|RD-DATA   | F8316E98 |  1/ 1 | -- | 00000000 |  OKAY  | ---- | ------- | - | ---------- |
   Picked  : |              826916 ns|              826921 ns|RD-NONSEQ | F8316E9C | ----- |  1 | -------- |  ----  |SINGLE|    4    | 1 |           0|
             |              826916 ns|              826921 ns|RD-NONSEQ | F8316E9C | ----- |  1 | -------- |  ----  |SINGLE|    4    | 1 |           0|
   Picked  : |              826921 ns|              827001 ns|RD-DATA   | F8316E9C |  1/ 1 | -- | 00000000 |  OKAY  | ---- | ------- | - | ---------- |
             |              826921 ns|              827001 ns|RD-DATA   | F8316E9C |  1/ 1 | -- | 00000000 |  OKAY  | ---- | ------- | - | ---------- |
   Picked  : |              827036 ns|              827041 ns|RD-NONSEQ | F8316EAC | ----- |  1 | -------- |  ----  |SINGLE|    4    | 1 |           0|
             |              827036 ns|              827041 ns|RD-NONSEQ | F8316EAC | ----- |  1 | -------- |  ----  |SINGLE|    4    | 1 |           0|
   Picked  : |              827041 ns|              827141 ns|RD-DATA   | F8316EAC |  1/ 1 | -- | 00000000 |  OKAY  | ---- | ------- | - | ---------- |
             |              827041 ns|              827141 ns|RD-DATA   | F8316EAC |  1/ 1 | -- | 00000000 |  OKAY  | ---- | ------- | - | ---------- |
   Picked  : |              827176 ns|              827181 ns|RD-NONSEQ | F8316EB0 | ----- |  1 | -------- |  ----  |SINGLE|    4    | 1 |           0|
             |              827176 ns|              827181 ns|RD-NONSEQ | F8316EB0 | ----- |  1 | -------- |  ----  |SINGLE|    4    | 1 |           0|
   Picked  : |              827181 ns|              827261 ns|RD-DATA   | F8316EB0 |  1/ 1 | -- | 00000000 |  OKAY  | ---- | ------- | - | ---------- |
             |              827181 ns|              827261 ns|RD-DATA   | F8316EB0 |  1/ 1 | -- | 00000000 |  OKAY  | ---- | ------- | - | ---------- |
