 ... HEADER decoding
     line ::     0 :: Instance: uvm_test_top.top_env_i.ahbfab_env_i.mvc_ahb_mon_6_env_i.logger_handle_ahb
     line ::     1 :: AHB Clk Cycle = 40 ns; AHB Clk Frequency = 25.00 MHz; Data bus width = 32 bits
     line ::     2 :: ------------------------------------------------------------------------------------------------------------------------------------------
     line ::     3 :: |NONSEQ/SEQ Assert Time |  HREADY Assert Time   |  DIR     |   ADDR   | BEAT  |  L |   DATA   |  RESP  | BURST| BURST   | H |    HSEL    |
     line ::     4 :: |                       |                       |   -      |          |  NUM  |  E |          |        | Type | Size    | P |   (SLAVE   |
     line ::     5 :: |                       |                       | PHASE    |          |       |  N |          |        |      |= 2^HSIZE| R |    INDEX)  |
     line ::     6 :: |                       |                       |          |          |       |    |          |        |      | bytes   | O |            |
     line ::     7 :: |                       |                       |          |          |       |    |          |        |      |         | T |            |
     line ::     8 :: |                       |                       |          |          |       |    |          |        |      |         |   |            |
     line ::     9 :: ------------------------------------------------------------------------------------------------------------------------------------------
 ... HEADER decoding done
 ... TABLE  decoding ... 
     line ::    10 :: |              606261 ns|              606266 ns|RD-NONSEQ | F8315248 | ----- |  1 | -------- |  ----  |SINGLE|    4    | 1 |           0|
                      0 :: first command
     line ::    11 :: |              606266 ns|              606391 ns|RD-DATA   | F8315248 |  1/ 1 | -- | 0000000A |  OKAY  | ---- | ------- | - | ---------- |
                      ::             AHB address transfer phase detected
                      :: sequential  AHB data    transfer phase detected FIRST
                         DATA transfer assertion time :   606266 ns
                         ADDR transfer assertion time :   606261 ns
     line ::    12 :: |              606441 ns|              606446 ns|WR-NONSEQ | F8315248 | ----- |  ? | -------- |  ----  |INCR  |    4    | 1 |           0|
                      0 :: first command
     line ::    13 :: |              606446 ns|              606576 ns|WR-DATA   | F8315248 |  1/ ? | -- | 00000005 |  OKAY  | ---- | ------- | - | ---------- |
                      ::             AHB address transfer phase detected
                      :: sequential  AHB data    transfer phase detected FIRST
                         DATA transfer assertion time :   606446 ns
                         ADDR transfer assertion time :   606441 ns
     line ::    14 :: |              606611 ns|              606616 ns|RD-NONSEQ | F831524C | ----- |  1 | -------- |  ----  |SINGLE|    4    | 1 |           0|
                      0 :: first command
     line ::    15 :: |              606616 ns|              606731 ns|RD-DATA   | F831524C |  1/ 1 | -- | 0000000F |  OKAY  | ---- | ------- | - | ---------- |
                      ::             AHB address transfer phase detected
                      :: sequential  AHB data    transfer phase detected FIRST
                         DATA transfer assertion time :   606616 ns
                         ADDR transfer assertion time :   606611 ns
     line ::    16 :: |              606781 ns|              606786 ns|WR-NONSEQ | F831524C | ----- |  ? | -------- |  ----  |INCR  |    4    | 1 |           0|
                      0 :: first command
     line ::    17 :: |              606786 ns|              606906 ns|WR-DATA   | F831524C |  1/ ? | -- | 00000005 |  OKAY  | ---- | ------- | - | ---------- |
                      ::             AHB address transfer phase detected
                      :: sequential  AHB data    transfer phase detected FIRST
                         DATA transfer assertion time :   606786 ns
                         ADDR transfer assertion time :   606781 ns
     line ::    18 :: |              606941 ns|              606946 ns|RD-NONSEQ | F8315250 | ----- |  1 | -------- |  ----  |SINGLE|    4    | 1 |           0|
                      0 :: first command
     line ::    19 :: |              606946 ns|              607071 ns|RD-DATA   | F8315250 |  1/ 1 | -- | 0000000F |  OKAY  | ---- | ------- | - | ---------- |
                      ::             AHB address transfer phase detected
                      :: sequential  AHB data    transfer phase detected FIRST
                         DATA transfer assertion time :   606946 ns
                         ADDR transfer assertion time :   606941 ns
     line ::    20 :: |              607116 ns|              607121 ns|WR-NONSEQ | F8315250 | ----- |  ? | -------- |  ----  |INCR  |    4    | 1 |           0|
                      0 :: first command
     line ::    21 :: |              607121 ns|              607236 ns|WR-DATA   | F8315250 |  1/ ? | -- | 00000005 |  OKAY  | ---- | ------- | - | ---------- |
                      ::             AHB address transfer phase detected
                      :: sequential  AHB data    transfer phase detected FIRST
                         DATA transfer assertion time :   607121 ns
                         ADDR transfer assertion time :   607116 ns
     line ::    22 :: |              607271 ns|              607276 ns|RD-NONSEQ | F8315254 | ----- |  1 | -------- |  ----  |SINGLE|    4    | 1 |           0|
                      0 :: first command
     line ::    23 :: |              607276 ns|              607401 ns|RD-DATA   | F8315254 |  1/ 1 | -- | 0000000A |  OKAY  | ---- | ------- | - | ---------- |
                      ::             AHB address transfer phase detected
                      :: sequential  AHB data    transfer phase detected FIRST
                         DATA transfer assertion time :   607276 ns
                         ADDR transfer assertion time :   607271 ns
     line ::    24 :: |              607446 ns|              607451 ns|WR-NONSEQ | F8315254 | ----- |  ? | -------- |  ----  |INCR  |    4    | 1 |           0|
                      0 :: first command
     line ::    25 :: |              607451 ns|              607566 ns|WR-DATA   | F8315254 |  1/ ? | -- | 00000005 |  OKAY  | ---- | ------- | - | ---------- |
                      ::             AHB address transfer phase detected
                      :: sequential  AHB data    transfer phase detected FIRST
                         DATA transfer assertion time :   607451 ns
                         ADDR transfer assertion time :   607446 ns
     line ::    26 :: |              607601 ns|              607606 ns|RD-NONSEQ | F8315258 | ----- |  1 | -------- |  ----  |SINGLE|    4    | 1 |           0|
                      0 :: first command
     line ::    27 :: |              607606 ns|              607741 ns|RD-DATA   | F8315258 |  1/ 1 | -- | 0000000A |  OKAY  | ---- | ------- | - | ---------- |
                      ::             AHB address transfer phase detected
                      :: sequential  AHB data    transfer phase detected FIRST
                         DATA transfer assertion time :   607606 ns
                         ADDR transfer assertion time :   607601 ns
     line ::    28 :: |              607781 ns|              607786 ns|WR-NONSEQ | F8315258 | ----- |  ? | -------- |  ----  |INCR  |    4    | 1 |           0|
                      0 :: first command
     line ::    29 :: |              607786 ns|              607906 ns|WR-DATA   | F8315258 |  1/ ? | -- | 00000005 |  OKAY  | ---- | ------- | - | ---------- |
                      ::             AHB address transfer phase detected
                      :: sequential  AHB data    transfer phase detected FIRST
                         DATA transfer assertion time :   607786 ns
                         ADDR transfer assertion time :   607781 ns
     line ::    30 :: |              607941 ns|              607946 ns|RD-NONSEQ | F831525C | ----- |  1 | -------- |  ----  |SINGLE|    4    | 1 |           0|
                      0 :: first command
     line ::    31 :: |              607946 ns|              608061 ns|RD-DATA   | F831525C |  1/ 1 | -- | 0000000F |  OKAY  | ---- | ------- | - | ---------- |
                      ::             AHB address transfer phase detected
                      :: sequential  AHB data    transfer phase detected FIRST
                         DATA transfer assertion time :   607946 ns
                         ADDR transfer assertion time :   607941 ns
     line ::    32 :: |              608111 ns|              608116 ns|WR-NONSEQ | F831525C | ----- |  ? | -------- |  ----  |INCR  |    4    | 1 |           0|
                      0 :: first command
     line ::    33 :: |              608116 ns|              608236 ns|WR-DATA   | F831525C |  1/ ? | -- | 00000000 |  OKAY  | ---- | ------- | - | ---------- |
                      ::             AHB address transfer phase detected
                      :: sequential  AHB data    transfer phase detected FIRST
                         DATA transfer assertion time :   608116 ns
                         ADDR transfer assertion time :   608111 ns
     line ::    34 :: |              608281 ns|              608286 ns|WR-NONSEQ | F8321190 | ----- |  ? | -------- |  ----  |INCR  |    4    | 1 |           0|
                      0 :: first command
     line ::    35 :: |              608286 ns|              608586 ns|WR-DATA   | F8321190 |  1/ ? | -- | 00000005 |  OKAY  | ---- | ------- | - | ---------- |
                      ::             AHB address transfer phase detected
                      :: sequential  AHB data    transfer phase detected FIRST
                         DATA transfer assertion time :   608286 ns
                         ADDR transfer assertion time :   608281 ns
     line ::    36 :: |              608621 ns|              608626 ns|RD-NONSEQ | F8321190 | ----- |  1 | -------- |  ----  |SINGLE|    4    | 1 |           0|
                      0 :: first command
     line ::    37 :: |              608626 ns|              608941 ns|RD-DATA   | F8321190 |  1/ 1 | -- | 00000005 |  OKAY  | ---- | ------- | - | ---------- |
                      ::             AHB address transfer phase detected
                      :: sequential  AHB data    transfer phase detected FIRST
                         DATA transfer assertion time :   608626 ns
                         ADDR transfer assertion time :   608621 ns
     line ::    38 :: |              608981 ns|              608986 ns|WR-NONSEQ | F8321194 | ----- |  ? | -------- |  ----  |INCR  |    4    | 1 |           0|
                      0 :: first command
     line ::    39 :: |              608986 ns|              609326 ns|WR-DATA   | F8321194 |  1/ ? | -- | 00000005 |  OKAY  | ---- | ------- | - | ---------- |
                      ::             AHB address transfer phase detected
                      :: sequential  AHB data    transfer phase detected FIRST
                         DATA transfer assertion time :   608986 ns
                         ADDR transfer assertion time :   608981 ns
     line ::    40 :: |              609361 ns|              609366 ns|RD-NONSEQ | F8321194 | ----- |  1 | -------- |  ----  |SINGLE|    4    | 1 |           0|
                      0 :: first command
     line ::    41 :: |              609366 ns|              609681 ns|RD-DATA   | F8321194 |  1/ 1 | -- | 00000005 |  OKAY  | ---- | ------- | - | ---------- |
                      ::             AHB address transfer phase detected
                      :: sequential  AHB data    transfer phase detected FIRST
                         DATA transfer assertion time :   609366 ns
                         ADDR transfer assertion time :   609361 ns
     line ::    42 :: |              609736 ns|              609741 ns|WR-NONSEQ | F8321198 | ----- |  ? | -------- |  ----  |INCR  |    4    | 1 |           0|
                      0 :: first command
     line ::    43 :: |              609741 ns|              610026 ns|WR-DATA   | F8321198 |  1/ ? | -- | 00000005 |  OKAY  | ---- | ------- | - | ---------- |
                      ::             AHB address transfer phase detected
                      :: sequential  AHB data    transfer phase detected FIRST
                         DATA transfer assertion time :   609741 ns
                         ADDR transfer assertion time :   609736 ns
     line ::    44 :: |              610061 ns|              610066 ns|RD-NONSEQ | F8321198 | ----- |  1 | -------- |  ----  |SINGLE|    4    | 1 |           0|
                      0 :: first command
     line ::    45 :: |              610066 ns|              610421 ns|RD-DATA   | F8321198 |  1/ 1 | -- | 00000005 |  OKAY  | ---- | ------- | - | ---------- |
                      ::             AHB address transfer phase detected
                      :: sequential  AHB data    transfer phase detected FIRST
                         DATA transfer assertion time :   610066 ns
                         ADDR transfer assertion time :   610061 ns
     line ::    46 :: |              610471 ns|              610476 ns|WR-NONSEQ | F832119C | ----- |  ? | -------- |  ----  |INCR  |    4    | 1 |           0|
                      0 :: first command
     line ::    47 :: |              610476 ns|              610786 ns|WR-DATA   | F832119C |  1/ ? | -- | 00000005 |  OKAY  | ---- | ------- | - | ---------- |
                      ::             AHB address transfer phase detected
                      :: sequential  AHB data    transfer phase detected FIRST
                         DATA transfer assertion time :   610476 ns
                         ADDR transfer assertion time :   610471 ns
     line ::    48 :: |              610821 ns|              610826 ns|RD-NONSEQ | F832119C | ----- |  1 | -------- |  ----  |SINGLE|    4    | 1 |           0|
                      0 :: first command
     line ::    49 :: |              610826 ns|              611141 ns|RD-DATA   | F832119C |  1/ 1 | -- | 00000005 |  OKAY  | ---- | ------- | - | ---------- |
                      ::             AHB address transfer phase detected
                      :: sequential  AHB data    transfer phase detected FIRST
                         DATA transfer assertion time :   610826 ns
                         ADDR transfer assertion time :   610821 ns
     line ::    50 :: |              611181 ns|              611186 ns|WR-NONSEQ | F83211A0 | ----- |  ? | -------- |  ----  |INCR  |    4    | 1 |           0|
                      0 :: first command
     line ::    51 :: |              611186 ns|              611506 ns|WR-DATA   | F83211A0 |  1/ ? | -- | 00000005 |  OKAY  | ---- | ------- | - | ---------- |
                      ::             AHB address transfer phase detected
                      :: sequential  AHB data    transfer phase detected FIRST
                         DATA transfer assertion time :   611186 ns
                         ADDR transfer assertion time :   611181 ns
     line ::    52 :: |              611541 ns|              611546 ns|RD-NONSEQ | F83211A0 | ----- |  1 | -------- |  ----  |SINGLE|    4    | 1 |           0|
                      0 :: first command
     line ::    53 :: |              611546 ns|              611881 ns|RD-DATA   | F83211A0 |  1/ 1 | -- | 00000005 |  OKAY  | ---- | ------- | - | ---------- |
                      ::             AHB address transfer phase detected
                      :: sequential  AHB data    transfer phase detected FIRST
                         DATA transfer assertion time :   611546 ns
                         ADDR transfer assertion time :   611541 ns
     line ::    54 :: |              611926 ns|              611931 ns|WR-NONSEQ | F83211A4 | ----- |  ? | -------- |  ----  |INCR  |    4    | 1 |           0|
                      0 :: first command
     line ::    55 :: |              611931 ns|              612246 ns|WR-DATA   | F83211A4 |  1/ ? | -- | 00000005 |  OKAY  | ---- | ------- | - | ---------- |
                      ::             AHB address transfer phase detected
                      :: sequential  AHB data    transfer phase detected FIRST
                         DATA transfer assertion time :   611931 ns
                         ADDR transfer assertion time :   611926 ns
     line ::    56 :: |              612281 ns|              612286 ns|RD-NONSEQ | F83211A4 | ----- |  1 | -------- |  ----  |SINGLE|    4    | 1 |           0|
                      0 :: first command
     line ::    57 :: |              612286 ns|              612581 ns|RD-DATA   | F83211A4 |  1/ 1 | -- | 00000005 |  OKAY  | ---- | ------- | - | ---------- |
                      ::             AHB address transfer phase detected
                      :: sequential  AHB data    transfer phase detected FIRST
                         DATA transfer assertion time :   612286 ns
                         ADDR transfer assertion time :   612281 ns
     line ::    58 :: |              612621 ns|              612626 ns|WR-NONSEQ | F83211A8 | ----- |  ? | -------- |  ----  |INCR  |    4    | 1 |           0|
                      0 :: first command
     line ::    59 :: |              612626 ns|              612946 ns|WR-DATA   | F83211A8 |  1/ ? | -- | 00000005 |  OKAY  | ---- | ------- | - | ---------- |
                      ::             AHB address transfer phase detected
                      :: sequential  AHB data    transfer phase detected FIRST
                         DATA transfer assertion time :   612626 ns
                         ADDR transfer assertion time :   612621 ns
     line ::    60 :: |              612981 ns|              612986 ns|RD-NONSEQ | F83211A8 | ----- |  1 | -------- |  ----  |SINGLE|    4    | 1 |           0|
                      0 :: first command
     line ::    61 :: |              612986 ns|              613301 ns|RD-DATA   | F83211A8 |  1/ 1 | -- | 00000005 |  OKAY  | ---- | ------- | - | ---------- |
                      ::             AHB address transfer phase detected
                      :: sequential  AHB data    transfer phase detected FIRST
                         DATA transfer assertion time :   612986 ns
                         ADDR transfer assertion time :   612981 ns
     line ::    62 :: |              613341 ns|              613346 ns|WR-NONSEQ | F83211AC | ----- |  ? | -------- |  ----  |INCR  |    4    | 1 |           0|
                      0 :: first command
     line ::    63 :: |              613346 ns|              613666 ns|WR-DATA   | F83211AC |  1/ ? | -- | 00000005 |  OKAY  | ---- | ------- | - | ---------- |
                      ::             AHB address transfer phase detected
                      :: sequential  AHB data    transfer phase detected FIRST
                         DATA transfer assertion time :   613346 ns
                         ADDR transfer assertion time :   613341 ns
     line ::    64 :: |              613701 ns|              613706 ns|RD-NONSEQ | F83211AC | ----- |  1 | -------- |  ----  |SINGLE|    4    | 1 |           0|
                      0 :: first command
     line ::    65 :: |              613706 ns|              614041 ns|RD-DATA   | F83211AC |  1/ 1 | -- | 00000005 |  OKAY  | ---- | ------- | - | ---------- |
                      ::             AHB address transfer phase detected
                      :: sequential  AHB data    transfer phase detected FIRST
                         DATA transfer assertion time :   613706 ns
                         ADDR transfer assertion time :   613701 ns
     line ::    66 :: |              614091 ns|              614096 ns|WR-NONSEQ | F83211B0 | ----- |  ? | -------- |  ----  |INCR  |    4    | 1 |           0|
                      0 :: first command
     line ::    67 :: |              614096 ns|              614446 ns|WR-DATA   | F83211B0 |  1/ ? | -- | 00000005 |  OKAY  | ---- | ------- | - | ---------- |
                      ::             AHB address transfer phase detected
                      :: sequential  AHB data    transfer phase detected FIRST
                         DATA transfer assertion time :   614096 ns
                         ADDR transfer assertion time :   614091 ns
     line ::    68 :: |              614481 ns|              614486 ns|RD-NONSEQ | F83211B0 | ----- |  1 | -------- |  ----  |SINGLE|    4    | 1 |           0|
                      0 :: first command
     line ::    69 :: |              614486 ns|              614821 ns|RD-DATA   | F83211B0 |  1/ 1 | -- | 00000005 |  OKAY  | ---- | ------- | - | ---------- |
                      ::             AHB address transfer phase detected
                      :: sequential  AHB data    transfer phase detected FIRST
                         DATA transfer assertion time :   614486 ns
                         ADDR transfer assertion time :   614481 ns
     line ::    70 :: |              614871 ns|              614876 ns|WR-NONSEQ | F83211B8 | ----- |  ? | -------- |  ----  |INCR  |    4    | 1 |           0|
                      0 :: first command
     line ::    71 :: |              614876 ns|              615186 ns|WR-DATA   | F83211B8 |  1/ ? | -- | 00000005 |  OKAY  | ---- | ------- | - | ---------- |
                      ::             AHB address transfer phase detected
                      :: sequential  AHB data    transfer phase detected FIRST
                         DATA transfer assertion time :   614876 ns
                         ADDR transfer assertion time :   614871 ns
     line ::    72 :: |              615221 ns|              615226 ns|RD-NONSEQ | F83211B8 | ----- |  1 | -------- |  ----  |SINGLE|    4    | 1 |           0|
                      0 :: first command
     line ::    73 :: |              615226 ns|              615601 ns|RD-DATA   | F83211B8 |  1/ 1 | -- | 00000005 |  OKAY  | ---- | ------- | - | ---------- |
                      ::             AHB address transfer phase detected
                      :: sequential  AHB data    transfer phase detected FIRST
                         DATA transfer assertion time :   615226 ns
                         ADDR transfer assertion time :   615221 ns
     line ::    74 :: |              618841 ns|              618846 ns|WR-NONSEQ | F8321190 | ----- |  ? | -------- |  ----  |INCR  |    4    | 1 |           0|
                      0 :: first command
     line ::    75 :: |              618846 ns|              619156 ns|WR-DATA   | F8321190 |  1/ ? | -- | 00000003 |  OKAY  | ---- | ------- | - | ---------- |
                      ::             AHB address transfer phase detected
                      :: sequential  AHB data    transfer phase detected FIRST
                         DATA transfer assertion time :   618846 ns
                         ADDR transfer assertion time :   618841 ns
     line ::    76 :: |              619191 ns|              619196 ns|RD-NONSEQ | F8321190 | ----- |  1 | -------- |  ----  |SINGLE|    4    | 1 |           0|
                      0 :: first command
     line ::    77 :: |              619196 ns|              619421 ns|RD-DATA   | F8321190 |  1/ 1 | -- | 00000003 |  OKAY  | ---- | ------- | - | ---------- |
                      ::             AHB address transfer phase detected
                      :: sequential  AHB data    transfer phase detected FIRST
                         DATA transfer assertion time :   619196 ns
                         ADDR transfer assertion time :   619191 ns
     line ::    78 :: |              619461 ns|              619466 ns|WR-NONSEQ | F8321194 | ----- |  ? | -------- |  ----  |INCR  |    4    | 1 |           0|
                      0 :: first command
     line ::    79 :: |              619466 ns|              619706 ns|WR-DATA   | F8321194 |  1/ ? | -- | 00000003 |  OKAY  | ---- | ------- | - | ---------- |
                      ::             AHB address transfer phase detected
                      :: sequential  AHB data    transfer phase detected FIRST
                         DATA transfer assertion time :   619466 ns
                         ADDR transfer assertion time :   619461 ns
     line ::    80 :: |              619741 ns|              619746 ns|RD-NONSEQ | F8321194 | ----- |  1 | -------- |  ----  |SINGLE|    4    | 1 |           0|
                      0 :: first command
     line ::    81 :: |              619746 ns|              619981 ns|RD-DATA   | F8321194 |  1/ 1 | -- | 00000003 |  OKAY  | ---- | ------- | - | ---------- |
                      ::             AHB address transfer phase detected
                      :: sequential  AHB data    transfer phase detected FIRST
                         DATA transfer assertion time :   619746 ns
                         ADDR transfer assertion time :   619741 ns
     line ::    82 :: |              620031 ns|              620036 ns|WR-NONSEQ | F8321198 | ----- |  ? | -------- |  ----  |INCR  |    4    | 1 |           0|
                      0 :: first command
     line ::    83 :: |              620036 ns|              620306 ns|WR-DATA   | F8321198 |  1/ ? | -- | 00000003 |  OKAY  | ---- | ------- | - | ---------- |
                      ::             AHB address transfer phase detected
                      :: sequential  AHB data    transfer phase detected FIRST
                         DATA transfer assertion time :   620036 ns
                         ADDR transfer assertion time :   620031 ns
     line ::    84 :: |              620341 ns|              620346 ns|RD-NONSEQ | F8321198 | ----- |  1 | -------- |  ----  |SINGLE|    4    | 1 |           0|
                      0 :: first command
     line ::    85 :: |              620346 ns|              620621 ns|RD-DATA   | F8321198 |  1/ 1 | -- | 00000003 |  OKAY  | ---- | ------- | - | ---------- |
                      ::             AHB address transfer phase detected
                      :: sequential  AHB data    transfer phase detected FIRST
                         DATA transfer assertion time :   620346 ns
                         ADDR transfer assertion time :   620341 ns
     line ::    86 :: |              620671 ns|              620676 ns|WR-NONSEQ | F832119C | ----- |  ? | -------- |  ----  |INCR  |    4    | 1 |           0|
                      0 :: first command
     line ::    87 :: |              620676 ns|              620916 ns|WR-DATA   | F832119C |  1/ ? | -- | 00000003 |  OKAY  | ---- | ------- | - | ---------- |
                      ::             AHB address transfer phase detected
                      :: sequential  AHB data    transfer phase detected FIRST
                         DATA transfer assertion time :   620676 ns
                         ADDR transfer assertion time :   620671 ns
     line ::    88 :: |              620951 ns|              620956 ns|RD-NONSEQ | F832119C | ----- |  1 | -------- |  ----  |SINGLE|    4    | 1 |           0|
                      0 :: first command
     line ::    89 :: |              620956 ns|              621181 ns|RD-DATA   | F832119C |  1/ 1 | -- | 00000003 |  OKAY  | ---- | ------- | - | ---------- |
                      ::             AHB address transfer phase detected
                      :: sequential  AHB data    transfer phase detected FIRST
                         DATA transfer assertion time :   620956 ns
                         ADDR transfer assertion time :   620951 ns
     line ::    90 :: |              621226 ns|              621231 ns|WR-NONSEQ | F83211A0 | ----- |  ? | -------- |  ----  |INCR  |    4    | 1 |           0|
                      0 :: first command
     line ::    91 :: |              621231 ns|              621476 ns|WR-DATA   | F83211A0 |  1/ ? | -- | 00000003 |  OKAY  | ---- | ------- | - | ---------- |
                      ::             AHB address transfer phase detected
                      :: sequential  AHB data    transfer phase detected FIRST
                         DATA transfer assertion time :   621231 ns
                         ADDR transfer assertion time :   621226 ns
     line ::    92 :: |              621511 ns|              621516 ns|RD-NONSEQ | F83211A0 | ----- |  1 | -------- |  ----  |SINGLE|    4    | 1 |           0|
                      0 :: first command
     line ::    93 :: |              621516 ns|              621781 ns|RD-DATA   | F83211A0 |  1/ 1 | -- | 00000003 |  OKAY  | ---- | ------- | - | ---------- |
                      ::             AHB address transfer phase detected
                      :: sequential  AHB data    transfer phase detected FIRST
                         DATA transfer assertion time :   621516 ns
                         ADDR transfer assertion time :   621511 ns
     line ::    94 :: |              621836 ns|              621841 ns|WR-NONSEQ | F83211A4 | ----- |  ? | -------- |  ----  |INCR  |    4    | 1 |           0|
                      0 :: first command
     line ::    95 :: |              621841 ns|              622106 ns|WR-DATA   | F83211A4 |  1/ ? | -- | 00000003 |  OKAY  | ---- | ------- | - | ---------- |
                      ::             AHB address transfer phase detected
                      :: sequential  AHB data    transfer phase detected FIRST
                         DATA transfer assertion time :   621841 ns
                         ADDR transfer assertion time :   621836 ns
     line ::    96 :: |              622141 ns|              622146 ns|RD-NONSEQ | F83211A4 | ----- |  1 | -------- |  ----  |SINGLE|    4    | 1 |           0|
                      0 :: first command
     line ::    97 :: |              622146 ns|              622381 ns|RD-DATA   | F83211A4 |  1/ 1 | -- | 00000003 |  OKAY  | ---- | ------- | - | ---------- |
                      ::             AHB address transfer phase detected
                      :: sequential  AHB data    transfer phase detected FIRST
                         DATA transfer assertion time :   622146 ns
                         ADDR transfer assertion time :   622141 ns
     line ::    98 :: |              622421 ns|              622426 ns|WR-NONSEQ | F83211A8 | ----- |  ? | -------- |  ----  |INCR  |    4    | 1 |           0|
                      0 :: first command
     line ::    99 :: |              622426 ns|              622706 ns|WR-DATA   | F83211A8 |  1/ ? | -- | 00000003 |  OKAY  | ---- | ------- | - | ---------- |
                      ::             AHB address transfer phase detected
                      :: sequential  AHB data    transfer phase detected FIRST
                         DATA transfer assertion time :   622426 ns
                         ADDR transfer assertion time :   622421 ns
     line ::   100 :: |              622741 ns|              622746 ns|RD-NONSEQ | F83211A8 | ----- |  1 | -------- |  ----  |SINGLE|    4    | 1 |           0|
                      0 :: first command
     line ::   101 :: |              622746 ns|              622981 ns|RD-DATA   | F83211A8 |  1/ 1 | -- | 00000003 |  OKAY  | ---- | ------- | - | ---------- |
                      ::             AHB address transfer phase detected
                      :: sequential  AHB data    transfer phase detected FIRST
                         DATA transfer assertion time :   622746 ns
                         ADDR transfer assertion time :   622741 ns
     line ::   102 :: |              623021 ns|              623026 ns|WR-NONSEQ | F83211AC | ----- |  ? | -------- |  ----  |INCR  |    4    | 1 |           0|
                      0 :: first command
     line ::   103 :: |              623026 ns|              623266 ns|WR-DATA   | F83211AC |  1/ ? | -- | 00000003 |  OKAY  | ---- | ------- | - | ---------- |
                      ::             AHB address transfer phase detected
                      :: sequential  AHB data    transfer phase detected FIRST
                         DATA transfer assertion time :   623026 ns
                         ADDR transfer assertion time :   623021 ns
     line ::   104 :: |              623301 ns|              623306 ns|RD-NONSEQ | F83211AC | ----- |  1 | -------- |  ----  |SINGLE|    4    | 1 |           0|
                      0 :: first command
     line ::   105 :: |              623306 ns|              623541 ns|RD-DATA   | F83211AC |  1/ 1 | -- | 00000003 |  OKAY  | ---- | ------- | - | ---------- |
                      ::             AHB address transfer phase detected
                      :: sequential  AHB data    transfer phase detected FIRST
                         DATA transfer assertion time :   623306 ns
                         ADDR transfer assertion time :   623301 ns
     line ::   106 :: |              623581 ns|              623586 ns|WR-NONSEQ | F83211B0 | ----- |  ? | -------- |  ----  |INCR  |    4    | 1 |           0|
                      0 :: first command
     line ::   107 :: |              623586 ns|              623826 ns|WR-DATA   | F83211B0 |  1/ ? | -- | 00000003 |  OKAY  | ---- | ------- | - | ---------- |
                      ::             AHB address transfer phase detected
                      :: sequential  AHB data    transfer phase detected FIRST
                         DATA transfer assertion time :   623586 ns
                         ADDR transfer assertion time :   623581 ns
     line ::   108 :: |              623861 ns|              623866 ns|RD-NONSEQ | F83211B0 | ----- |  1 | -------- |  ----  |SINGLE|    4    | 1 |           0|
                      0 :: first command
     line ::   109 :: |              623866 ns|              624101 ns|RD-DATA   | F83211B0 |  1/ 1 | -- | 00000003 |  OKAY  | ---- | ------- | - | ---------- |
                      ::             AHB address transfer phase detected
                      :: sequential  AHB data    transfer phase detected FIRST
                         DATA transfer assertion time :   623866 ns
                         ADDR transfer assertion time :   623861 ns
     line ::   110 :: |              624151 ns|              624156 ns|WR-NONSEQ | F83211B8 | ----- |  ? | -------- |  ----  |INCR  |    4    | 1 |           0|
                      0 :: first command
     line ::   111 :: |              624156 ns|              624386 ns|WR-DATA   | F83211B8 |  1/ ? | -- | 00000003 |  OKAY  | ---- | ------- | - | ---------- |
                      ::             AHB address transfer phase detected
                      :: sequential  AHB data    transfer phase detected FIRST
                         DATA transfer assertion time :   624156 ns
                         ADDR transfer assertion time :   624151 ns
     line ::   112 :: |              624421 ns|              624426 ns|RD-NONSEQ | F83211B8 | ----- |  1 | -------- |  ----  |SINGLE|    4    | 1 |           0|
                      0 :: first command
     line ::   113 :: |              624426 ns|              624661 ns|RD-DATA   | F83211B8 |  1/ 1 | -- | 00000003 |  OKAY  | ---- | ------- | - | ---------- |
                      ::             AHB address transfer phase detected
                      :: sequential  AHB data    transfer phase detected FIRST
                         DATA transfer assertion time :   624426 ns
                         ADDR transfer assertion time :   624421 ns
     line ::   114 :: |              627266 ns|              627271 ns|WR-NONSEQ | F8321190 | ----- |  ? | -------- |  ----  |INCR  |    4    | 1 |           0|
                      0 :: first command
     line ::   115 :: |              627271 ns|              627506 ns|WR-DATA   | F8321190 |  1/ ? | -- | 00000003 |  OKAY  | ---- | ------- | - | ---------- |
                      ::             AHB address transfer phase detected
                      :: sequential  AHB data    transfer phase detected FIRST
                         DATA transfer assertion time :   627271 ns
                         ADDR transfer assertion time :   627266 ns
     line ::   116 :: |              627541 ns|              627546 ns|RD-NONSEQ | F8321190 | ----- |  1 | -------- |  ----  |SINGLE|    4    | 1 |           0|
                      0 :: first command
     line ::   117 :: |              627546 ns|              627791 ns|RD-DATA   | F8321190 |  1/ 1 | -- | 00000003 |  OKAY  | ---- | ------- | - | ---------- |
                      ::             AHB address transfer phase detected
                      :: sequential  AHB data    transfer phase detected FIRST
                         DATA transfer assertion time :   627546 ns
                         ADDR transfer assertion time :   627541 ns
     line ::   118 :: |              627846 ns|              627851 ns|WR-NONSEQ | F8321194 | ----- |  ? | -------- |  ----  |INCR  |    4    | 1 |           0|
                      0 :: first command
     line ::   119 :: |              627851 ns|              628106 ns|WR-DATA   | F8321194 |  1/ ? | -- | 00000003 |  OKAY  | ---- | ------- | - | ---------- |
                      ::             AHB address transfer phase detected
                      :: sequential  AHB data    transfer phase detected FIRST
                         DATA transfer assertion time :   627851 ns
                         ADDR transfer assertion time :   627846 ns
     line ::   120 :: |              628141 ns|              628146 ns|RD-NONSEQ | F8321194 | ----- |  1 | -------- |  ----  |SINGLE|    4    | 1 |           0|
                      0 :: first command
     line ::   121 :: |              628146 ns|              628421 ns|RD-DATA   | F8321194 |  1/ 1 | -- | 00000003 |  OKAY  | ---- | ------- | - | ---------- |
                      ::             AHB address transfer phase detected
                      :: sequential  AHB data    transfer phase detected FIRST
                         DATA transfer assertion time :   628146 ns
                         ADDR transfer assertion time :   628141 ns
     line ::   122 :: |              628466 ns|              628471 ns|WR-NONSEQ | F8321198 | ----- |  ? | -------- |  ----  |INCR  |    4    | 1 |           0|
                      0 :: first command
     line ::   123 :: |              628471 ns|              628706 ns|WR-DATA   | F8321198 |  1/ ? | -- | 00000003 |  OKAY  | ---- | ------- | - | ---------- |
                      ::             AHB address transfer phase detected
                      :: sequential  AHB data    transfer phase detected FIRST
                         DATA transfer assertion time :   628471 ns
                         ADDR transfer assertion time :   628466 ns
     line ::   124 :: |              628741 ns|              628746 ns|RD-NONSEQ | F8321198 | ----- |  1 | -------- |  ----  |SINGLE|    4    | 1 |           0|
                      0 :: first command
     line ::   125 :: |              628746 ns|              628991 ns|RD-DATA   | F8321198 |  1/ 1 | -- | 00000003 |  OKAY  | ---- | ------- | - | ---------- |
                      ::             AHB address transfer phase detected
                      :: sequential  AHB data    transfer phase detected FIRST
                         DATA transfer assertion time :   628746 ns
                         ADDR transfer assertion time :   628741 ns
     line ::   126 :: |              629036 ns|              629041 ns|WR-NONSEQ | F832119C | ----- |  ? | -------- |  ----  |INCR  |    4    | 1 |           0|
                      0 :: first command
     line ::   127 :: |              629041 ns|              629266 ns|WR-DATA   | F832119C |  1/ ? | -- | 00000003 |  OKAY  | ---- | ------- | - | ---------- |
                      ::             AHB address transfer phase detected
                      :: sequential  AHB data    transfer phase detected FIRST
                         DATA transfer assertion time :   629041 ns
                         ADDR transfer assertion time :   629036 ns
     line ::   128 :: |              629301 ns|              629306 ns|RD-NONSEQ | F832119C | ----- |  1 | -------- |  ----  |SINGLE|    4    | 1 |           0|
                      0 :: first command
     line ::   129 :: |              629306 ns|              629581 ns|RD-DATA   | F832119C |  1/ 1 | -- | 00000003 |  OKAY  | ---- | ------- | - | ---------- |
                      ::             AHB address transfer phase detected
                      :: sequential  AHB data    transfer phase detected FIRST
                         DATA transfer assertion time :   629306 ns
                         ADDR transfer assertion time :   629301 ns
     line ::   130 :: |              629626 ns|              629631 ns|WR-NONSEQ | F83211A0 | ----- |  ? | -------- |  ----  |INCR  |    4    | 1 |           0|
                      0 :: first command
     line ::   131 :: |              629631 ns|              629866 ns|WR-DATA   | F83211A0 |  1/ ? | -- | 00000003 |  OKAY  | ---- | ------- | - | ---------- |
                      ::             AHB address transfer phase detected
                      :: sequential  AHB data    transfer phase detected FIRST
                         DATA transfer assertion time :   629631 ns
                         ADDR transfer assertion time :   629626 ns
     line ::   132 :: |              629901 ns|              629906 ns|RD-NONSEQ | F83211A0 | ----- |  1 | -------- |  ----  |SINGLE|    4    | 1 |           0|
                      0 :: first command
     line ::   133 :: |              629906 ns|              630141 ns|RD-DATA   | F83211A0 |  1/ 1 | -- | 00000003 |  OKAY  | ---- | ------- | - | ---------- |
                      ::             AHB address transfer phase detected
                      :: sequential  AHB data    transfer phase detected FIRST
                         DATA transfer assertion time :   629906 ns
                         ADDR transfer assertion time :   629901 ns
     line ::   134 :: |              630186 ns|              630191 ns|WR-NONSEQ | F83211A4 | ----- |  ? | -------- |  ----  |INCR  |    4    | 1 |           0|
                      0 :: first command
     line ::   135 :: |              630191 ns|              630426 ns|WR-DATA   | F83211A4 |  1/ ? | -- | 00000003 |  OKAY  | ---- | ------- | - | ---------- |
                      ::             AHB address transfer phase detected
                      :: sequential  AHB data    transfer phase detected FIRST
                         DATA transfer assertion time :   630191 ns
                         ADDR transfer assertion time :   630186 ns
     line ::   136 :: |              630461 ns|              630466 ns|RD-NONSEQ | F83211A4 | ----- |  1 | -------- |  ----  |SINGLE|    4    | 1 |           0|
                      0 :: first command
     line ::   137 :: |              630466 ns|              630701 ns|RD-DATA   | F83211A4 |  1/ 1 | -- | 00000003 |  OKAY  | ---- | ------- | - | ---------- |
                      ::             AHB address transfer phase detected
                      :: sequential  AHB data    transfer phase detected FIRST
                         DATA transfer assertion time :   630466 ns
                         ADDR transfer assertion time :   630461 ns
     line ::   138 :: |              630751 ns|              630756 ns|WR-NONSEQ | F83211A8 | ----- |  ? | -------- |  ----  |INCR  |    4    | 1 |           0|
                      0 :: first command
     line ::   139 :: |              630756 ns|              631036 ns|WR-DATA   | F83211A8 |  1/ ? | -- | 00000003 |  OKAY  | ---- | ------- | - | ---------- |
                      ::             AHB address transfer phase detected
                      :: sequential  AHB data    transfer phase detected FIRST
                         DATA transfer assertion time :   630756 ns
                         ADDR transfer assertion time :   630751 ns
     line ::   140 :: |              631071 ns|              631076 ns|RD-NONSEQ | F83211A8 | ----- |  1 | -------- |  ----  |SINGLE|    4    | 1 |           0|
                      0 :: first command
     line ::   141 :: |              631076 ns|              631301 ns|RD-DATA   | F83211A8 |  1/ 1 | -- | 00000003 |  OKAY  | ---- | ------- | - | ---------- |
                      ::             AHB address transfer phase detected
                      :: sequential  AHB data    transfer phase detected FIRST
                         DATA transfer assertion time :   631076 ns
                         ADDR transfer assertion time :   631071 ns
     line ::   142 :: |              631356 ns|              631361 ns|WR-NONSEQ | F83211AC | ----- |  ? | -------- |  ----  |INCR  |    4    | 1 |           0|
                      0 :: first command
     line ::   143 :: |              631361 ns|              631586 ns|WR-DATA   | F83211AC |  1/ ? | -- | 00000003 |  OKAY  | ---- | ------- | - | ---------- |
                      ::             AHB address transfer phase detected
                      :: sequential  AHB data    transfer phase detected FIRST
                         DATA transfer assertion time :   631361 ns
                         ADDR transfer assertion time :   631356 ns
     line ::   144 :: |              631621 ns|              631626 ns|RD-NONSEQ | F83211AC | ----- |  1 | -------- |  ----  |SINGLE|    4    | 1 |           0|
                      0 :: first command
     line ::   145 :: |              631626 ns|              631861 ns|RD-DATA   | F83211AC |  1/ 1 | -- | 00000003 |  OKAY  | ---- | ------- | - | ---------- |
                      ::             AHB address transfer phase detected
                      :: sequential  AHB data    transfer phase detected FIRST
                         DATA transfer assertion time :   631626 ns
                         ADDR transfer assertion time :   631621 ns
     line ::   146 :: |              631906 ns|              631911 ns|WR-NONSEQ | F83211B0 | ----- |  ? | -------- |  ----  |INCR  |    4    | 1 |           0|
                      0 :: first command
     line ::   147 :: |              631911 ns|              632146 ns|WR-DATA   | F83211B0 |  1/ ? | -- | 00000003 |  OKAY  | ---- | ------- | - | ---------- |
                      ::             AHB address transfer phase detected
                      :: sequential  AHB data    transfer phase detected FIRST
                         DATA transfer assertion time :   631911 ns
                         ADDR transfer assertion time :   631906 ns
     line ::   148 :: |              632181 ns|              632186 ns|RD-NONSEQ | F83211B0 | ----- |  1 | -------- |  ----  |SINGLE|    4    | 1 |           0|
                      0 :: first command
     line ::   149 :: |              632186 ns|              632461 ns|RD-DATA   | F83211B0 |  1/ 1 | -- | 00000003 |  OKAY  | ---- | ------- | - | ---------- |
                      ::             AHB address transfer phase detected
                      :: sequential  AHB data    transfer phase detected FIRST
                         DATA transfer assertion time :   632186 ns
                         ADDR transfer assertion time :   632181 ns
     line ::   150 :: |              632511 ns|              632516 ns|WR-NONSEQ | F83211B8 | ----- |  ? | -------- |  ----  |INCR  |    4    | 1 |           0|
                      0 :: first command
     line ::   151 :: |              632516 ns|              632786 ns|WR-DATA   | F83211B8 |  1/ ? | -- | 00000003 |  OKAY  | ---- | ------- | - | ---------- |
                      ::             AHB address transfer phase detected
                      :: sequential  AHB data    transfer phase detected FIRST
                         DATA transfer assertion time :   632516 ns
                         ADDR transfer assertion time :   632511 ns
     line ::   152 :: |              632821 ns|              632826 ns|RD-NONSEQ | F83211B8 | ----- |  1 | -------- |  ----  |SINGLE|    4    | 1 |           0|
                      0 :: first command
     line ::   153 :: |              632826 ns|              633061 ns|RD-DATA   | F83211B8 |  1/ 1 | -- | 00000003 |  OKAY  | ---- | ------- | - | ---------- |
                      ::             AHB address transfer phase detected
                      :: sequential  AHB data    transfer phase detected FIRST
                         DATA transfer assertion time :   632826 ns
                         ADDR transfer assertion time :   632821 ns
     line ::   154 :: |              875821 ns|              875826 ns|RD-NONSEQ | F8316CB8 | ----- |  1 | -------- |  ----  |SINGLE|    4    | 1 |           0|
                      0 :: first command
     line ::   155 :: |              875826 ns|              875911 ns|RD-DATA   | F8316CB8 |  1/ 1 | -- | 00000000 |  OKAY  | ---- | ------- | - | ---------- |
                      ::             AHB address transfer phase detected
                      :: sequential  AHB data    transfer phase detected FIRST
                         DATA transfer assertion time :   875826 ns
                         ADDR transfer assertion time :   875821 ns
     line ::   156 :: |              875946 ns|              875951 ns|RD-NONSEQ | F8316CBC | ----- |  1 | -------- |  ----  |SINGLE|    4    | 1 |           0|
                      0 :: first command
     line ::   157 :: |              875951 ns|              876031 ns|RD-DATA   | F8316CBC |  1/ 1 | -- | 00000000 |  OKAY  | ---- | ------- | - | ---------- |
                      ::             AHB address transfer phase detected
                      :: sequential  AHB data    transfer phase detected FIRST
                         DATA transfer assertion time :   875951 ns
                         ADDR transfer assertion time :   875946 ns
     line ::   158 :: |              876066 ns|              876071 ns|RD-NONSEQ | F8316CCC | ----- |  1 | -------- |  ----  |SINGLE|    4    | 1 |           0|
                      0 :: first command
     line ::   159 :: |              876071 ns|              876151 ns|RD-DATA   | F8316CCC |  1/ 1 | -- | 00000000 |  OKAY  | ---- | ------- | - | ---------- |
                      ::             AHB address transfer phase detected
                      :: sequential  AHB data    transfer phase detected FIRST
                         DATA transfer assertion time :   876071 ns
                         ADDR transfer assertion time :   876066 ns
     line ::   160 :: |              876186 ns|              876191 ns|RD-NONSEQ | F8316CD0 | ----- |  1 | -------- |  ----  |SINGLE|    4    | 1 |           0|
                      0 :: first command
     line ::   161 :: |              876191 ns|              876271 ns|RD-DATA   | F8316CD0 |  1/ 1 | -- | 00000000 |  OKAY  | ---- | ------- | - | ---------- |
                      ::             AHB address transfer phase detected
                      :: sequential  AHB data    transfer phase detected FIRST
                         DATA transfer assertion time :   876191 ns
                         ADDR transfer assertion time :   876186 ns
     line ::   162 :: |              876306 ns|              876311 ns|RD-NONSEQ | F8316CE0 | ----- |  1 | -------- |  ----  |SINGLE|    4    | 1 |           0|
                      0 :: first command
     line ::   163 :: |              876311 ns|              876391 ns|RD-DATA   | F8316CE0 |  1/ 1 | -- | 00000000 |  OKAY  | ---- | ------- | - | ---------- |
                      ::             AHB address transfer phase detected
                      :: sequential  AHB data    transfer phase detected FIRST
                         DATA transfer assertion time :   876311 ns
                         ADDR transfer assertion time :   876306 ns
     line ::   164 :: |              876426 ns|              876431 ns|RD-NONSEQ | F8316CE4 | ----- |  1 | -------- |  ----  |SINGLE|    4    | 1 |           0|
                      0 :: first command
     line ::   165 :: |              876431 ns|              876521 ns|RD-DATA   | F8316CE4 |  1/ 1 | -- | 00000000 |  OKAY  | ---- | ------- | - | ---------- |
                      ::             AHB address transfer phase detected
                      :: sequential  AHB data    transfer phase detected FIRST
                         DATA transfer assertion time :   876431 ns
                         ADDR transfer assertion time :   876426 ns
     line ::   166 :: |              876556 ns|              876561 ns|RD-NONSEQ | F8316CF4 | ----- |  1 | -------- |  ----  |SINGLE|    4    | 1 |           0|
                      0 :: first command
     line ::   167 :: |              876561 ns|              876641 ns|RD-DATA   | F8316CF4 |  1/ 1 | -- | 00000000 |  OKAY  | ---- | ------- | - | ---------- |
                      ::             AHB address transfer phase detected
                      :: sequential  AHB data    transfer phase detected FIRST
                         DATA transfer assertion time :   876561 ns
                         ADDR transfer assertion time :   876556 ns
     line ::   168 :: |              876676 ns|              876681 ns|RD-NONSEQ | F8316CF8 | ----- |  1 | -------- |  ----  |SINGLE|    4    | 1 |           0|
                      0 :: first command
     line ::   169 :: |              876681 ns|              876761 ns|RD-DATA   | F8316CF8 |  1/ 1 | -- | 00000000 |  OKAY  | ---- | ------- | - | ---------- |
                      ::             AHB address transfer phase detected
                      :: sequential  AHB data    transfer phase detected FIRST
                         DATA transfer assertion time :   876681 ns
                         ADDR transfer assertion time :   876676 ns
     line ::   170 :: |              876796 ns|              876801 ns|RD-NONSEQ | F8316D08 | ----- |  1 | -------- |  ----  |SINGLE|    4    | 1 |           0|
                      0 :: first command
     line ::   171 :: |              876801 ns|              876881 ns|RD-DATA   | F8316D08 |  1/ 1 | -- | 00000000 |  OKAY  | ---- | ------- | - | ---------- |
                      ::             AHB address transfer phase detected
                      :: sequential  AHB data    transfer phase detected FIRST
                         DATA transfer assertion time :   876801 ns
                         ADDR transfer assertion time :   876796 ns
     line ::   172 :: |              876916 ns|              876921 ns|RD-NONSEQ | F8316D0C | ----- |  1 | -------- |  ----  |SINGLE|    4    | 1 |           0|
                      0 :: first command
     line ::   173 :: |              876921 ns|              877001 ns|RD-DATA   | F8316D0C |  1/ 1 | -- | 00000000 |  OKAY  | ---- | ------- | - | ---------- |
                      ::             AHB address transfer phase detected
                      :: sequential  AHB data    transfer phase detected FIRST
                         DATA transfer assertion time :   876921 ns
                         ADDR transfer assertion time :   876916 ns
     line ::   174 :: |              877036 ns|              877041 ns|RD-NONSEQ | F8316D1C | ----- |  1 | -------- |  ----  |SINGLE|    4    | 1 |           0|
                      0 :: first command
     line ::   175 :: |              877041 ns|              877121 ns|RD-DATA   | F8316D1C |  1/ 1 | -- | 00000000 |  OKAY  | ---- | ------- | - | ---------- |
                      ::             AHB address transfer phase detected
                      :: sequential  AHB data    transfer phase detected FIRST
                         DATA transfer assertion time :   877041 ns
                         ADDR transfer assertion time :   877036 ns
     line ::   176 :: |              877156 ns|              877161 ns|RD-NONSEQ | F8316D20 | ----- |  1 | -------- |  ----  |SINGLE|    4    | 1 |           0|
                      0 :: first command
     line ::   177 :: |              877161 ns|              877251 ns|RD-DATA   | F8316D20 |  1/ 1 | -- | 00000000 |  OKAY  | ---- | ------- | - | ---------- |
                      ::             AHB address transfer phase detected
                      :: sequential  AHB data    transfer phase detected FIRST
                         DATA transfer assertion time :   877161 ns
                         ADDR transfer assertion time :   877156 ns
     line ::   178 :: |              877286 ns|              877291 ns|RD-NONSEQ | F8316D30 | ----- |  1 | -------- |  ----  |SINGLE|    4    | 1 |           0|
                      0 :: first command
     line ::   179 :: |              877291 ns|              877371 ns|RD-DATA   | F8316D30 |  1/ 1 | -- | 00000000 |  OKAY  | ---- | ------- | - | ---------- |
                      ::             AHB address transfer phase detected
                      :: sequential  AHB data    transfer phase detected FIRST
                         DATA transfer assertion time :   877291 ns
                         ADDR transfer assertion time :   877286 ns
     line ::   180 :: |              877406 ns|              877411 ns|RD-NONSEQ | F8316D34 | ----- |  1 | -------- |  ----  |SINGLE|    4    | 1 |           0|
                      0 :: first command
     line ::   181 :: |              877411 ns|              877491 ns|RD-DATA   | F8316D34 |  1/ 1 | -- | 00000000 |  OKAY  | ---- | ------- | - | ---------- |
                      ::             AHB address transfer phase detected
                      :: sequential  AHB data    transfer phase detected FIRST
                         DATA transfer assertion time :   877411 ns
                         ADDR transfer assertion time :   877406 ns
     line ::   182 :: |              877526 ns|              877531 ns|RD-NONSEQ | F8316D44 | ----- |  1 | -------- |  ----  |SINGLE|    4    | 1 |           0|
                      0 :: first command
     line ::   183 :: |              877531 ns|              877621 ns|RD-DATA   | F8316D44 |  1/ 1 | -- | 48250018 |  OKAY  | ---- | ------- | - | ---------- |
                      ::             AHB address transfer phase detected
                      :: sequential  AHB data    transfer phase detected FIRST
                         DATA transfer assertion time :   877531 ns
                         ADDR transfer assertion time :   877526 ns
     line ::   184 :: |              877656 ns|              877661 ns|RD-NONSEQ | F8316D48 | ----- |  1 | -------- |  ----  |SINGLE|    4    | 1 |           0|
                      0 :: first command
     line ::   185 :: |              877661 ns|              877741 ns|RD-DATA   | F8316D48 |  1/ 1 | -- | 00000000 |  OKAY  | ---- | ------- | - | ---------- |
                      ::             AHB address transfer phase detected
                      :: sequential  AHB data    transfer phase detected FIRST
                         DATA transfer assertion time :   877661 ns
                         ADDR transfer assertion time :   877656 ns
     line ::   186 :: |              877776 ns|              877781 ns|RD-NONSEQ | F8316D58 | ----- |  1 | -------- |  ----  |SINGLE|    4    | 1 |           0|
                      0 :: first command
     line ::   187 :: |              877781 ns|              877861 ns|RD-DATA   | F8316D58 |  1/ 1 | -- | 00000000 |  OKAY  | ---- | ------- | - | ---------- |
                      ::             AHB address transfer phase detected
                      :: sequential  AHB data    transfer phase detected FIRST
                         DATA transfer assertion time :   877781 ns
                         ADDR transfer assertion time :   877776 ns
     line ::   188 :: |              877896 ns|              877901 ns|RD-NONSEQ | F8316D5C | ----- |  1 | -------- |  ----  |SINGLE|    4    | 1 |           0|
                      0 :: first command
     line ::   189 :: |              877901 ns|              878001 ns|RD-DATA   | F8316D5C |  1/ 1 | -- | 00000000 |  OKAY  | ---- | ------- | - | ---------- |
                      ::             AHB address transfer phase detected
                      :: sequential  AHB data    transfer phase detected FIRST
                         DATA transfer assertion time :   877901 ns
                         ADDR transfer assertion time :   877896 ns
     line ::   190 :: |              878036 ns|              878041 ns|RD-NONSEQ | F8316D6C | ----- |  1 | -------- |  ----  |SINGLE|    4    | 1 |           0|
                      0 :: first command
     line ::   191 :: |              878041 ns|              878121 ns|RD-DATA   | F8316D6C |  1/ 1 | -- | 00000000 |  OKAY  | ---- | ------- | - | ---------- |
                      ::             AHB address transfer phase detected
                      :: sequential  AHB data    transfer phase detected FIRST
                         DATA transfer assertion time :   878041 ns
                         ADDR transfer assertion time :   878036 ns
     line ::   192 :: |              878156 ns|              878161 ns|RD-NONSEQ | F8316D70 | ----- |  1 | -------- |  ----  |SINGLE|    4    | 1 |           0|
                      0 :: first command
     line ::   193 :: |              878161 ns|              878251 ns|RD-DATA   | F8316D70 |  1/ 1 | -- | 00000000 |  OKAY  | ---- | ------- | - | ---------- |
                      ::             AHB address transfer phase detected
                      :: sequential  AHB data    transfer phase detected FIRST
                         DATA transfer assertion time :   878161 ns
                         ADDR transfer assertion time :   878156 ns
     line ::   194 :: |              878286 ns|              878291 ns|RD-NONSEQ | F8316D80 | ----- |  1 | -------- |  ----  |SINGLE|    4    | 1 |           0|
                      0 :: first command
     line ::   195 :: |              878291 ns|              878381 ns|RD-DATA   | F8316D80 |  1/ 1 | -- | F8316D80 |  OKAY  | ---- | ------- | - | ---------- |
                      ::             AHB address transfer phase detected
                      :: sequential  AHB data    transfer phase detected FIRST
                         DATA transfer assertion time :   878291 ns
                         ADDR transfer assertion time :   878286 ns
     line ::   196 :: |              878416 ns|              878421 ns|RD-NONSEQ | F8316D84 | ----- |  1 | -------- |  ----  |SINGLE|    4    | 1 |           0|
                      0 :: first command
     line ::   197 :: |              878421 ns|              878511 ns|RD-DATA   | F8316D84 |  1/ 1 | -- | 00000000 |  OKAY  | ---- | ------- | - | ---------- |
                      ::             AHB address transfer phase detected
                      :: sequential  AHB data    transfer phase detected FIRST
                         DATA transfer assertion time :   878421 ns
                         ADDR transfer assertion time :   878416 ns
     line ::   198 :: |              878546 ns|              878551 ns|RD-NONSEQ | F8316D94 | ----- |  1 | -------- |  ----  |SINGLE|    4    | 1 |           0|
                      0 :: first command
     line ::   199 :: |              878551 ns|              878631 ns|RD-DATA   | F8316D94 |  1/ 1 | -- | 00000000 |  OKAY  | ---- | ------- | - | ---------- |
                      ::             AHB address transfer phase detected
                      :: sequential  AHB data    transfer phase detected FIRST
                         DATA transfer assertion time :   878551 ns
                         ADDR transfer assertion time :   878546 ns
     line ::   200 :: |              878666 ns|              878671 ns|RD-NONSEQ | F8316D98 | ----- |  1 | -------- |  ----  |SINGLE|    4    | 1 |           0|
                      0 :: first command
     line ::   201 :: |              878671 ns|              878761 ns|RD-DATA   | F8316D98 |  1/ 1 | -- | 00000000 |  OKAY  | ---- | ------- | - | ---------- |
                      ::             AHB address transfer phase detected
                      :: sequential  AHB data    transfer phase detected FIRST
                         DATA transfer assertion time :   878671 ns
                         ADDR transfer assertion time :   878666 ns
     line ::   202 :: |              878796 ns|              878801 ns|RD-NONSEQ | F8316DA8 | ----- |  1 | -------- |  ----  |SINGLE|    4    | 1 |           0|
                      0 :: first command
     line ::   203 :: |              878801 ns|              878891 ns|RD-DATA   | F8316DA8 |  1/ 1 | -- | 00000000 |  OKAY  | ---- | ------- | - | ---------- |
                      ::             AHB address transfer phase detected
                      :: sequential  AHB data    transfer phase detected FIRST
                         DATA transfer assertion time :   878801 ns
                         ADDR transfer assertion time :   878796 ns
     line ::   204 :: |              878926 ns|              878931 ns|RD-NONSEQ | F8316DAC | ----- |  1 | -------- |  ----  |SINGLE|    4    | 1 |           0|
                      0 :: first command
     line ::   205 :: |              878931 ns|              879011 ns|RD-DATA   | F8316DAC |  1/ 1 | -- | 00000000 |  OKAY  | ---- | ------- | - | ---------- |
                      ::             AHB address transfer phase detected
                      :: sequential  AHB data    transfer phase detected FIRST
                         DATA transfer assertion time :   878931 ns
                         ADDR transfer assertion time :   878926 ns
     line ::   206 :: |              879046 ns|              879051 ns|RD-NONSEQ | F8316DBC | ----- |  1 | -------- |  ----  |SINGLE|    4    | 1 |           0|
                      0 :: first command
     line ::   207 :: |              879051 ns|              879131 ns|RD-DATA   | F8316DBC |  1/ 1 | -- | 00000000 |  OKAY  | ---- | ------- | - | ---------- |
                      ::             AHB address transfer phase detected
                      :: sequential  AHB data    transfer phase detected FIRST
                         DATA transfer assertion time :   879051 ns
                         ADDR transfer assertion time :   879046 ns
     line ::   208 :: |              879166 ns|              879171 ns|RD-NONSEQ | F8316DC0 | ----- |  1 | -------- |  ----  |SINGLE|    4    | 1 |           0|
                      0 :: first command
     line ::   209 :: |              879171 ns|              879261 ns|RD-DATA   | F8316DC0 |  1/ 1 | -- | 00000000 |  OKAY  | ---- | ------- | - | ---------- |
                      ::             AHB address transfer phase detected
                      :: sequential  AHB data    transfer phase detected FIRST
                         DATA transfer assertion time :   879171 ns
                         ADDR transfer assertion time :   879166 ns
     line ::   210 :: |              879296 ns|              879301 ns|RD-NONSEQ | F8316DD0 | ----- |  1 | -------- |  ----  |SINGLE|    4    | 1 |           0|
                      0 :: first command
     line ::   211 :: |              879301 ns|              879391 ns|RD-DATA   | F8316DD0 |  1/ 1 | -- | 00000000 |  OKAY  | ---- | ------- | - | ---------- |
                      ::             AHB address transfer phase detected
                      :: sequential  AHB data    transfer phase detected FIRST
                         DATA transfer assertion time :   879301 ns
                         ADDR transfer assertion time :   879296 ns
     line ::   212 :: |              879426 ns|              879431 ns|RD-NONSEQ | F8316DD4 | ----- |  1 | -------- |  ----  |SINGLE|    4    | 1 |           0|
                      0 :: first command
     line ::   213 :: |              879431 ns|              879511 ns|RD-DATA   | F8316DD4 |  1/ 1 | -- | 00000000 |  OKAY  | ---- | ------- | - | ---------- |
                      ::             AHB address transfer phase detected
                      :: sequential  AHB data    transfer phase detected FIRST
                         DATA transfer assertion time :   879431 ns
                         ADDR transfer assertion time :   879426 ns
     line ::   214 :: |              879546 ns|              879551 ns|RD-NONSEQ | F8316DE4 | ----- |  1 | -------- |  ----  |SINGLE|    4    | 1 |           0|
                      0 :: first command
     line ::   215 :: |              879551 ns|              879631 ns|RD-DATA   | F8316DE4 |  1/ 1 | -- | 00000000 |  OKAY  | ---- | ------- | - | ---------- |
                      ::             AHB address transfer phase detected
                      :: sequential  AHB data    transfer phase detected FIRST
                         DATA transfer assertion time :   879551 ns
                         ADDR transfer assertion time :   879546 ns
     line ::   216 :: |              879666 ns|              879671 ns|RD-NONSEQ | F8316DE8 | ----- |  1 | -------- |  ----  |SINGLE|    4    | 1 |           0|
                      0 :: first command
     line ::   217 :: |              879671 ns|              879751 ns|RD-DATA   | F8316DE8 |  1/ 1 | -- | 00000000 |  OKAY  | ---- | ------- | - | ---------- |
                      ::             AHB address transfer phase detected
                      :: sequential  AHB data    transfer phase detected FIRST
                         DATA transfer assertion time :   879671 ns
                         ADDR transfer assertion time :   879666 ns
     line ::   218 :: |              879786 ns|              879791 ns|RD-NONSEQ | F8316DF8 | ----- |  1 | -------- |  ----  |SINGLE|    4    | 1 |           0|
                      0 :: first command
     line ::   219 :: |              879791 ns|              879881 ns|RD-DATA   | F8316DF8 |  1/ 1 | -- | 00000000 |  OKAY  | ---- | ------- | - | ---------- |
                      ::             AHB address transfer phase detected
                      :: sequential  AHB data    transfer phase detected FIRST
                         DATA transfer assertion time :   879791 ns
                         ADDR transfer assertion time :   879786 ns
     line ::   220 :: |              879916 ns|              879921 ns|RD-NONSEQ | F8316DFC | ----- |  1 | -------- |  ----  |SINGLE|    4    | 1 |           0|
                      0 :: first command
     line ::   221 :: |              879921 ns|              880001 ns|RD-DATA   | F8316DFC |  1/ 1 | -- | 00000000 |  OKAY  | ---- | ------- | - | ---------- |
                      ::             AHB address transfer phase detected
                      :: sequential  AHB data    transfer phase detected FIRST
                         DATA transfer assertion time :   879921 ns
                         ADDR transfer assertion time :   879916 ns
     line ::   222 :: |              880036 ns|              880041 ns|RD-NONSEQ | F8316E0C | ----- |  1 | -------- |  ----  |SINGLE|    4    | 1 |           0|
                      0 :: first command
     line ::   223 :: |              880041 ns|              880131 ns|RD-DATA   | F8316E0C |  1/ 1 | -- | 00000000 |  OKAY  | ---- | ------- | - | ---------- |
                      ::             AHB address transfer phase detected
                      :: sequential  AHB data    transfer phase detected FIRST
                         DATA transfer assertion time :   880041 ns
                         ADDR transfer assertion time :   880036 ns
     line ::   224 :: |              880166 ns|              880171 ns|RD-NONSEQ | F8316E10 | ----- |  1 | -------- |  ----  |SINGLE|    4    | 1 |           0|
                      0 :: first command
     line ::   225 :: |              880171 ns|              880271 ns|RD-DATA   | F8316E10 |  1/ 1 | -- | 00000000 |  OKAY  | ---- | ------- | - | ---------- |
                      ::             AHB address transfer phase detected
                      :: sequential  AHB data    transfer phase detected FIRST
                         DATA transfer assertion time :   880171 ns
                         ADDR transfer assertion time :   880166 ns
     line ::   226 :: |              880306 ns|              880311 ns|RD-NONSEQ | F8316E20 | ----- |  1 | -------- |  ----  |SINGLE|    4    | 1 |           0|
                      0 :: first command
     line ::   227 :: |              880311 ns|              880391 ns|RD-DATA   | F8316E20 |  1/ 1 | -- | 3FF1140D |  OKAY  | ---- | ------- | - | ---------- |
                      ::             AHB address transfer phase detected
                      :: sequential  AHB data    transfer phase detected FIRST
                         DATA transfer assertion time :   880311 ns
                         ADDR transfer assertion time :   880306 ns
     line ::   228 :: |              880426 ns|              880431 ns|RD-NONSEQ | F8316E24 | ----- |  1 | -------- |  ----  |SINGLE|    4    | 1 |           0|
                      0 :: first command
     line ::   229 :: |              880431 ns|              880521 ns|RD-DATA   | F8316E24 |  1/ 1 | -- | 00000000 |  OKAY  | ---- | ------- | - | ---------- |
                      ::             AHB address transfer phase detected
                      :: sequential  AHB data    transfer phase detected FIRST
                         DATA transfer assertion time :   880431 ns
                         ADDR transfer assertion time :   880426 ns
     line ::   230 :: |              880556 ns|              880561 ns|RD-NONSEQ | F8316E34 | ----- |  1 | -------- |  ----  |SINGLE|    4    | 1 |           0|
                      0 :: first command
     line ::   231 :: |              880561 ns|              880641 ns|RD-DATA   | F8316E34 |  1/ 1 | -- | 00000000 |  OKAY  | ---- | ------- | - | ---------- |
                      ::             AHB address transfer phase detected
                      :: sequential  AHB data    transfer phase detected FIRST
                         DATA transfer assertion time :   880561 ns
                         ADDR transfer assertion time :   880556 ns
     line ::   232 :: |              880676 ns|              880681 ns|RD-NONSEQ | F8316E38 | ----- |  1 | -------- |  ----  |SINGLE|    4    | 1 |           0|
                      0 :: first command
     line ::   233 :: |              880681 ns|              880761 ns|RD-DATA   | F8316E38 |  1/ 1 | -- | 00000000 |  OKAY  | ---- | ------- | - | ---------- |
                      ::             AHB address transfer phase detected
                      :: sequential  AHB data    transfer phase detected FIRST
                         DATA transfer assertion time :   880681 ns
                         ADDR transfer assertion time :   880676 ns
     line ::   234 :: |              880796 ns|              880801 ns|RD-NONSEQ | F8316E48 | ----- |  1 | -------- |  ----  |SINGLE|    4    | 1 |           0|
                      0 :: first command
     line ::   235 :: |              880801 ns|              880881 ns|RD-DATA   | F8316E48 |  1/ 1 | -- | 00000000 |  OKAY  | ---- | ------- | - | ---------- |
                      ::             AHB address transfer phase detected
                      :: sequential  AHB data    transfer phase detected FIRST
                         DATA transfer assertion time :   880801 ns
                         ADDR transfer assertion time :   880796 ns
     line ::   236 :: |              880916 ns|              880921 ns|RD-NONSEQ | F8316E4C | ----- |  1 | -------- |  ----  |SINGLE|    4    | 1 |           0|
                      0 :: first command
     line ::   237 :: |              880921 ns|              881011 ns|RD-DATA   | F8316E4C |  1/ 1 | -- | 00000000 |  OKAY  | ---- | ------- | - | ---------- |
                      ::             AHB address transfer phase detected
                      :: sequential  AHB data    transfer phase detected FIRST
                         DATA transfer assertion time :   880921 ns
                         ADDR transfer assertion time :   880916 ns
     line ::   238 :: |              881046 ns|              881051 ns|RD-NONSEQ | F8316E5C | ----- |  1 | -------- |  ----  |SINGLE|    4    | 1 |           0|
                      0 :: first command
     line ::   239 :: |              881051 ns|              881141 ns|RD-DATA   | F8316E5C |  1/ 1 | -- | 00000000 |  OKAY  | ---- | ------- | - | ---------- |
                      ::             AHB address transfer phase detected
                      :: sequential  AHB data    transfer phase detected FIRST
                         DATA transfer assertion time :   881051 ns
                         ADDR transfer assertion time :   881046 ns
     line ::   240 :: |              881176 ns|              881181 ns|RD-NONSEQ | F8316E60 | ----- |  1 | -------- |  ----  |SINGLE|    4    | 1 |           0|
                      0 :: first command
     line ::   241 :: |              881181 ns|              881261 ns|RD-DATA   | F8316E60 |  1/ 1 | -- | 00000000 |  OKAY  | ---- | ------- | - | ---------- |
                      ::             AHB address transfer phase detected
                      :: sequential  AHB data    transfer phase detected FIRST
                         DATA transfer assertion time :   881181 ns
                         ADDR transfer assertion time :   881176 ns
     line ::   242 :: |              881296 ns|              881301 ns|RD-NONSEQ | F8316E70 | ----- |  1 | -------- |  ----  |SINGLE|    4    | 1 |           0|
                      0 :: first command
     line ::   243 :: |              881301 ns|              881391 ns|RD-DATA   | F8316E70 |  1/ 1 | -- | 00000000 |  OKAY  | ---- | ------- | - | ---------- |
                      ::             AHB address transfer phase detected
                      :: sequential  AHB data    transfer phase detected FIRST
                         DATA transfer assertion time :   881301 ns
                         ADDR transfer assertion time :   881296 ns
     line ::   244 :: |              881426 ns|              881431 ns|RD-NONSEQ | F8316E74 | ----- |  1 | -------- |  ----  |SINGLE|    4    | 1 |           0|
                      0 :: first command
     line ::   245 :: |              881431 ns|              881511 ns|RD-DATA   | F8316E74 |  1/ 1 | -- | 00000000 |  OKAY  | ---- | ------- | - | ---------- |
                      ::             AHB address transfer phase detected
                      :: sequential  AHB data    transfer phase detected FIRST
                         DATA transfer assertion time :   881431 ns
                         ADDR transfer assertion time :   881426 ns
     line ::   246 :: |              881546 ns|              881551 ns|RD-NONSEQ | F8316E84 | ----- |  1 | -------- |  ----  |SINGLE|    4    | 1 |           0|
                      0 :: first command
     line ::   247 :: |              881551 ns|              881641 ns|RD-DATA   | F8316E84 |  1/ 1 | -- | 00000000 |  OKAY  | ---- | ------- | - | ---------- |
                      ::             AHB address transfer phase detected
                      :: sequential  AHB data    transfer phase detected FIRST
                         DATA transfer assertion time :   881551 ns
                         ADDR transfer assertion time :   881546 ns
     line ::   248 :: |              881676 ns|              881681 ns|RD-NONSEQ | F8316E88 | ----- |  1 | -------- |  ----  |SINGLE|    4    | 1 |           0|
                      0 :: first command
     line ::   249 :: |              881681 ns|              881771 ns|RD-DATA   | F8316E88 |  1/ 1 | -- | 00000000 |  OKAY  | ---- | ------- | - | ---------- |
                      ::             AHB address transfer phase detected
                      :: sequential  AHB data    transfer phase detected FIRST
                         DATA transfer assertion time :   881681 ns
                         ADDR transfer assertion time :   881676 ns
     line ::   250 :: |              881806 ns|              881811 ns|RD-NONSEQ | F8316E98 | ----- |  1 | -------- |  ----  |SINGLE|    4    | 1 |           0|
                      0 :: first command
     line ::   251 :: |              881811 ns|              881891 ns|RD-DATA   | F8316E98 |  1/ 1 | -- | 00000000 |  OKAY  | ---- | ------- | - | ---------- |
                      ::             AHB address transfer phase detected
                      :: sequential  AHB data    transfer phase detected FIRST
                         DATA transfer assertion time :   881811 ns
                         ADDR transfer assertion time :   881806 ns
     line ::   252 :: |              881926 ns|              881931 ns|RD-NONSEQ | F8316E9C | ----- |  1 | -------- |  ----  |SINGLE|    4    | 1 |           0|
                      0 :: first command
     line ::   253 :: |              881931 ns|              882011 ns|RD-DATA   | F8316E9C |  1/ 1 | -- | 00000000 |  OKAY  | ---- | ------- | - | ---------- |
                      ::             AHB address transfer phase detected
                      :: sequential  AHB data    transfer phase detected FIRST
                         DATA transfer assertion time :   881931 ns
                         ADDR transfer assertion time :   881926 ns
     line ::   254 :: |              882046 ns|              882051 ns|RD-NONSEQ | F8316EAC | ----- |  1 | -------- |  ----  |SINGLE|    4    | 1 |           0|
                      0 :: first command
     line ::   255 :: |              882051 ns|              882131 ns|RD-DATA   | F8316EAC |  1/ 1 | -- | 00000000 |  OKAY  | ---- | ------- | - | ---------- |
                      ::             AHB address transfer phase detected
                      :: sequential  AHB data    transfer phase detected FIRST
                         DATA transfer assertion time :   882051 ns
                         ADDR transfer assertion time :   882046 ns
     line ::   256 :: |              882166 ns|              882171 ns|RD-NONSEQ | F8316EB0 | ----- |  1 | -------- |  ----  |SINGLE|    4    | 1 |           0|
                      0 :: first command
     line ::   257 :: |              882171 ns|              882251 ns|RD-DATA   | F8316EB0 |  1/ 1 | -- | 00000000 |  OKAY  | ---- | ------- | - | ---------- |
                      ::             AHB address transfer phase detected
                      :: sequential  AHB data    transfer phase detected FIRST
                         DATA transfer assertion time :   882171 ns
                         ADDR transfer assertion time :   882166 ns
 ... TABLE  decoding done
