   Picked  : Instance: uvm_test_top.top_env_i.ahbfab_env_i.mvc_ahb_mon_6_env_i.logger_handle_ahb :: Header
             Instance: uvm_test_top.top_env_i.ahbfab_env_i.mvc_ahb_mon_6_env_i.logger_handle_ahb
   Picked  : AHB Clk Cycle = 40 ns; AHB Clk Frequency = 25.00 MHz; Data bus width = 32 bits
             AHB Clk Cycle = 40 ns; AHB Clk Frequency = 25.00 MHz; Data bus width = 32 bits
   Skipped : ------------------------------------------------------------------------------------------------------------------------------------------
   Skipped : |NONSEQ/SEQ Assert Time |  HREADY Assert Time   |  DIR     |   ADDR   | BEAT  |  L |   DATA   |  RESP  | BURST| BURST   | H |    HSEL    |
   Skipped : |                       |                       |   -      |          |  NUM  |  E |          |        | Type | Size    | P |   (SLAVE   |
   Skipped : |                       |                       | PHASE    |          |       |  N |          |        |      |= 2^HSIZE| R |    INDEX)  |
   Skipped : |                       |                       |          |          |       |    |          |        |      | bytes   | O |            |
   Skipped : |                       |                       |          |          |       |    |          |        |      |         | T |            |
   Skipped : |                       |                       |          |          |       |    |          |        |      |         |   |            |
   Skipped : ------------------------------------------------------------------------------------------------------------------------------------------
   Picked  : |              606580 ns|              606585 ns|RD-NONSEQ | F8315248 | ----- |  1 | -------- |  ----  |SINGLE|    4    | 1 |           0|
             |              606580 ns|              606585 ns|RD-NONSEQ | F8315248 | ----- |  1 | -------- |  ----  |SINGLE|    4    | 1 |           0|
   Picked  : |              606585 ns|              606720 ns|RD-DATA   | F8315248 |  1/ 1 | -- | 0000000A |  OKAY  | ---- | ------- | - | ---------- |
             |              606585 ns|              606720 ns|RD-DATA   | F8315248 |  1/ 1 | -- | 0000000A |  OKAY  | ---- | ------- | - | ---------- |
   Picked  : |              606765 ns|              606770 ns|WR-NONSEQ | F8315248 | ----- |  ? | -------- |  ----  |INCR  |    4    | 1 |           0|
             |              606765 ns|              606770 ns|WR-NONSEQ | F8315248 | ----- |  ? | -------- |  ----  |INCR  |    4    | 1 |           0|
   Picked  : |              606770 ns|              606885 ns|WR-DATA   | F8315248 |  1/ ? | -- | 00000005 |  OKAY  | ---- | ------- | - | ---------- |
             |              606770 ns|              606885 ns|WR-DATA   | F8315248 |  1/ ? | -- | 00000005 |  OKAY  | ---- | ------- | - | ---------- |
   Picked  : |              606920 ns|              606925 ns|RD-NONSEQ | F831524C | ----- |  1 | -------- |  ----  |SINGLE|    4    | 1 |           0|
             |              606920 ns|              606925 ns|RD-NONSEQ | F831524C | ----- |  1 | -------- |  ----  |SINGLE|    4    | 1 |           0|
   Picked  : |              606925 ns|              607040 ns|RD-DATA   | F831524C |  1/ 1 | -- | 0000000F |  OKAY  | ---- | ------- | - | ---------- |
             |              606925 ns|              607040 ns|RD-DATA   | F831524C |  1/ 1 | -- | 0000000F |  OKAY  | ---- | ------- | - | ---------- |
   Picked  : |              607090 ns|              607095 ns|WR-NONSEQ | F831524C | ----- |  ? | -------- |  ----  |INCR  |    4    | 1 |           0|
             |              607090 ns|              607095 ns|WR-NONSEQ | F831524C | ----- |  ? | -------- |  ----  |INCR  |    4    | 1 |           0|
   Picked  : |              607095 ns|              607215 ns|WR-DATA   | F831524C |  1/ ? | -- | 00000005 |  OKAY  | ---- | ------- | - | ---------- |
             |              607095 ns|              607215 ns|WR-DATA   | F831524C |  1/ ? | -- | 00000005 |  OKAY  | ---- | ------- | - | ---------- |
   Picked  : |              607250 ns|              607255 ns|RD-NONSEQ | F8315250 | ----- |  1 | -------- |  ----  |SINGLE|    4    | 1 |           0|
             |              607250 ns|              607255 ns|RD-NONSEQ | F8315250 | ----- |  1 | -------- |  ----  |SINGLE|    4    | 1 |           0|
   Picked  : |              607255 ns|              607370 ns|RD-DATA   | F8315250 |  1/ 1 | -- | 0000000F |  OKAY  | ---- | ------- | - | ---------- |
             |              607255 ns|              607370 ns|RD-DATA   | F8315250 |  1/ 1 | -- | 0000000F |  OKAY  | ---- | ------- | - | ---------- |
   Picked  : |              607415 ns|              607420 ns|WR-NONSEQ | F8315250 | ----- |  ? | -------- |  ----  |INCR  |    4    | 1 |           0|
             |              607415 ns|              607420 ns|WR-NONSEQ | F8315250 | ----- |  ? | -------- |  ----  |INCR  |    4    | 1 |           0|
   Picked  : |              607420 ns|              607535 ns|WR-DATA   | F8315250 |  1/ ? | -- | 00000005 |  OKAY  | ---- | ------- | - | ---------- |
             |              607420 ns|              607535 ns|WR-DATA   | F8315250 |  1/ ? | -- | 00000005 |  OKAY  | ---- | ------- | - | ---------- |
   Picked  : |              607570 ns|              607575 ns|RD-NONSEQ | F8315254 | ----- |  1 | -------- |  ----  |SINGLE|    4    | 1 |           0|
             |              607570 ns|              607575 ns|RD-NONSEQ | F8315254 | ----- |  1 | -------- |  ----  |SINGLE|    4    | 1 |           0|
   Picked  : |              607575 ns|              607700 ns|RD-DATA   | F8315254 |  1/ 1 | -- | 0000000A |  OKAY  | ---- | ------- | - | ---------- |
             |              607575 ns|              607700 ns|RD-DATA   | F8315254 |  1/ 1 | -- | 0000000A |  OKAY  | ---- | ------- | - | ---------- |
   Picked  : |              607745 ns|              607750 ns|WR-NONSEQ | F8315254 | ----- |  ? | -------- |  ----  |INCR  |    4    | 1 |           0|
             |              607745 ns|              607750 ns|WR-NONSEQ | F8315254 | ----- |  ? | -------- |  ----  |INCR  |    4    | 1 |           0|
   Picked  : |              607750 ns|              607885 ns|WR-DATA   | F8315254 |  1/ ? | -- | 00000005 |  OKAY  | ---- | ------- | - | ---------- |
             |              607750 ns|              607885 ns|WR-DATA   | F8315254 |  1/ ? | -- | 00000005 |  OKAY  | ---- | ------- | - | ---------- |
   Picked  : |              607920 ns|              607925 ns|RD-NONSEQ | F8315258 | ----- |  1 | -------- |  ----  |SINGLE|    4    | 1 |           0|
             |              607920 ns|              607925 ns|RD-NONSEQ | F8315258 | ----- |  1 | -------- |  ----  |SINGLE|    4    | 1 |           0|
   Picked  : |              607925 ns|              608050 ns|RD-DATA   | F8315258 |  1/ 1 | -- | 0000000A |  OKAY  | ---- | ------- | - | ---------- |
             |              607925 ns|              608050 ns|RD-DATA   | F8315258 |  1/ 1 | -- | 0000000A |  OKAY  | ---- | ------- | - | ---------- |
   Picked  : |              608095 ns|              608100 ns|WR-NONSEQ | F8315258 | ----- |  ? | -------- |  ----  |INCR  |    4    | 1 |           0|
             |              608095 ns|              608100 ns|WR-NONSEQ | F8315258 | ----- |  ? | -------- |  ----  |INCR  |    4    | 1 |           0|
   Picked  : |              608100 ns|              608225 ns|WR-DATA   | F8315258 |  1/ ? | -- | 00000005 |  OKAY  | ---- | ------- | - | ---------- |
             |              608100 ns|              608225 ns|WR-DATA   | F8315258 |  1/ ? | -- | 00000005 |  OKAY  | ---- | ------- | - | ---------- |
   Picked  : |              608260 ns|              608265 ns|RD-NONSEQ | F831525C | ----- |  1 | -------- |  ----  |SINGLE|    4    | 1 |           0|
             |              608260 ns|              608265 ns|RD-NONSEQ | F831525C | ----- |  1 | -------- |  ----  |SINGLE|    4    | 1 |           0|
   Picked  : |              608265 ns|              608380 ns|RD-DATA   | F831525C |  1/ 1 | -- | 0000000F |  OKAY  | ---- | ------- | - | ---------- |
             |              608265 ns|              608380 ns|RD-DATA   | F831525C |  1/ 1 | -- | 0000000F |  OKAY  | ---- | ------- | - | ---------- |
   Picked  : |              608430 ns|              608435 ns|WR-NONSEQ | F831525C | ----- |  ? | -------- |  ----  |INCR  |    4    | 1 |           0|
             |              608430 ns|              608435 ns|WR-NONSEQ | F831525C | ----- |  ? | -------- |  ----  |INCR  |    4    | 1 |           0|
   Picked  : |              608435 ns|              608555 ns|WR-DATA   | F831525C |  1/ ? | -- | 00000000 |  OKAY  | ---- | ------- | - | ---------- |
             |              608435 ns|              608555 ns|WR-DATA   | F831525C |  1/ ? | -- | 00000000 |  OKAY  | ---- | ------- | - | ---------- |
   Picked  : |              608600 ns|              608605 ns|WR-NONSEQ | F8321190 | ----- |  ? | -------- |  ----  |INCR  |    4    | 1 |           0|
             |              608600 ns|              608605 ns|WR-NONSEQ | F8321190 | ----- |  ? | -------- |  ----  |INCR  |    4    | 1 |           0|
   Picked  : |              608605 ns|              608945 ns|WR-DATA   | F8321190 |  1/ ? | -- | 00000007 |  OKAY  | ---- | ------- | - | ---------- |
             |              608605 ns|              608945 ns|WR-DATA   | F8321190 |  1/ ? | -- | 00000007 |  OKAY  | ---- | ------- | - | ---------- |
   Picked  : |              608980 ns|              608985 ns|RD-NONSEQ | F8321190 | ----- |  1 | -------- |  ----  |SINGLE|    4    | 1 |           0|
             |              608980 ns|              608985 ns|RD-NONSEQ | F8321190 | ----- |  1 | -------- |  ----  |SINGLE|    4    | 1 |           0|
   Picked  : |              608985 ns|              609390 ns|RD-DATA   | F8321190 |  1/ 1 | -- | 00000007 |  OKAY  | ---- | ------- | - | ---------- |
             |              608985 ns|              609390 ns|RD-DATA   | F8321190 |  1/ 1 | -- | 00000007 |  OKAY  | ---- | ------- | - | ---------- |
   Picked  : |              609430 ns|              609435 ns|WR-NONSEQ | F8321194 | ----- |  ? | -------- |  ----  |INCR  |    4    | 1 |           0|
             |              609430 ns|              609435 ns|WR-NONSEQ | F8321194 | ----- |  ? | -------- |  ----  |INCR  |    4    | 1 |           0|
   Picked  : |              609435 ns|              609845 ns|WR-DATA   | F8321194 |  1/ ? | -- | 00000007 |  OKAY  | ---- | ------- | - | ---------- |
             |              609435 ns|              609845 ns|WR-DATA   | F8321194 |  1/ ? | -- | 00000007 |  OKAY  | ---- | ------- | - | ---------- |
   Picked  : |              609880 ns|              609885 ns|RD-NONSEQ | F8321194 | ----- |  1 | -------- |  ----  |SINGLE|    4    | 1 |           0|
             |              609880 ns|              609885 ns|RD-NONSEQ | F8321194 | ----- |  1 | -------- |  ----  |SINGLE|    4    | 1 |           0|
   Picked  : |              609885 ns|              610260 ns|RD-DATA   | F8321194 |  1/ 1 | -- | 00000007 |  OKAY  | ---- | ------- | - | ---------- |
             |              609885 ns|              610260 ns|RD-DATA   | F8321194 |  1/ 1 | -- | 00000007 |  OKAY  | ---- | ------- | - | ---------- |
   Picked  : |              610315 ns|              610320 ns|WR-NONSEQ | F8321198 | ----- |  ? | -------- |  ----  |INCR  |    4    | 1 |           0|
             |              610315 ns|              610320 ns|WR-NONSEQ | F8321198 | ----- |  ? | -------- |  ----  |INCR  |    4    | 1 |           0|
   Picked  : |              610320 ns|              610715 ns|WR-DATA   | F8321198 |  1/ ? | -- | 00000007 |  OKAY  | ---- | ------- | - | ---------- |
             |              610320 ns|              610715 ns|WR-DATA   | F8321198 |  1/ ? | -- | 00000007 |  OKAY  | ---- | ------- | - | ---------- |
   Picked  : |              610750 ns|              610755 ns|RD-NONSEQ | F8321198 | ----- |  1 | -------- |  ----  |SINGLE|    4    | 1 |           0|
             |              610750 ns|              610755 ns|RD-NONSEQ | F8321198 | ----- |  1 | -------- |  ----  |SINGLE|    4    | 1 |           0|
   Picked  : |              610755 ns|              611100 ns|RD-DATA   | F8321198 |  1/ 1 | -- | 00000007 |  OKAY  | ---- | ------- | - | ---------- |
             |              610755 ns|              611100 ns|RD-DATA   | F8321198 |  1/ 1 | -- | 00000007 |  OKAY  | ---- | ------- | - | ---------- |
   Picked  : |              611150 ns|              611155 ns|WR-NONSEQ | F832119C | ----- |  ? | -------- |  ----  |INCR  |    4    | 1 |           0|
             |              611150 ns|              611155 ns|WR-NONSEQ | F832119C | ----- |  ? | -------- |  ----  |INCR  |    4    | 1 |           0|
   Picked  : |              611155 ns|              611525 ns|WR-DATA   | F832119C |  1/ ? | -- | 00000007 |  OKAY  | ---- | ------- | - | ---------- |
             |              611155 ns|              611525 ns|WR-DATA   | F832119C |  1/ ? | -- | 00000007 |  OKAY  | ---- | ------- | - | ---------- |
   Picked  : |              611560 ns|              611565 ns|RD-NONSEQ | F832119C | ----- |  1 | -------- |  ----  |SINGLE|    4    | 1 |           0|
             |              611560 ns|              611565 ns|RD-NONSEQ | F832119C | ----- |  1 | -------- |  ----  |SINGLE|    4    | 1 |           0|
   Picked  : |              611565 ns|              611910 ns|RD-DATA   | F832119C |  1/ 1 | -- | 00000007 |  OKAY  | ---- | ------- | - | ---------- |
             |              611565 ns|              611910 ns|RD-DATA   | F832119C |  1/ 1 | -- | 00000007 |  OKAY  | ---- | ------- | - | ---------- |
   Picked  : |              611950 ns|              611955 ns|WR-NONSEQ | F83211A0 | ----- |  ? | -------- |  ----  |INCR  |    4    | 1 |           0|
             |              611950 ns|              611955 ns|WR-NONSEQ | F83211A0 | ----- |  ? | -------- |  ----  |INCR  |    4    | 1 |           0|
   Picked  : |              611955 ns|              612365 ns|WR-DATA   | F83211A0 |  1/ ? | -- | 00000007 |  OKAY  | ---- | ------- | - | ---------- |
             |              611955 ns|              612365 ns|WR-DATA   | F83211A0 |  1/ ? | -- | 00000007 |  OKAY  | ---- | ------- | - | ---------- |
   Picked  : |              612400 ns|              612405 ns|RD-NONSEQ | F83211A0 | ----- |  1 | -------- |  ----  |SINGLE|    4    | 1 |           0|
             |              612400 ns|              612405 ns|RD-NONSEQ | F83211A0 | ----- |  1 | -------- |  ----  |SINGLE|    4    | 1 |           0|
   Picked  : |              612405 ns|              612780 ns|RD-DATA   | F83211A0 |  1/ 1 | -- | 00000007 |  OKAY  | ---- | ------- | - | ---------- |
             |              612405 ns|              612780 ns|RD-DATA   | F83211A0 |  1/ 1 | -- | 00000007 |  OKAY  | ---- | ------- | - | ---------- |
   Picked  : |              612825 ns|              612830 ns|WR-NONSEQ | F83211A4 | ----- |  ? | -------- |  ----  |INCR  |    4    | 1 |           0|
             |              612825 ns|              612830 ns|WR-NONSEQ | F83211A4 | ----- |  ? | -------- |  ----  |INCR  |    4    | 1 |           0|
   Picked  : |              612830 ns|              613265 ns|WR-DATA   | F83211A4 |  1/ ? | -- | 00000007 |  OKAY  | ---- | ------- | - | ---------- |
             |              612830 ns|              613265 ns|WR-DATA   | F83211A4 |  1/ ? | -- | 00000007 |  OKAY  | ---- | ------- | - | ---------- |
   Picked  : |              613300 ns|              613305 ns|RD-NONSEQ | F83211A4 | ----- |  1 | -------- |  ----  |SINGLE|    4    | 1 |           0|
             |              613300 ns|              613305 ns|RD-NONSEQ | F83211A4 | ----- |  1 | -------- |  ----  |SINGLE|    4    | 1 |           0|
   Picked  : |              613305 ns|              613680 ns|RD-DATA   | F83211A4 |  1/ 1 | -- | 00000007 |  OKAY  | ---- | ------- | - | ---------- |
             |              613305 ns|              613680 ns|RD-DATA   | F83211A4 |  1/ 1 | -- | 00000007 |  OKAY  | ---- | ------- | - | ---------- |
   Picked  : |              613720 ns|              613725 ns|WR-NONSEQ | F83211A8 | ----- |  ? | -------- |  ----  |INCR  |    4    | 1 |           0|
             |              613720 ns|              613725 ns|WR-NONSEQ | F83211A8 | ----- |  ? | -------- |  ----  |INCR  |    4    | 1 |           0|
   Picked  : |              613725 ns|              614075 ns|WR-DATA   | F83211A8 |  1/ ? | -- | 00000007 |  OKAY  | ---- | ------- | - | ---------- |
             |              613725 ns|              614075 ns|WR-DATA   | F83211A8 |  1/ ? | -- | 00000007 |  OKAY  | ---- | ------- | - | ---------- |
   Picked  : |              614110 ns|              614115 ns|RD-NONSEQ | F83211A8 | ----- |  1 | -------- |  ----  |SINGLE|    4    | 1 |           0|
             |              614110 ns|              614115 ns|RD-NONSEQ | F83211A8 | ----- |  1 | -------- |  ----  |SINGLE|    4    | 1 |           0|
   Picked  : |              614115 ns|              614460 ns|RD-DATA   | F83211A8 |  1/ 1 | -- | 00000007 |  OKAY  | ---- | ------- | - | ---------- |
             |              614115 ns|              614460 ns|RD-DATA   | F83211A8 |  1/ 1 | -- | 00000007 |  OKAY  | ---- | ------- | - | ---------- |
   Picked  : |              614500 ns|              614505 ns|WR-NONSEQ | F83211AC | ----- |  ? | -------- |  ----  |INCR  |    4    | 1 |           0|
             |              614500 ns|              614505 ns|WR-NONSEQ | F83211AC | ----- |  ? | -------- |  ----  |INCR  |    4    | 1 |           0|
   Picked  : |              614505 ns|              614885 ns|WR-DATA   | F83211AC |  1/ ? | -- | 00000007 |  OKAY  | ---- | ------- | - | ---------- |
             |              614505 ns|              614885 ns|WR-DATA   | F83211AC |  1/ ? | -- | 00000007 |  OKAY  | ---- | ------- | - | ---------- |
   Picked  : |              614920 ns|              614925 ns|RD-NONSEQ | F83211AC | ----- |  1 | -------- |  ----  |SINGLE|    4    | 1 |           0|
             |              614920 ns|              614925 ns|RD-NONSEQ | F83211AC | ----- |  1 | -------- |  ----  |SINGLE|    4    | 1 |           0|
   Picked  : |              614925 ns|              615330 ns|RD-DATA   | F83211AC |  1/ 1 | -- | 00000007 |  OKAY  | ---- | ------- | - | ---------- |
             |              614925 ns|              615330 ns|RD-DATA   | F83211AC |  1/ 1 | -- | 00000007 |  OKAY  | ---- | ------- | - | ---------- |
   Picked  : |              615380 ns|              615385 ns|WR-NONSEQ | F83211B0 | ----- |  ? | -------- |  ----  |INCR  |    4    | 1 |           0|
             |              615380 ns|              615385 ns|WR-NONSEQ | F83211B0 | ----- |  ? | -------- |  ----  |INCR  |    4    | 1 |           0|
   Picked  : |              615385 ns|              615755 ns|WR-DATA   | F83211B0 |  1/ ? | -- | 00000007 |  OKAY  | ---- | ------- | - | ---------- |
             |              615385 ns|              615755 ns|WR-DATA   | F83211B0 |  1/ ? | -- | 00000007 |  OKAY  | ---- | ------- | - | ---------- |
   Picked  : |              615790 ns|              615795 ns|RD-NONSEQ | F83211B0 | ----- |  1 | -------- |  ----  |SINGLE|    4    | 1 |           0|
             |              615790 ns|              615795 ns|RD-NONSEQ | F83211B0 | ----- |  1 | -------- |  ----  |SINGLE|    4    | 1 |           0|
   Picked  : |              615795 ns|              616140 ns|RD-DATA   | F83211B0 |  1/ 1 | -- | 00000007 |  OKAY  | ---- | ------- | - | ---------- |
             |              615795 ns|              616140 ns|RD-DATA   | F83211B0 |  1/ 1 | -- | 00000007 |  OKAY  | ---- | ------- | - | ---------- |
   Picked  : |              616190 ns|              616195 ns|WR-NONSEQ | F83211B8 | ----- |  ? | -------- |  ----  |INCR  |    4    | 1 |           0|
             |              616190 ns|              616195 ns|WR-NONSEQ | F83211B8 | ----- |  ? | -------- |  ----  |INCR  |    4    | 1 |           0|
   Picked  : |              616195 ns|              616595 ns|WR-DATA   | F83211B8 |  1/ ? | -- | 00000007 |  OKAY  | ---- | ------- | - | ---------- |
             |              616195 ns|              616595 ns|WR-DATA   | F83211B8 |  1/ ? | -- | 00000007 |  OKAY  | ---- | ------- | - | ---------- |
   Picked  : |              616630 ns|              616635 ns|RD-NONSEQ | F83211B8 | ----- |  1 | -------- |  ----  |SINGLE|    4    | 1 |           0|
             |              616630 ns|              616635 ns|RD-NONSEQ | F83211B8 | ----- |  1 | -------- |  ----  |SINGLE|    4    | 1 |           0|
   Picked  : |              616635 ns|              616980 ns|RD-DATA   | F83211B8 |  1/ 1 | -- | 00000007 |  OKAY  | ---- | ------- | - | ---------- |
             |              616635 ns|              616980 ns|RD-DATA   | F83211B8 |  1/ 1 | -- | 00000007 |  OKAY  | ---- | ------- | - | ---------- |
   Picked  : |              620355 ns|              620360 ns|WR-NONSEQ | F8321190 | ----- |  ? | -------- |  ----  |INCR  |    4    | 1 |           0|
             |              620355 ns|              620360 ns|WR-NONSEQ | F8321190 | ----- |  ? | -------- |  ----  |INCR  |    4    | 1 |           0|
   Picked  : |              620360 ns|              620665 ns|WR-DATA   | F8321190 |  1/ ? | -- | 00000003 |  OKAY  | ---- | ------- | - | ---------- |
             |              620360 ns|              620665 ns|WR-DATA   | F8321190 |  1/ ? | -- | 00000003 |  OKAY  | ---- | ------- | - | ---------- |
   Picked  : |              620700 ns|              620705 ns|RD-NONSEQ | F8321190 | ----- |  1 | -------- |  ----  |SINGLE|    4    | 1 |           0|
             |              620700 ns|              620705 ns|RD-NONSEQ | F8321190 | ----- |  1 | -------- |  ----  |SINGLE|    4    | 1 |           0|
   Picked  : |              620705 ns|              620940 ns|RD-DATA   | F8321190 |  1/ 1 | -- | 00000003 |  OKAY  | ---- | ------- | - | ---------- |
             |              620705 ns|              620940 ns|RD-DATA   | F8321190 |  1/ 1 | -- | 00000003 |  OKAY  | ---- | ------- | - | ---------- |
   Picked  : |              620980 ns|              620985 ns|WR-NONSEQ | F8321194 | ----- |  ? | -------- |  ----  |INCR  |    4    | 1 |           0|
             |              620980 ns|              620985 ns|WR-NONSEQ | F8321194 | ----- |  ? | -------- |  ----  |INCR  |    4    | 1 |           0|
   Picked  : |              620985 ns|              621275 ns|WR-DATA   | F8321194 |  1/ ? | -- | 00000003 |  OKAY  | ---- | ------- | - | ---------- |
             |              620985 ns|              621275 ns|WR-DATA   | F8321194 |  1/ ? | -- | 00000003 |  OKAY  | ---- | ------- | - | ---------- |
   Picked  : |              621310 ns|              621315 ns|RD-NONSEQ | F8321194 | ----- |  1 | -------- |  ----  |SINGLE|    4    | 1 |           0|
             |              621310 ns|              621315 ns|RD-NONSEQ | F8321194 | ----- |  1 | -------- |  ----  |SINGLE|    4    | 1 |           0|
   Picked  : |              621315 ns|              621580 ns|RD-DATA   | F8321194 |  1/ 1 | -- | 00000003 |  OKAY  | ---- | ------- | - | ---------- |
             |              621315 ns|              621580 ns|RD-DATA   | F8321194 |  1/ 1 | -- | 00000003 |  OKAY  | ---- | ------- | - | ---------- |
   Picked  : |              621630 ns|              621635 ns|WR-NONSEQ | F8321198 | ----- |  ? | -------- |  ----  |INCR  |    4    | 1 |           0|
             |              621630 ns|              621635 ns|WR-NONSEQ | F8321198 | ----- |  ? | -------- |  ----  |INCR  |    4    | 1 |           0|
   Picked  : |              621635 ns|              621875 ns|WR-DATA   | F8321198 |  1/ ? | -- | 00000003 |  OKAY  | ---- | ------- | - | ---------- |
             |              621635 ns|              621875 ns|WR-DATA   | F8321198 |  1/ ? | -- | 00000003 |  OKAY  | ---- | ------- | - | ---------- |
   Picked  : |              621910 ns|              621915 ns|RD-NONSEQ | F8321198 | ----- |  1 | -------- |  ----  |SINGLE|    4    | 1 |           0|
             |              621910 ns|              621915 ns|RD-NONSEQ | F8321198 | ----- |  1 | -------- |  ----  |SINGLE|    4    | 1 |           0|
   Picked  : |              621915 ns|              622150 ns|RD-DATA   | F8321198 |  1/ 1 | -- | 00000003 |  OKAY  | ---- | ------- | - | ---------- |
             |              621915 ns|              622150 ns|RD-DATA   | F8321198 |  1/ 1 | -- | 00000003 |  OKAY  | ---- | ------- | - | ---------- |
   Picked  : |              622200 ns|              622205 ns|WR-NONSEQ | F832119C | ----- |  ? | -------- |  ----  |INCR  |    4    | 1 |           0|
             |              622200 ns|              622205 ns|WR-NONSEQ | F832119C | ----- |  ? | -------- |  ----  |INCR  |    4    | 1 |           0|
   Picked  : |              622205 ns|              622505 ns|WR-DATA   | F832119C |  1/ ? | -- | 00000003 |  OKAY  | ---- | ------- | - | ---------- |
             |              622205 ns|              622505 ns|WR-DATA   | F832119C |  1/ ? | -- | 00000003 |  OKAY  | ---- | ------- | - | ---------- |
   Picked  : |              622540 ns|              622545 ns|RD-NONSEQ | F832119C | ----- |  1 | -------- |  ----  |SINGLE|    4    | 1 |           0|
             |              622540 ns|              622545 ns|RD-NONSEQ | F832119C | ----- |  1 | -------- |  ----  |SINGLE|    4    | 1 |           0|
   Picked  : |              622545 ns|              622820 ns|RD-DATA   | F832119C |  1/ 1 | -- | 00000003 |  OKAY  | ---- | ------- | - | ---------- |
             |              622545 ns|              622820 ns|RD-DATA   | F832119C |  1/ 1 | -- | 00000003 |  OKAY  | ---- | ------- | - | ---------- |
   Picked  : |              622865 ns|              622870 ns|WR-NONSEQ | F83211A0 | ----- |  ? | -------- |  ----  |INCR  |    4    | 1 |           0|
             |              622865 ns|              622870 ns|WR-NONSEQ | F83211A0 | ----- |  ? | -------- |  ----  |INCR  |    4    | 1 |           0|
   Picked  : |              622870 ns|              623115 ns|WR-DATA   | F83211A0 |  1/ ? | -- | 00000003 |  OKAY  | ---- | ------- | - | ---------- |
             |              622870 ns|              623115 ns|WR-DATA   | F83211A0 |  1/ ? | -- | 00000003 |  OKAY  | ---- | ------- | - | ---------- |
   Picked  : |              623150 ns|              623155 ns|RD-NONSEQ | F83211A0 | ----- |  1 | -------- |  ----  |SINGLE|    4    | 1 |           0|
             |              623150 ns|              623155 ns|RD-NONSEQ | F83211A0 | ----- |  1 | -------- |  ----  |SINGLE|    4    | 1 |           0|
   Picked  : |              623155 ns|              623380 ns|RD-DATA   | F83211A0 |  1/ 1 | -- | 00000003 |  OKAY  | ---- | ------- | - | ---------- |
             |              623155 ns|              623380 ns|RD-DATA   | F83211A0 |  1/ 1 | -- | 00000003 |  OKAY  | ---- | ------- | - | ---------- |
   Picked  : |              623435 ns|              623440 ns|WR-NONSEQ | F83211A4 | ----- |  ? | -------- |  ----  |INCR  |    4    | 1 |           0|
             |              623435 ns|              623440 ns|WR-NONSEQ | F83211A4 | ----- |  ? | -------- |  ----  |INCR  |    4    | 1 |           0|
   Picked  : |              623440 ns|              623665 ns|WR-DATA   | F83211A4 |  1/ ? | -- | 00000003 |  OKAY  | ---- | ------- | - | ---------- |
             |              623440 ns|              623665 ns|WR-DATA   | F83211A4 |  1/ ? | -- | 00000003 |  OKAY  | ---- | ------- | - | ---------- |
   Picked  : |              623700 ns|              623705 ns|RD-NONSEQ | F83211A4 | ----- |  1 | -------- |  ----  |SINGLE|    4    | 1 |           0|
             |              623700 ns|              623705 ns|RD-NONSEQ | F83211A4 | ----- |  1 | -------- |  ----  |SINGLE|    4    | 1 |           0|
   Picked  : |              623705 ns|              623940 ns|RD-DATA   | F83211A4 |  1/ 1 | -- | 00000003 |  OKAY  | ---- | ------- | - | ---------- |
             |              623705 ns|              623940 ns|RD-DATA   | F83211A4 |  1/ 1 | -- | 00000003 |  OKAY  | ---- | ------- | - | ---------- |
   Picked  : |              623980 ns|              623985 ns|WR-NONSEQ | F83211A8 | ----- |  ? | -------- |  ----  |INCR  |    4    | 1 |           0|
             |              623980 ns|              623985 ns|WR-NONSEQ | F83211A8 | ----- |  ? | -------- |  ----  |INCR  |    4    | 1 |           0|
   Picked  : |              623985 ns|              624235 ns|WR-DATA   | F83211A8 |  1/ ? | -- | 00000003 |  OKAY  | ---- | ------- | - | ---------- |
             |              623985 ns|              624235 ns|WR-DATA   | F83211A8 |  1/ ? | -- | 00000003 |  OKAY  | ---- | ------- | - | ---------- |
   Picked  : |              624270 ns|              624275 ns|RD-NONSEQ | F83211A8 | ----- |  1 | -------- |  ----  |SINGLE|    4    | 1 |           0|
             |              624270 ns|              624275 ns|RD-NONSEQ | F83211A8 | ----- |  1 | -------- |  ----  |SINGLE|    4    | 1 |           0|
   Picked  : |              624275 ns|              624500 ns|RD-DATA   | F83211A8 |  1/ 1 | -- | 00000003 |  OKAY  | ---- | ------- | - | ---------- |
             |              624275 ns|              624500 ns|RD-DATA   | F83211A8 |  1/ 1 | -- | 00000003 |  OKAY  | ---- | ------- | - | ---------- |
   Picked  : |              624540 ns|              624545 ns|WR-NONSEQ | F83211AC | ----- |  ? | -------- |  ----  |INCR  |    4    | 1 |           0|
             |              624540 ns|              624545 ns|WR-NONSEQ | F83211AC | ----- |  ? | -------- |  ----  |INCR  |    4    | 1 |           0|
   Picked  : |              624545 ns|              624835 ns|WR-DATA   | F83211AC |  1/ ? | -- | 00000003 |  OKAY  | ---- | ------- | - | ---------- |
             |              624545 ns|              624835 ns|WR-DATA   | F83211AC |  1/ ? | -- | 00000003 |  OKAY  | ---- | ------- | - | ---------- |
   Picked  : |              624870 ns|              624875 ns|RD-NONSEQ | F83211AC | ----- |  1 | -------- |  ----  |SINGLE|    4    | 1 |           0|
             |              624870 ns|              624875 ns|RD-NONSEQ | F83211AC | ----- |  1 | -------- |  ----  |SINGLE|    4    | 1 |           0|
   Picked  : |              624875 ns|              625140 ns|RD-DATA   | F83211AC |  1/ 1 | -- | 00000003 |  OKAY  | ---- | ------- | - | ---------- |
             |              624875 ns|              625140 ns|RD-DATA   | F83211AC |  1/ 1 | -- | 00000003 |  OKAY  | ---- | ------- | - | ---------- |
   Picked  : |              625180 ns|              625185 ns|WR-NONSEQ | F83211B0 | ----- |  ? | -------- |  ----  |INCR  |    4    | 1 |           0|
             |              625180 ns|              625185 ns|WR-NONSEQ | F83211B0 | ----- |  ? | -------- |  ----  |INCR  |    4    | 1 |           0|
   Picked  : |              625185 ns|              625475 ns|WR-DATA   | F83211B0 |  1/ ? | -- | 00000003 |  OKAY  | ---- | ------- | - | ---------- |
             |              625185 ns|              625475 ns|WR-DATA   | F83211B0 |  1/ ? | -- | 00000003 |  OKAY  | ---- | ------- | - | ---------- |
   Picked  : |              625510 ns|              625515 ns|RD-NONSEQ | F83211B0 | ----- |  1 | -------- |  ----  |SINGLE|    4    | 1 |           0|
             |              625510 ns|              625515 ns|RD-NONSEQ | F83211B0 | ----- |  1 | -------- |  ----  |SINGLE|    4    | 1 |           0|
   Picked  : |              625515 ns|              625740 ns|RD-DATA   | F83211B0 |  1/ 1 | -- | 00000003 |  OKAY  | ---- | ------- | - | ---------- |
             |              625515 ns|              625740 ns|RD-DATA   | F83211B0 |  1/ 1 | -- | 00000003 |  OKAY  | ---- | ------- | - | ---------- |
   Picked  : |              625790 ns|              625795 ns|WR-NONSEQ | F83211B8 | ----- |  ? | -------- |  ----  |INCR  |    4    | 1 |           0|
             |              625790 ns|              625795 ns|WR-NONSEQ | F83211B8 | ----- |  ? | -------- |  ----  |INCR  |    4    | 1 |           0|
   Picked  : |              625795 ns|              626025 ns|WR-DATA   | F83211B8 |  1/ ? | -- | 00000003 |  OKAY  | ---- | ------- | - | ---------- |
             |              625795 ns|              626025 ns|WR-DATA   | F83211B8 |  1/ ? | -- | 00000003 |  OKAY  | ---- | ------- | - | ---------- |
   Picked  : |              626060 ns|              626065 ns|RD-NONSEQ | F83211B8 | ----- |  1 | -------- |  ----  |SINGLE|    4    | 1 |           0|
             |              626060 ns|              626065 ns|RD-NONSEQ | F83211B8 | ----- |  1 | -------- |  ----  |SINGLE|    4    | 1 |           0|
   Picked  : |              626065 ns|              626310 ns|RD-DATA   | F83211B8 |  1/ 1 | -- | 00000003 |  OKAY  | ---- | ------- | - | ---------- |
             |              626065 ns|              626310 ns|RD-DATA   | F83211B8 |  1/ 1 | -- | 00000003 |  OKAY  | ---- | ------- | - | ---------- |
   Picked  : |              629115 ns|              629120 ns|WR-NONSEQ | F8321190 | ----- |  ? | -------- |  ----  |INCR  |    4    | 1 |           0|
             |              629115 ns|              629120 ns|WR-NONSEQ | F8321190 | ----- |  ? | -------- |  ----  |INCR  |    4    | 1 |           0|
   Picked  : |              629120 ns|              629505 ns|WR-DATA   | F8321190 |  1/ ? | -- | 0000000B |  OKAY  | ---- | ------- | - | ---------- |
             |              629120 ns|              629505 ns|WR-DATA   | F8321190 |  1/ ? | -- | 0000000B |  OKAY  | ---- | ------- | - | ---------- |
   Picked  : |              629540 ns|              629545 ns|RD-NONSEQ | F8321190 | ----- |  1 | -------- |  ----  |SINGLE|    4    | 1 |           0|
             |              629540 ns|              629545 ns|RD-NONSEQ | F8321190 | ----- |  1 | -------- |  ----  |SINGLE|    4    | 1 |           0|
   Picked  : |              629545 ns|              630000 ns|RD-DATA   | F8321190 |  1/ 1 | -- | 0000000B |  OKAY  | ---- | ------- | - | ---------- |
             |              629545 ns|              630000 ns|RD-DATA   | F8321190 |  1/ 1 | -- | 0000000B |  OKAY  | ---- | ------- | - | ---------- |
   Picked  : |              630055 ns|              630060 ns|WR-NONSEQ | F8321194 | ----- |  ? | -------- |  ----  |INCR  |    4    | 1 |           0|
             |              630055 ns|              630060 ns|WR-NONSEQ | F8321194 | ----- |  ? | -------- |  ----  |INCR  |    4    | 1 |           0|
   Picked  : |              630060 ns|              630605 ns|WR-DATA   | F8321194 |  1/ ? | -- | 0000000B |  OKAY  | ---- | ------- | - | ---------- |
             |              630060 ns|              630605 ns|WR-DATA   | F8321194 |  1/ ? | -- | 0000000B |  OKAY  | ---- | ------- | - | ---------- |
   Picked  : |              630640 ns|              630645 ns|RD-NONSEQ | F8321194 | ----- |  1 | -------- |  ----  |SINGLE|    4    | 1 |           0|
             |              630640 ns|              630645 ns|RD-NONSEQ | F8321194 | ----- |  1 | -------- |  ----  |SINGLE|    4    | 1 |           0|
   Picked  : |              630645 ns|              631100 ns|RD-DATA   | F8321194 |  1/ 1 | -- | 0000000B |  OKAY  | ---- | ------- | - | ---------- |
             |              630645 ns|              631100 ns|RD-DATA   | F8321194 |  1/ 1 | -- | 0000000B |  OKAY  | ---- | ------- | - | ---------- |
   Picked  : |              631145 ns|              631150 ns|WR-NONSEQ | F8321198 | ----- |  ? | -------- |  ----  |INCR  |    4    | 1 |           0|
             |              631145 ns|              631150 ns|WR-NONSEQ | F8321198 | ----- |  ? | -------- |  ----  |INCR  |    4    | 1 |           0|
   Picked  : |              631150 ns|              631655 ns|WR-DATA   | F8321198 |  1/ ? | -- | 0000000B |  OKAY  | ---- | ------- | - | ---------- |
             |              631150 ns|              631655 ns|WR-DATA   | F8321198 |  1/ ? | -- | 0000000B |  OKAY  | ---- | ------- | - | ---------- |
   Picked  : |              631690 ns|              631695 ns|RD-NONSEQ | F8321198 | ----- |  1 | -------- |  ----  |SINGLE|    4    | 1 |           0|
             |              631690 ns|              631695 ns|RD-NONSEQ | F8321198 | ----- |  1 | -------- |  ----  |SINGLE|    4    | 1 |           0|
   Picked  : |              631695 ns|              632150 ns|RD-DATA   | F8321198 |  1/ 1 | -- | 0000000B |  OKAY  | ---- | ------- | - | ---------- |
             |              631695 ns|              632150 ns|RD-DATA   | F8321198 |  1/ 1 | -- | 0000000B |  OKAY  | ---- | ------- | - | ---------- |
   Picked  : |              632195 ns|              632200 ns|WR-NONSEQ | F832119C | ----- |  ? | -------- |  ----  |INCR  |    4    | 1 |           0|
             |              632195 ns|              632200 ns|WR-NONSEQ | F832119C | ----- |  ? | -------- |  ----  |INCR  |    4    | 1 |           0|
   Picked  : |              632200 ns|              632705 ns|WR-DATA   | F832119C |  1/ ? | -- | 0000000B |  OKAY  | ---- | ------- | - | ---------- |
             |              632200 ns|              632705 ns|WR-DATA   | F832119C |  1/ ? | -- | 0000000B |  OKAY  | ---- | ------- | - | ---------- |
   Picked  : |              632740 ns|              632745 ns|RD-NONSEQ | F832119C | ----- |  1 | -------- |  ----  |SINGLE|    4    | 1 |           0|
             |              632740 ns|              632745 ns|RD-NONSEQ | F832119C | ----- |  1 | -------- |  ----  |SINGLE|    4    | 1 |           0|
   Picked  : |              632745 ns|              633200 ns|RD-DATA   | F832119C |  1/ 1 | -- | 0000000B |  OKAY  | ---- | ------- | - | ---------- |
             |              632745 ns|              633200 ns|RD-DATA   | F832119C |  1/ 1 | -- | 0000000B |  OKAY  | ---- | ------- | - | ---------- |
   Picked  : |              633245 ns|              633250 ns|WR-NONSEQ | F83211A0 | ----- |  ? | -------- |  ----  |INCR  |    4    | 1 |           0|
             |              633245 ns|              633250 ns|WR-NONSEQ | F83211A0 | ----- |  ? | -------- |  ----  |INCR  |    4    | 1 |           0|
   Picked  : |              633250 ns|              633705 ns|WR-DATA   | F83211A0 |  1/ ? | -- | 0000000B |  OKAY  | ---- | ------- | - | ---------- |
             |              633250 ns|              633705 ns|WR-DATA   | F83211A0 |  1/ ? | -- | 0000000B |  OKAY  | ---- | ------- | - | ---------- |
   Picked  : |              633740 ns|              633745 ns|RD-NONSEQ | F83211A0 | ----- |  1 | -------- |  ----  |SINGLE|    4    | 1 |           0|
             |              633740 ns|              633745 ns|RD-NONSEQ | F83211A0 | ----- |  1 | -------- |  ----  |SINGLE|    4    | 1 |           0|
   Picked  : |              633745 ns|              634200 ns|RD-DATA   | F83211A0 |  1/ 1 | -- | 0000000B |  OKAY  | ---- | ------- | - | ---------- |
             |              633745 ns|              634200 ns|RD-DATA   | F83211A0 |  1/ 1 | -- | 0000000B |  OKAY  | ---- | ------- | - | ---------- |
   Picked  : |              634245 ns|              634250 ns|WR-NONSEQ | F83211A4 | ----- |  ? | -------- |  ----  |INCR  |    4    | 1 |           0|
             |              634245 ns|              634250 ns|WR-NONSEQ | F83211A4 | ----- |  ? | -------- |  ----  |INCR  |    4    | 1 |           0|
   Picked  : |              634250 ns|              634755 ns|WR-DATA   | F83211A4 |  1/ ? | -- | 0000000B |  OKAY  | ---- | ------- | - | ---------- |
             |              634250 ns|              634755 ns|WR-DATA   | F83211A4 |  1/ ? | -- | 0000000B |  OKAY  | ---- | ------- | - | ---------- |
   Picked  : |              634790 ns|              634795 ns|RD-NONSEQ | F83211A4 | ----- |  1 | -------- |  ----  |SINGLE|    4    | 1 |           0|
             |              634790 ns|              634795 ns|RD-NONSEQ | F83211A4 | ----- |  1 | -------- |  ----  |SINGLE|    4    | 1 |           0|
   Picked  : |              634795 ns|              635250 ns|RD-DATA   | F83211A4 |  1/ 1 | -- | 0000000B |  OKAY  | ---- | ------- | - | ---------- |
             |              634795 ns|              635250 ns|RD-DATA   | F83211A4 |  1/ 1 | -- | 0000000B |  OKAY  | ---- | ------- | - | ---------- |
   Picked  : |              635300 ns|              635305 ns|WR-NONSEQ | F83211A8 | ----- |  ? | -------- |  ----  |INCR  |    4    | 1 |           0|
             |              635300 ns|              635305 ns|WR-NONSEQ | F83211A8 | ----- |  ? | -------- |  ----  |INCR  |    4    | 1 |           0|
   Picked  : |              635305 ns|              635805 ns|WR-DATA   | F83211A8 |  1/ ? | -- | 0000000B |  OKAY  | ---- | ------- | - | ---------- |
             |              635305 ns|              635805 ns|WR-DATA   | F83211A8 |  1/ ? | -- | 0000000B |  OKAY  | ---- | ------- | - | ---------- |
   Picked  : |              635840 ns|              635845 ns|RD-NONSEQ | F83211A8 | ----- |  1 | -------- |  ----  |SINGLE|    4    | 1 |           0|
             |              635840 ns|              635845 ns|RD-NONSEQ | F83211A8 | ----- |  1 | -------- |  ----  |SINGLE|    4    | 1 |           0|
   Picked  : |              635845 ns|              636350 ns|RD-DATA   | F83211A8 |  1/ 1 | -- | 0000000B |  OKAY  | ---- | ------- | - | ---------- |
             |              635845 ns|              636350 ns|RD-DATA   | F83211A8 |  1/ 1 | -- | 0000000B |  OKAY  | ---- | ------- | - | ---------- |
   Picked  : |              636405 ns|              636410 ns|WR-NONSEQ | F83211AC | ----- |  ? | -------- |  ----  |INCR  |    4    | 1 |           0|
             |              636405 ns|              636410 ns|WR-NONSEQ | F83211AC | ----- |  ? | -------- |  ----  |INCR  |    4    | 1 |           0|
   Picked  : |              636410 ns|              636905 ns|WR-DATA   | F83211AC |  1/ ? | -- | 0000000B |  OKAY  | ---- | ------- | - | ---------- |
             |              636410 ns|              636905 ns|WR-DATA   | F83211AC |  1/ ? | -- | 0000000B |  OKAY  | ---- | ------- | - | ---------- |
   Picked  : |              636940 ns|              636945 ns|RD-NONSEQ | F83211AC | ----- |  1 | -------- |  ----  |SINGLE|    4    | 1 |           0|
             |              636940 ns|              636945 ns|RD-NONSEQ | F83211AC | ----- |  1 | -------- |  ----  |SINGLE|    4    | 1 |           0|
   Picked  : |              636945 ns|              637400 ns|RD-DATA   | F83211AC |  1/ 1 | -- | 0000000B |  OKAY  | ---- | ------- | - | ---------- |
             |              636945 ns|              637400 ns|RD-DATA   | F83211AC |  1/ 1 | -- | 0000000B |  OKAY  | ---- | ------- | - | ---------- |
   Picked  : |              637445 ns|              637450 ns|WR-NONSEQ | F83211B0 | ----- |  ? | -------- |  ----  |INCR  |    4    | 1 |           0|
             |              637445 ns|              637450 ns|WR-NONSEQ | F83211B0 | ----- |  ? | -------- |  ----  |INCR  |    4    | 1 |           0|
   Picked  : |              637450 ns|              637955 ns|WR-DATA   | F83211B0 |  1/ ? | -- | 0000000B |  OKAY  | ---- | ------- | - | ---------- |
             |              637450 ns|              637955 ns|WR-DATA   | F83211B0 |  1/ ? | -- | 0000000B |  OKAY  | ---- | ------- | - | ---------- |
   Picked  : |              637990 ns|              637995 ns|RD-NONSEQ | F83211B0 | ----- |  1 | -------- |  ----  |SINGLE|    4    | 1 |           0|
             |              637990 ns|              637995 ns|RD-NONSEQ | F83211B0 | ----- |  1 | -------- |  ----  |SINGLE|    4    | 1 |           0|
   Picked  : |              637995 ns|              638450 ns|RD-DATA   | F83211B0 |  1/ 1 | -- | 0000000B |  OKAY  | ---- | ------- | - | ---------- |
             |              637995 ns|              638450 ns|RD-DATA   | F83211B0 |  1/ 1 | -- | 0000000B |  OKAY  | ---- | ------- | - | ---------- |
   Picked  : |              638500 ns|              638505 ns|WR-NONSEQ | F83211B8 | ----- |  ? | -------- |  ----  |INCR  |    4    | 1 |           0|
             |              638500 ns|              638505 ns|WR-NONSEQ | F83211B8 | ----- |  ? | -------- |  ----  |INCR  |    4    | 1 |           0|
   Picked  : |              638505 ns|              639055 ns|WR-DATA   | F83211B8 |  1/ ? | -- | 0000000B |  OKAY  | ---- | ------- | - | ---------- |
             |              638505 ns|              639055 ns|WR-DATA   | F83211B8 |  1/ ? | -- | 0000000B |  OKAY  | ---- | ------- | - | ---------- |
   Picked  : |              639090 ns|              639095 ns|RD-NONSEQ | F83211B8 | ----- |  1 | -------- |  ----  |SINGLE|    4    | 1 |           0|
             |              639090 ns|              639095 ns|RD-NONSEQ | F83211B8 | ----- |  1 | -------- |  ----  |SINGLE|    4    | 1 |           0|
   Picked  : |              639095 ns|              639600 ns|RD-DATA   | F83211B8 |  1/ 1 | -- | 0000000B |  OKAY  | ---- | ------- | - | ---------- |
             |              639095 ns|              639600 ns|RD-DATA   | F83211B8 |  1/ 1 | -- | 0000000B |  OKAY  | ---- | ------- | - | ---------- |
   Picked  : |             2228970 ns|             2228975 ns|RD-NONSEQ | F8316CB8 | ----- |  1 | -------- |  ----  |SINGLE|    4    | 1 |           0|
             |             2228970 ns|             2228975 ns|RD-NONSEQ | F8316CB8 | ----- |  1 | -------- |  ----  |SINGLE|    4    | 1 |           0|
   Picked  : |             2228975 ns|             2229300 ns|RD-DATA   | F8316CB8 |  1/ 1 | -- | 00000000 |  OKAY  | ---- | ------- | - | ---------- |
             |             2228975 ns|             2229300 ns|RD-DATA   | F8316CB8 |  1/ 1 | -- | 00000000 |  OKAY  | ---- | ------- | - | ---------- |
   Picked  : |             2229335 ns|             2229340 ns|RD-NONSEQ | F8316CBC | ----- |  1 | -------- |  ----  |SINGLE|    4    | 1 |           0|
             |             2229335 ns|             2229340 ns|RD-NONSEQ | F8316CBC | ----- |  1 | -------- |  ----  |SINGLE|    4    | 1 |           0|
   Picked  : |             2229340 ns|             2229650 ns|RD-DATA   | F8316CBC |  1/ 1 | -- | 00000000 |  OKAY  | ---- | ------- | - | ---------- |
             |             2229340 ns|             2229650 ns|RD-DATA   | F8316CBC |  1/ 1 | -- | 00000000 |  OKAY  | ---- | ------- | - | ---------- |
   Picked  : |             2229685 ns|             2229690 ns|RD-NONSEQ | F8316CCC | ----- |  1 | -------- |  ----  |SINGLE|    4    | 1 |           0|
             |             2229685 ns|             2229690 ns|RD-NONSEQ | F8316CCC | ----- |  1 | -------- |  ----  |SINGLE|    4    | 1 |           0|
   Picked  : |             2229690 ns|             2230000 ns|RD-DATA   | F8316CCC |  1/ 1 | -- | 00000000 |  OKAY  | ---- | ------- | - | ---------- |
             |             2229690 ns|             2230000 ns|RD-DATA   | F8316CCC |  1/ 1 | -- | 00000000 |  OKAY  | ---- | ------- | - | ---------- |
   Picked  : |             2230035 ns|             2230040 ns|RD-NONSEQ | F8316CD0 | ----- |  1 | -------- |  ----  |SINGLE|    4    | 1 |           0|
             |             2230035 ns|             2230040 ns|RD-NONSEQ | F8316CD0 | ----- |  1 | -------- |  ----  |SINGLE|    4    | 1 |           0|
   Picked  : |             2230040 ns|             2230400 ns|RD-DATA   | F8316CD0 |  1/ 1 | -- | 00000000 |  OKAY  | ---- | ------- | - | ---------- |
             |             2230040 ns|             2230400 ns|RD-DATA   | F8316CD0 |  1/ 1 | -- | 00000000 |  OKAY  | ---- | ------- | - | ---------- |
   Picked  : |             2230435 ns|             2230440 ns|RD-NONSEQ | F8316CE0 | ----- |  1 | -------- |  ----  |SINGLE|    4    | 1 |           0|
             |             2230435 ns|             2230440 ns|RD-NONSEQ | F8316CE0 | ----- |  1 | -------- |  ----  |SINGLE|    4    | 1 |           0|
   Picked  : |             2230440 ns|             2230800 ns|RD-DATA   | F8316CE0 |  1/ 1 | -- | 00000000 |  OKAY  | ---- | ------- | - | ---------- |
             |             2230440 ns|             2230800 ns|RD-DATA   | F8316CE0 |  1/ 1 | -- | 00000000 |  OKAY  | ---- | ------- | - | ---------- |
   Picked  : |             2230835 ns|             2230840 ns|RD-NONSEQ | F8316CE4 | ----- |  1 | -------- |  ----  |SINGLE|    4    | 1 |           0|
             |             2230835 ns|             2230840 ns|RD-NONSEQ | F8316CE4 | ----- |  1 | -------- |  ----  |SINGLE|    4    | 1 |           0|
   Picked  : |             2230840 ns|             2231150 ns|RD-DATA   | F8316CE4 |  1/ 1 | -- | 00000000 |  OKAY  | ---- | ------- | - | ---------- |
             |             2230840 ns|             2231150 ns|RD-DATA   | F8316CE4 |  1/ 1 | -- | 00000000 |  OKAY  | ---- | ------- | - | ---------- |
   Picked  : |             2231185 ns|             2231190 ns|RD-NONSEQ | F8316CF4 | ----- |  1 | -------- |  ----  |SINGLE|    4    | 1 |           0|
             |             2231185 ns|             2231190 ns|RD-NONSEQ | F8316CF4 | ----- |  1 | -------- |  ----  |SINGLE|    4    | 1 |           0|
   Picked  : |             2231190 ns|             2231500 ns|RD-DATA   | F8316CF4 |  1/ 1 | -- | 00000000 |  OKAY  | ---- | ------- | - | ---------- |
             |             2231190 ns|             2231500 ns|RD-DATA   | F8316CF4 |  1/ 1 | -- | 00000000 |  OKAY  | ---- | ------- | - | ---------- |
   Picked  : |             2231535 ns|             2231540 ns|RD-NONSEQ | F8316CF8 | ----- |  1 | -------- |  ----  |SINGLE|    4    | 1 |           0|
             |             2231535 ns|             2231540 ns|RD-NONSEQ | F8316CF8 | ----- |  1 | -------- |  ----  |SINGLE|    4    | 1 |           0|
   Picked  : |             2231540 ns|             2231900 ns|RD-DATA   | F8316CF8 |  1/ 1 | -- | 00000000 |  OKAY  | ---- | ------- | - | ---------- |
             |             2231540 ns|             2231900 ns|RD-DATA   | F8316CF8 |  1/ 1 | -- | 00000000 |  OKAY  | ---- | ------- | - | ---------- |
   Picked  : |             2231935 ns|             2231940 ns|RD-NONSEQ | F8316D08 | ----- |  1 | -------- |  ----  |SINGLE|    4    | 1 |           0|
             |             2231935 ns|             2231940 ns|RD-NONSEQ | F8316D08 | ----- |  1 | -------- |  ----  |SINGLE|    4    | 1 |           0|
   Picked  : |             2231940 ns|             2232250 ns|RD-DATA   | F8316D08 |  1/ 1 | -- | 00000000 |  OKAY  | ---- | ------- | - | ---------- |
             |             2231940 ns|             2232250 ns|RD-DATA   | F8316D08 |  1/ 1 | -- | 00000000 |  OKAY  | ---- | ------- | - | ---------- |
   Picked  : |             2232285 ns|             2232290 ns|RD-NONSEQ | F8316D0C | ----- |  1 | -------- |  ----  |SINGLE|    4    | 1 |           0|
             |             2232285 ns|             2232290 ns|RD-NONSEQ | F8316D0C | ----- |  1 | -------- |  ----  |SINGLE|    4    | 1 |           0|
   Picked  : |             2232290 ns|             2232600 ns|RD-DATA   | F8316D0C |  1/ 1 | -- | 00000000 |  OKAY  | ---- | ------- | - | ---------- |
             |             2232290 ns|             2232600 ns|RD-DATA   | F8316D0C |  1/ 1 | -- | 00000000 |  OKAY  | ---- | ------- | - | ---------- |
   Picked  : |             2232635 ns|             2232640 ns|RD-NONSEQ | F8316D1C | ----- |  1 | -------- |  ----  |SINGLE|    4    | 1 |           0|
             |             2232635 ns|             2232640 ns|RD-NONSEQ | F8316D1C | ----- |  1 | -------- |  ----  |SINGLE|    4    | 1 |           0|
   Picked  : |             2232640 ns|             2233000 ns|RD-DATA   | F8316D1C |  1/ 1 | -- | 00000000 |  OKAY  | ---- | ------- | - | ---------- |
             |             2232640 ns|             2233000 ns|RD-DATA   | F8316D1C |  1/ 1 | -- | 00000000 |  OKAY  | ---- | ------- | - | ---------- |
   Picked  : |             2233035 ns|             2233040 ns|RD-NONSEQ | F8316D20 | ----- |  1 | -------- |  ----  |SINGLE|    4    | 1 |           0|
             |             2233035 ns|             2233040 ns|RD-NONSEQ | F8316D20 | ----- |  1 | -------- |  ----  |SINGLE|    4    | 1 |           0|
   Picked  : |             2233040 ns|             2233350 ns|RD-DATA   | F8316D20 |  1/ 1 | -- | 00000000 |  OKAY  | ---- | ------- | - | ---------- |
             |             2233040 ns|             2233350 ns|RD-DATA   | F8316D20 |  1/ 1 | -- | 00000000 |  OKAY  | ---- | ------- | - | ---------- |
   Picked  : |             2233385 ns|             2233390 ns|RD-NONSEQ | F8316D30 | ----- |  1 | -------- |  ----  |SINGLE|    4    | 1 |           0|
             |             2233385 ns|             2233390 ns|RD-NONSEQ | F8316D30 | ----- |  1 | -------- |  ----  |SINGLE|    4    | 1 |           0|
   Picked  : |             2233390 ns|             2233700 ns|RD-DATA   | F8316D30 |  1/ 1 | -- | 00000000 |  OKAY  | ---- | ------- | - | ---------- |
             |             2233390 ns|             2233700 ns|RD-DATA   | F8316D30 |  1/ 1 | -- | 00000000 |  OKAY  | ---- | ------- | - | ---------- |
   Picked  : |             2233735 ns|             2233740 ns|RD-NONSEQ | F8316D34 | ----- |  1 | -------- |  ----  |SINGLE|    4    | 1 |           0|
             |             2233735 ns|             2233740 ns|RD-NONSEQ | F8316D34 | ----- |  1 | -------- |  ----  |SINGLE|    4    | 1 |           0|
   Picked  : |             2233740 ns|             2234100 ns|RD-DATA   | F8316D34 |  1/ 1 | -- | 00000000 |  OKAY  | ---- | ------- | - | ---------- |
             |             2233740 ns|             2234100 ns|RD-DATA   | F8316D34 |  1/ 1 | -- | 00000000 |  OKAY  | ---- | ------- | - | ---------- |
   Picked  : |             2234135 ns|             2234140 ns|RD-NONSEQ | F8316D44 | ----- |  1 | -------- |  ----  |SINGLE|    4    | 1 |           0|
             |             2234135 ns|             2234140 ns|RD-NONSEQ | F8316D44 | ----- |  1 | -------- |  ----  |SINGLE|    4    | 1 |           0|
   Picked  : |             2234140 ns|             2234500 ns|RD-DATA   | F8316D44 |  1/ 1 | -- | 48250018 |  OKAY  | ---- | ------- | - | ---------- |
             |             2234140 ns|             2234500 ns|RD-DATA   | F8316D44 |  1/ 1 | -- | 48250018 |  OKAY  | ---- | ------- | - | ---------- |
   Picked  : |             2234535 ns|             2234540 ns|RD-NONSEQ | F8316D48 | ----- |  1 | -------- |  ----  |SINGLE|    4    | 1 |           0|
             |             2234535 ns|             2234540 ns|RD-NONSEQ | F8316D48 | ----- |  1 | -------- |  ----  |SINGLE|    4    | 1 |           0|
   Picked  : |             2234540 ns|             2234850 ns|RD-DATA   | F8316D48 |  1/ 1 | -- | 00000000 |  OKAY  | ---- | ------- | - | ---------- |
             |             2234540 ns|             2234850 ns|RD-DATA   | F8316D48 |  1/ 1 | -- | 00000000 |  OKAY  | ---- | ------- | - | ---------- |
   Picked  : |             2234885 ns|             2234890 ns|RD-NONSEQ | F8316D58 | ----- |  1 | -------- |  ----  |SINGLE|    4    | 1 |           0|
             |             2234885 ns|             2234890 ns|RD-NONSEQ | F8316D58 | ----- |  1 | -------- |  ----  |SINGLE|    4    | 1 |           0|
   Picked  : |             2234890 ns|             2235200 ns|RD-DATA   | F8316D58 |  1/ 1 | -- | 00000000 |  OKAY  | ---- | ------- | - | ---------- |
             |             2234890 ns|             2235200 ns|RD-DATA   | F8316D58 |  1/ 1 | -- | 00000000 |  OKAY  | ---- | ------- | - | ---------- |
   Picked  : |             2235235 ns|             2235240 ns|RD-NONSEQ | F8316D5C | ----- |  1 | -------- |  ----  |SINGLE|    4    | 1 |           0|
             |             2235235 ns|             2235240 ns|RD-NONSEQ | F8316D5C | ----- |  1 | -------- |  ----  |SINGLE|    4    | 1 |           0|
   Picked  : |             2235240 ns|             2235600 ns|RD-DATA   | F8316D5C |  1/ 1 | -- | 00000000 |  OKAY  | ---- | ------- | - | ---------- |
             |             2235240 ns|             2235600 ns|RD-DATA   | F8316D5C |  1/ 1 | -- | 00000000 |  OKAY  | ---- | ------- | - | ---------- |
   Picked  : |             2235635 ns|             2235640 ns|RD-NONSEQ | F8316D6C | ----- |  1 | -------- |  ----  |SINGLE|    4    | 1 |           0|
             |             2235635 ns|             2235640 ns|RD-NONSEQ | F8316D6C | ----- |  1 | -------- |  ----  |SINGLE|    4    | 1 |           0|
   Picked  : |             2235640 ns|             2235950 ns|RD-DATA   | F8316D6C |  1/ 1 | -- | 00000000 |  OKAY  | ---- | ------- | - | ---------- |
             |             2235640 ns|             2235950 ns|RD-DATA   | F8316D6C |  1/ 1 | -- | 00000000 |  OKAY  | ---- | ------- | - | ---------- |
   Picked  : |             2235985 ns|             2235990 ns|RD-NONSEQ | F8316D70 | ----- |  1 | -------- |  ----  |SINGLE|    4    | 1 |           0|
             |             2235985 ns|             2235990 ns|RD-NONSEQ | F8316D70 | ----- |  1 | -------- |  ----  |SINGLE|    4    | 1 |           0|
   Picked  : |             2235990 ns|             2236300 ns|RD-DATA   | F8316D70 |  1/ 1 | -- | 00000000 |  OKAY  | ---- | ------- | - | ---------- |
             |             2235990 ns|             2236300 ns|RD-DATA   | F8316D70 |  1/ 1 | -- | 00000000 |  OKAY  | ---- | ------- | - | ---------- |
   Picked  : |             2236335 ns|             2236340 ns|RD-NONSEQ | F8316D80 | ----- |  1 | -------- |  ----  |SINGLE|    4    | 1 |           0|
             |             2236335 ns|             2236340 ns|RD-NONSEQ | F8316D80 | ----- |  1 | -------- |  ----  |SINGLE|    4    | 1 |           0|
   Picked  : |             2236340 ns|             2236650 ns|RD-DATA   | F8316D80 |  1/ 1 | -- | F8316D80 |  OKAY  | ---- | ------- | - | ---------- |
             |             2236340 ns|             2236650 ns|RD-DATA   | F8316D80 |  1/ 1 | -- | F8316D80 |  OKAY  | ---- | ------- | - | ---------- |
   Picked  : |             2236685 ns|             2236690 ns|RD-NONSEQ | F8316D84 | ----- |  1 | -------- |  ----  |SINGLE|    4    | 1 |           0|
             |             2236685 ns|             2236690 ns|RD-NONSEQ | F8316D84 | ----- |  1 | -------- |  ----  |SINGLE|    4    | 1 |           0|
   Picked  : |             2236690 ns|             2237000 ns|RD-DATA   | F8316D84 |  1/ 1 | -- | 00000000 |  OKAY  | ---- | ------- | - | ---------- |
             |             2236690 ns|             2237000 ns|RD-DATA   | F8316D84 |  1/ 1 | -- | 00000000 |  OKAY  | ---- | ------- | - | ---------- |
   Picked  : |             2237035 ns|             2237040 ns|RD-NONSEQ | F8316D94 | ----- |  1 | -------- |  ----  |SINGLE|    4    | 1 |           0|
             |             2237035 ns|             2237040 ns|RD-NONSEQ | F8316D94 | ----- |  1 | -------- |  ----  |SINGLE|    4    | 1 |           0|
   Picked  : |             2237040 ns|             2237400 ns|RD-DATA   | F8316D94 |  1/ 1 | -- | 00000000 |  OKAY  | ---- | ------- | - | ---------- |
             |             2237040 ns|             2237400 ns|RD-DATA   | F8316D94 |  1/ 1 | -- | 00000000 |  OKAY  | ---- | ------- | - | ---------- |
   Picked  : |             2237435 ns|             2237440 ns|RD-NONSEQ | F8316D98 | ----- |  1 | -------- |  ----  |SINGLE|    4    | 1 |           0|
             |             2237435 ns|             2237440 ns|RD-NONSEQ | F8316D98 | ----- |  1 | -------- |  ----  |SINGLE|    4    | 1 |           0|
   Picked  : |             2237440 ns|             2237750 ns|RD-DATA   | F8316D98 |  1/ 1 | -- | 00000000 |  OKAY  | ---- | ------- | - | ---------- |
             |             2237440 ns|             2237750 ns|RD-DATA   | F8316D98 |  1/ 1 | -- | 00000000 |  OKAY  | ---- | ------- | - | ---------- |
   Picked  : |             2237785 ns|             2237790 ns|RD-NONSEQ | F8316DA8 | ----- |  1 | -------- |  ----  |SINGLE|    4    | 1 |           0|
             |             2237785 ns|             2237790 ns|RD-NONSEQ | F8316DA8 | ----- |  1 | -------- |  ----  |SINGLE|    4    | 1 |           0|
   Picked  : |             2237790 ns|             2238100 ns|RD-DATA   | F8316DA8 |  1/ 1 | -- | 00000000 |  OKAY  | ---- | ------- | - | ---------- |
             |             2237790 ns|             2238100 ns|RD-DATA   | F8316DA8 |  1/ 1 | -- | 00000000 |  OKAY  | ---- | ------- | - | ---------- |
   Picked  : |             2238135 ns|             2238140 ns|RD-NONSEQ | F8316DAC | ----- |  1 | -------- |  ----  |SINGLE|    4    | 1 |           0|
             |             2238135 ns|             2238140 ns|RD-NONSEQ | F8316DAC | ----- |  1 | -------- |  ----  |SINGLE|    4    | 1 |           0|
   Picked  : |             2238140 ns|             2238450 ns|RD-DATA   | F8316DAC |  1/ 1 | -- | 00000000 |  OKAY  | ---- | ------- | - | ---------- |
             |             2238140 ns|             2238450 ns|RD-DATA   | F8316DAC |  1/ 1 | -- | 00000000 |  OKAY  | ---- | ------- | - | ---------- |
   Picked  : |             2238485 ns|             2238490 ns|RD-NONSEQ | F8316DBC | ----- |  1 | -------- |  ----  |SINGLE|    4    | 1 |           0|
             |             2238485 ns|             2238490 ns|RD-NONSEQ | F8316DBC | ----- |  1 | -------- |  ----  |SINGLE|    4    | 1 |           0|
   Picked  : |             2238490 ns|             2238800 ns|RD-DATA   | F8316DBC |  1/ 1 | -- | 00000000 |  OKAY  | ---- | ------- | - | ---------- |
             |             2238490 ns|             2238800 ns|RD-DATA   | F8316DBC |  1/ 1 | -- | 00000000 |  OKAY  | ---- | ------- | - | ---------- |
   Picked  : |             2238835 ns|             2238840 ns|RD-NONSEQ | F8316DC0 | ----- |  1 | -------- |  ----  |SINGLE|    4    | 1 |           0|
             |             2238835 ns|             2238840 ns|RD-NONSEQ | F8316DC0 | ----- |  1 | -------- |  ----  |SINGLE|    4    | 1 |           0|
   Picked  : |             2238840 ns|             2239200 ns|RD-DATA   | F8316DC0 |  1/ 1 | -- | 00000000 |  OKAY  | ---- | ------- | - | ---------- |
             |             2238840 ns|             2239200 ns|RD-DATA   | F8316DC0 |  1/ 1 | -- | 00000000 |  OKAY  | ---- | ------- | - | ---------- |
   Picked  : |             2239235 ns|             2239240 ns|RD-NONSEQ | F8316DD0 | ----- |  1 | -------- |  ----  |SINGLE|    4    | 1 |           0|
             |             2239235 ns|             2239240 ns|RD-NONSEQ | F8316DD0 | ----- |  1 | -------- |  ----  |SINGLE|    4    | 1 |           0|
   Picked  : |             2239240 ns|             2239550 ns|RD-DATA   | F8316DD0 |  1/ 1 | -- | 00000000 |  OKAY  | ---- | ------- | - | ---------- |
             |             2239240 ns|             2239550 ns|RD-DATA   | F8316DD0 |  1/ 1 | -- | 00000000 |  OKAY  | ---- | ------- | - | ---------- |
   Picked  : |             2239585 ns|             2239590 ns|RD-NONSEQ | F8316DD4 | ----- |  1 | -------- |  ----  |SINGLE|    4    | 1 |           0|
             |             2239585 ns|             2239590 ns|RD-NONSEQ | F8316DD4 | ----- |  1 | -------- |  ----  |SINGLE|    4    | 1 |           0|
   Picked  : |             2239590 ns|             2239900 ns|RD-DATA   | F8316DD4 |  1/ 1 | -- | 00000000 |  OKAY  | ---- | ------- | - | ---------- |
             |             2239590 ns|             2239900 ns|RD-DATA   | F8316DD4 |  1/ 1 | -- | 00000000 |  OKAY  | ---- | ------- | - | ---------- |
   Picked  : |             2239935 ns|             2239940 ns|RD-NONSEQ | F8316DE4 | ----- |  1 | -------- |  ----  |SINGLE|    4    | 1 |           0|
             |             2239935 ns|             2239940 ns|RD-NONSEQ | F8316DE4 | ----- |  1 | -------- |  ----  |SINGLE|    4    | 1 |           0|
   Picked  : |             2239940 ns|             2240250 ns|RD-DATA   | F8316DE4 |  1/ 1 | -- | 00000000 |  OKAY  | ---- | ------- | - | ---------- |
             |             2239940 ns|             2240250 ns|RD-DATA   | F8316DE4 |  1/ 1 | -- | 00000000 |  OKAY  | ---- | ------- | - | ---------- |
   Picked  : |             2240285 ns|             2240290 ns|RD-NONSEQ | F8316DE8 | ----- |  1 | -------- |  ----  |SINGLE|    4    | 1 |           0|
             |             2240285 ns|             2240290 ns|RD-NONSEQ | F8316DE8 | ----- |  1 | -------- |  ----  |SINGLE|    4    | 1 |           0|
   Picked  : |             2240290 ns|             2240600 ns|RD-DATA   | F8316DE8 |  1/ 1 | -- | 00000000 |  OKAY  | ---- | ------- | - | ---------- |
             |             2240290 ns|             2240600 ns|RD-DATA   | F8316DE8 |  1/ 1 | -- | 00000000 |  OKAY  | ---- | ------- | - | ---------- |
   Picked  : |             2240635 ns|             2240640 ns|RD-NONSEQ | F8316DF8 | ----- |  1 | -------- |  ----  |SINGLE|    4    | 1 |           0|
             |             2240635 ns|             2240640 ns|RD-NONSEQ | F8316DF8 | ----- |  1 | -------- |  ----  |SINGLE|    4    | 1 |           0|
   Picked  : |             2240640 ns|             2240950 ns|RD-DATA   | F8316DF8 |  1/ 1 | -- | 00000000 |  OKAY  | ---- | ------- | - | ---------- |
             |             2240640 ns|             2240950 ns|RD-DATA   | F8316DF8 |  1/ 1 | -- | 00000000 |  OKAY  | ---- | ------- | - | ---------- |
   Picked  : |             2240985 ns|             2240990 ns|RD-NONSEQ | F8316DFC | ----- |  1 | -------- |  ----  |SINGLE|    4    | 1 |           0|
             |             2240985 ns|             2240990 ns|RD-NONSEQ | F8316DFC | ----- |  1 | -------- |  ----  |SINGLE|    4    | 1 |           0|
   Picked  : |             2240990 ns|             2241300 ns|RD-DATA   | F8316DFC |  1/ 1 | -- | 00000000 |  OKAY  | ---- | ------- | - | ---------- |
             |             2240990 ns|             2241300 ns|RD-DATA   | F8316DFC |  1/ 1 | -- | 00000000 |  OKAY  | ---- | ------- | - | ---------- |
   Picked  : |             2241335 ns|             2241340 ns|RD-NONSEQ | F8316E0C | ----- |  1 | -------- |  ----  |SINGLE|    4    | 1 |           0|
             |             2241335 ns|             2241340 ns|RD-NONSEQ | F8316E0C | ----- |  1 | -------- |  ----  |SINGLE|    4    | 1 |           0|
   Picked  : |             2241340 ns|             2241650 ns|RD-DATA   | F8316E0C |  1/ 1 | -- | 00000000 |  OKAY  | ---- | ------- | - | ---------- |
             |             2241340 ns|             2241650 ns|RD-DATA   | F8316E0C |  1/ 1 | -- | 00000000 |  OKAY  | ---- | ------- | - | ---------- |
   Picked  : |             2241685 ns|             2241690 ns|RD-NONSEQ | F8316E10 | ----- |  1 | -------- |  ----  |SINGLE|    4    | 1 |           0|
             |             2241685 ns|             2241690 ns|RD-NONSEQ | F8316E10 | ----- |  1 | -------- |  ----  |SINGLE|    4    | 1 |           0|
   Picked  : |             2241690 ns|             2242050 ns|RD-DATA   | F8316E10 |  1/ 1 | -- | 00000000 |  OKAY  | ---- | ------- | - | ---------- |
             |             2241690 ns|             2242050 ns|RD-DATA   | F8316E10 |  1/ 1 | -- | 00000000 |  OKAY  | ---- | ------- | - | ---------- |
   Picked  : |             2242085 ns|             2242090 ns|RD-NONSEQ | F8316E20 | ----- |  1 | -------- |  ----  |SINGLE|    4    | 1 |           0|
             |             2242085 ns|             2242090 ns|RD-NONSEQ | F8316E20 | ----- |  1 | -------- |  ----  |SINGLE|    4    | 1 |           0|
   Picked  : |             2242090 ns|             2242400 ns|RD-DATA   | F8316E20 |  1/ 1 | -- | 3FF0BDB2 |  OKAY  | ---- | ------- | - | ---------- |
             |             2242090 ns|             2242400 ns|RD-DATA   | F8316E20 |  1/ 1 | -- | 3FF0BDB2 |  OKAY  | ---- | ------- | - | ---------- |
   Picked  : |             2242435 ns|             2242440 ns|RD-NONSEQ | F8316E24 | ----- |  1 | -------- |  ----  |SINGLE|    4    | 1 |           0|
             |             2242435 ns|             2242440 ns|RD-NONSEQ | F8316E24 | ----- |  1 | -------- |  ----  |SINGLE|    4    | 1 |           0|
   Picked  : |             2242440 ns|             2242750 ns|RD-DATA   | F8316E24 |  1/ 1 | -- | 00000000 |  OKAY  | ---- | ------- | - | ---------- |
             |             2242440 ns|             2242750 ns|RD-DATA   | F8316E24 |  1/ 1 | -- | 00000000 |  OKAY  | ---- | ------- | - | ---------- |
   Picked  : |             2242785 ns|             2242790 ns|RD-NONSEQ | F8316E34 | ----- |  1 | -------- |  ----  |SINGLE|    4    | 1 |           0|
             |             2242785 ns|             2242790 ns|RD-NONSEQ | F8316E34 | ----- |  1 | -------- |  ----  |SINGLE|    4    | 1 |           0|
   Picked  : |             2242790 ns|             2243100 ns|RD-DATA   | F8316E34 |  1/ 1 | -- | 3FF3529C |  OKAY  | ---- | ------- | - | ---------- |
             |             2242790 ns|             2243100 ns|RD-DATA   | F8316E34 |  1/ 1 | -- | 3FF3529C |  OKAY  | ---- | ------- | - | ---------- |
   Picked  : |             2243135 ns|             2243140 ns|RD-NONSEQ | F8316E38 | ----- |  1 | -------- |  ----  |SINGLE|    4    | 1 |           0|
             |             2243135 ns|             2243140 ns|RD-NONSEQ | F8316E38 | ----- |  1 | -------- |  ----  |SINGLE|    4    | 1 |           0|
   Picked  : |             2243140 ns|             2243450 ns|RD-DATA   | F8316E38 |  1/ 1 | -- | 00000000 |  OKAY  | ---- | ------- | - | ---------- |
             |             2243140 ns|             2243450 ns|RD-DATA   | F8316E38 |  1/ 1 | -- | 00000000 |  OKAY  | ---- | ------- | - | ---------- |
   Picked  : |             2243485 ns|             2243490 ns|RD-NONSEQ | F8316E48 | ----- |  1 | -------- |  ----  |SINGLE|    4    | 1 |           0|
             |             2243485 ns|             2243490 ns|RD-NONSEQ | F8316E48 | ----- |  1 | -------- |  ----  |SINGLE|    4    | 1 |           0|
   Picked  : |             2243490 ns|             2243800 ns|RD-DATA   | F8316E48 |  1/ 1 | -- | 00000000 |  OKAY  | ---- | ------- | - | ---------- |
             |             2243490 ns|             2243800 ns|RD-DATA   | F8316E48 |  1/ 1 | -- | 00000000 |  OKAY  | ---- | ------- | - | ---------- |
   Picked  : |             2243835 ns|             2243840 ns|RD-NONSEQ | F8316E4C | ----- |  1 | -------- |  ----  |SINGLE|    4    | 1 |           0|
             |             2243835 ns|             2243840 ns|RD-NONSEQ | F8316E4C | ----- |  1 | -------- |  ----  |SINGLE|    4    | 1 |           0|
   Picked  : |             2243840 ns|             2244150 ns|RD-DATA   | F8316E4C |  1/ 1 | -- | 00000000 |  OKAY  | ---- | ------- | - | ---------- |
             |             2243840 ns|             2244150 ns|RD-DATA   | F8316E4C |  1/ 1 | -- | 00000000 |  OKAY  | ---- | ------- | - | ---------- |
   Picked  : |             2244185 ns|             2244190 ns|RD-NONSEQ | F8316E5C | ----- |  1 | -------- |  ----  |SINGLE|    4    | 1 |           0|
             |             2244185 ns|             2244190 ns|RD-NONSEQ | F8316E5C | ----- |  1 | -------- |  ----  |SINGLE|    4    | 1 |           0|
   Picked  : |             2244190 ns|             2244500 ns|RD-DATA   | F8316E5C |  1/ 1 | -- | 00000000 |  OKAY  | ---- | ------- | - | ---------- |
             |             2244190 ns|             2244500 ns|RD-DATA   | F8316E5C |  1/ 1 | -- | 00000000 |  OKAY  | ---- | ------- | - | ---------- |
   Picked  : |             2244535 ns|             2244540 ns|RD-NONSEQ | F8316E60 | ----- |  1 | -------- |  ----  |SINGLE|    4    | 1 |           0|
             |             2244535 ns|             2244540 ns|RD-NONSEQ | F8316E60 | ----- |  1 | -------- |  ----  |SINGLE|    4    | 1 |           0|
   Picked  : |             2244540 ns|             2244850 ns|RD-DATA   | F8316E60 |  1/ 1 | -- | 00000000 |  OKAY  | ---- | ------- | - | ---------- |
             |             2244540 ns|             2244850 ns|RD-DATA   | F8316E60 |  1/ 1 | -- | 00000000 |  OKAY  | ---- | ------- | - | ---------- |
   Picked  : |             2244885 ns|             2244890 ns|RD-NONSEQ | F8316E70 | ----- |  1 | -------- |  ----  |SINGLE|    4    | 1 |           0|
             |             2244885 ns|             2244890 ns|RD-NONSEQ | F8316E70 | ----- |  1 | -------- |  ----  |SINGLE|    4    | 1 |           0|
   Picked  : |             2244890 ns|             2245200 ns|RD-DATA   | F8316E70 |  1/ 1 | -- | 00000000 |  OKAY  | ---- | ------- | - | ---------- |
             |             2244890 ns|             2245200 ns|RD-DATA   | F8316E70 |  1/ 1 | -- | 00000000 |  OKAY  | ---- | ------- | - | ---------- |
   Picked  : |             2245235 ns|             2245240 ns|RD-NONSEQ | F8316E74 | ----- |  1 | -------- |  ----  |SINGLE|    4    | 1 |           0|
             |             2245235 ns|             2245240 ns|RD-NONSEQ | F8316E74 | ----- |  1 | -------- |  ----  |SINGLE|    4    | 1 |           0|
   Picked  : |             2245240 ns|             2245550 ns|RD-DATA   | F8316E74 |  1/ 1 | -- | 00000000 |  OKAY  | ---- | ------- | - | ---------- |
             |             2245240 ns|             2245550 ns|RD-DATA   | F8316E74 |  1/ 1 | -- | 00000000 |  OKAY  | ---- | ------- | - | ---------- |
   Picked  : |             2245585 ns|             2245590 ns|RD-NONSEQ | F8316E84 | ----- |  1 | -------- |  ----  |SINGLE|    4    | 1 |           0|
             |             2245585 ns|             2245590 ns|RD-NONSEQ | F8316E84 | ----- |  1 | -------- |  ----  |SINGLE|    4    | 1 |           0|
   Picked  : |             2245590 ns|             2245900 ns|RD-DATA   | F8316E84 |  1/ 1 | -- | 00000000 |  OKAY  | ---- | ------- | - | ---------- |
             |             2245590 ns|             2245900 ns|RD-DATA   | F8316E84 |  1/ 1 | -- | 00000000 |  OKAY  | ---- | ------- | - | ---------- |
   Picked  : |             2245935 ns|             2245940 ns|RD-NONSEQ | F8316E88 | ----- |  1 | -------- |  ----  |SINGLE|    4    | 1 |           0|
             |             2245935 ns|             2245940 ns|RD-NONSEQ | F8316E88 | ----- |  1 | -------- |  ----  |SINGLE|    4    | 1 |           0|
   Picked  : |             2245940 ns|             2246250 ns|RD-DATA   | F8316E88 |  1/ 1 | -- | 00000000 |  OKAY  | ---- | ------- | - | ---------- |
             |             2245940 ns|             2246250 ns|RD-DATA   | F8316E88 |  1/ 1 | -- | 00000000 |  OKAY  | ---- | ------- | - | ---------- |
   Picked  : |             2246285 ns|             2246290 ns|RD-NONSEQ | F8316E98 | ----- |  1 | -------- |  ----  |SINGLE|    4    | 1 |           0|
             |             2246285 ns|             2246290 ns|RD-NONSEQ | F8316E98 | ----- |  1 | -------- |  ----  |SINGLE|    4    | 1 |           0|
   Picked  : |             2246290 ns|             2246650 ns|RD-DATA   | F8316E98 |  1/ 1 | -- | 00000000 |  OKAY  | ---- | ------- | - | ---------- |
             |             2246290 ns|             2246650 ns|RD-DATA   | F8316E98 |  1/ 1 | -- | 00000000 |  OKAY  | ---- | ------- | - | ---------- |
   Picked  : |             2246685 ns|             2246690 ns|RD-NONSEQ | F8316E9C | ----- |  1 | -------- |  ----  |SINGLE|    4    | 1 |           0|
             |             2246685 ns|             2246690 ns|RD-NONSEQ | F8316E9C | ----- |  1 | -------- |  ----  |SINGLE|    4    | 1 |           0|
   Picked  : |             2246690 ns|             2247050 ns|RD-DATA   | F8316E9C |  1/ 1 | -- | 00000000 |  OKAY  | ---- | ------- | - | ---------- |
             |             2246690 ns|             2247050 ns|RD-DATA   | F8316E9C |  1/ 1 | -- | 00000000 |  OKAY  | ---- | ------- | - | ---------- |
   Picked  : |             2247085 ns|             2247090 ns|RD-NONSEQ | F8316EAC | ----- |  1 | -------- |  ----  |SINGLE|    4    | 1 |           0|
             |             2247085 ns|             2247090 ns|RD-NONSEQ | F8316EAC | ----- |  1 | -------- |  ----  |SINGLE|    4    | 1 |           0|
   Picked  : |             2247090 ns|             2247450 ns|RD-DATA   | F8316EAC |  1/ 1 | -- | 00000000 |  OKAY  | ---- | ------- | - | ---------- |
             |             2247090 ns|             2247450 ns|RD-DATA   | F8316EAC |  1/ 1 | -- | 00000000 |  OKAY  | ---- | ------- | - | ---------- |
   Picked  : |             2247485 ns|             2247490 ns|RD-NONSEQ | F8316EB0 | ----- |  1 | -------- |  ----  |SINGLE|    4    | 1 |           0|
             |             2247485 ns|             2247490 ns|RD-NONSEQ | F8316EB0 | ----- |  1 | -------- |  ----  |SINGLE|    4    | 1 |           0|
   Picked  : |             2247490 ns|             2247800 ns|RD-DATA   | F8316EB0 |  1/ 1 | -- | 00000000 |  OKAY  | ---- | ------- | - | ---------- |
             |             2247490 ns|             2247800 ns|RD-DATA   | F8316EB0 |  1/ 1 | -- | 00000000 |  OKAY  | ---- | ------- | - | ---------- |
