 ... HEADER decoding
     line ::     0 :: Instance: uvm_test_top.top_env_i.ahbfab_env_i.mvc_ahb_mon_8_env_i.logger_handle_ahb
     line ::     1 :: AHB Clk Cycle = 40 ns; AHB Clk Frequency = 25.00 MHz; Data bus width = 32 bits
     line ::     2 :: ------------------------------------------------------------------------------------------------------------------------------------------
     line ::     3 :: |NONSEQ/SEQ Assert Time |  HREADY Assert Time   |  DIR     |   ADDR   | BEAT  |  L |   DATA   |  RESP  | BURST| BURST   | H |    HSEL    |
     line ::     4 :: |                       |                       |   -      |          |  NUM  |  E |          |        | Type | Size    | P |   (SLAVE   |
     line ::     5 :: |                       |                       | PHASE    |          |       |  N |          |        |      |= 2^HSIZE| R |    INDEX)  |
     line ::     6 :: |                       |                       |          |          |       |    |          |        |      | bytes   | O |            |
     line ::     7 :: |                       |                       |          |          |       |    |          |        |      |         | T |            |
     line ::     8 :: |                       |                       |          |          |       |    |          |        |      |         |   |            |
     line ::     9 :: ------------------------------------------------------------------------------------------------------------------------------------------
 ... HEADER decoding done
 ... TABLE  decoding ... 
     line ::    10 :: |              213940 ns|              213980 ns|RD-NONSEQ | F832116C | ----- |  1 | -------- |  ----  |SINGLE|    4    | 0 |           0|
                      0 :: first command
     line ::    11 :: |              213980 ns|              214700 ns|RD-DATA   | F832116C |  1/ 1 | -- | 00000181 |  OKAY  | ---- | ------- | - | ---------- |
                      ::             AHB address transfer phase detected
                      :: sequential  AHB data    transfer phase detected FIRST
                         DATA transfer assertion time :   213980 ns
                         ADDR transfer assertion time :   213940 ns
     line ::    12 :: |              215140 ns|              215180 ns|WR-NONSEQ | F832116C | ----- |  1 | -------- |  ----  |SINGLE|    4    | 0 |           0|
                      0 :: first command
     line ::    13 :: |              215180 ns|              215820 ns|WR-DATA   | F832116C |  1/ 1 | -- | 00000181 |  OKAY  | ---- | ------- | - | ---------- |
                      ::             AHB address transfer phase detected
                      :: sequential  AHB data    transfer phase detected FIRST
                         DATA transfer assertion time :   215180 ns
                         ADDR transfer assertion time :   215140 ns
     line ::    14 :: |              216620 ns|              216660 ns|RD-NONSEQ | F832116C | ----- |  1 | -------- |  ----  |SINGLE|    4    | 0 |           0|
                      0 :: first command
     line ::    15 :: |              216660 ns|              217340 ns|RD-DATA   | F832116C |  1/ 1 | -- | 00000181 |  OKAY  | ---- | ------- | - | ---------- |
                      ::             AHB address transfer phase detected
                      :: sequential  AHB data    transfer phase detected FIRST
                         DATA transfer assertion time :   216660 ns
                         ADDR transfer assertion time :   216620 ns
     line ::    16 :: |              217780 ns|              217820 ns|WR-NONSEQ | F832116C | ----- |  1 | -------- |  ----  |SINGLE|    4    | 0 |           0|
                      0 :: first command
     line ::    17 :: |              217820 ns|              218540 ns|WR-DATA   | F832116C |  1/ 1 | -- | 00000180 |  OKAY  | ---- | ------- | - | ---------- |
                      ::             AHB address transfer phase detected
                      :: sequential  AHB data    transfer phase detected FIRST
                         DATA transfer assertion time :   217820 ns
                         ADDR transfer assertion time :   217780 ns
     line ::    18 :: |              219140 ns|              219180 ns|RD-NONSEQ | F832116C | ----- |  1 | -------- |  ----  |SINGLE|    4    | 0 |           0|
                      0 :: first command
     line ::    19 :: |              219180 ns|              219820 ns|RD-DATA   | F832116C |  1/ 1 | -- | 00000180 |  OKAY  | ---- | ------- | - | ---------- |
                      ::             AHB address transfer phase detected
                      :: sequential  AHB data    transfer phase detected FIRST
                         DATA transfer assertion time :   219180 ns
                         ADDR transfer assertion time :   219140 ns
     line ::    20 :: |              220260 ns|              220300 ns|WR-NONSEQ | F832116C | ----- |  1 | -------- |  ----  |SINGLE|    4    | 0 |           0|
                      0 :: first command
     line ::    21 :: |              220300 ns|              221020 ns|WR-DATA   | F832116C |  1/ 1 | -- | 00000180 |  OKAY  | ---- | ------- | - | ---------- |
                      ::             AHB address transfer phase detected
                      :: sequential  AHB data    transfer phase detected FIRST
                         DATA transfer assertion time :   220300 ns
                         ADDR transfer assertion time :   220260 ns
     line ::    22 :: |              221420 ns|              221460 ns|RD-NONSEQ | F8321170 | ----- |  1 | -------- |  ----  |SINGLE|    4    | 0 |           0|
                      0 :: first command
     line ::    23 :: |              221460 ns|              222140 ns|RD-DATA   | F8321170 |  1/ 1 | -- | 00000693 |  OKAY  | ---- | ------- | - | ---------- |
                      ::             AHB address transfer phase detected
                      :: sequential  AHB data    transfer phase detected FIRST
                         DATA transfer assertion time :   221460 ns
                         ADDR transfer assertion time :   221420 ns
     line ::    24 :: |              222580 ns|              222620 ns|WR-NONSEQ | F8321170 | ----- |  1 | -------- |  ----  |SINGLE|    4    | 0 |           0|
                      0 :: first command
     line ::    25 :: |              222620 ns|              223260 ns|WR-DATA   | F8321170 |  1/ 1 | -- | 00000693 |  OKAY  | ---- | ------- | - | ---------- |
                      ::             AHB address transfer phase detected
                      :: sequential  AHB data    transfer phase detected FIRST
                         DATA transfer assertion time :   222620 ns
                         ADDR transfer assertion time :   222580 ns
     line ::    26 :: |              223660 ns|              223700 ns|RD-NONSEQ | F8321174 | ----- |  1 | -------- |  ----  |SINGLE|    4    | 0 |           0|
                      0 :: first command
     line ::    27 :: |              223700 ns|              224380 ns|RD-DATA   | F8321174 |  1/ 1 | -- | 000000FB |  OKAY  | ---- | ------- | - | ---------- |
                      ::             AHB address transfer phase detected
                      :: sequential  AHB data    transfer phase detected FIRST
                         DATA transfer assertion time :   223700 ns
                         ADDR transfer assertion time :   223660 ns
     line ::    28 :: |              224820 ns|              224860 ns|WR-NONSEQ | F8321174 | ----- |  1 | -------- |  ----  |SINGLE|    4    | 0 |           0|
                      0 :: first command
     line ::    29 :: |              224860 ns|              225500 ns|WR-DATA   | F8321174 |  1/ 1 | -- | 000000FB |  OKAY  | ---- | ------- | - | ---------- |
                      ::             AHB address transfer phase detected
                      :: sequential  AHB data    transfer phase detected FIRST
                         DATA transfer assertion time :   224860 ns
                         ADDR transfer assertion time :   224820 ns
     line ::    30 :: |              225900 ns|              225940 ns|RD-NONSEQ | F832116C | ----- |  1 | -------- |  ----  |SINGLE|    4    | 0 |           0|
                      0 :: first command
     line ::    31 :: |              225940 ns|              226700 ns|RD-DATA   | F832116C |  1/ 1 | -- | 00000180 |  OKAY  | ---- | ------- | - | ---------- |
                      ::             AHB address transfer phase detected
                      :: sequential  AHB data    transfer phase detected FIRST
                         DATA transfer assertion time :   225940 ns
                         ADDR transfer assertion time :   225900 ns
     line ::    32 :: |              227140 ns|              227180 ns|WR-NONSEQ | F832116C | ----- |  1 | -------- |  ----  |SINGLE|    4    | 0 |           0|
                      0 :: first command
     line ::    33 :: |              227180 ns|              227900 ns|WR-DATA   | F832116C |  1/ 1 | -- | 00000380 |  OKAY  | ---- | ------- | - | ---------- |
                      ::             AHB address transfer phase detected
                      :: sequential  AHB data    transfer phase detected FIRST
                         DATA transfer assertion time :   227180 ns
                         ADDR transfer assertion time :   227140 ns
     line ::    34 :: |              238300 ns|              238340 ns|RD-NONSEQ | F832116C | ----- |  1 | -------- |  ----  |SINGLE|    4    | 0 |           0|
                      0 :: first command
     line ::    35 :: |              238340 ns|              239020 ns|RD-DATA   | F832116C |  1/ 1 | -- | 00000380 |  OKAY  | ---- | ------- | - | ---------- |
                      ::             AHB address transfer phase detected
                      :: sequential  AHB data    transfer phase detected FIRST
                         DATA transfer assertion time :   238340 ns
                         ADDR transfer assertion time :   238300 ns
     line ::    36 :: |              239460 ns|              239500 ns|WR-NONSEQ | F832116C | ----- |  1 | -------- |  ----  |SINGLE|    4    | 0 |           0|
                      0 :: first command
     line ::    37 :: |              239500 ns|              240140 ns|WR-DATA   | F832116C |  1/ 1 | -- | 00000382 |  OKAY  | ---- | ------- | - | ---------- |
                      ::             AHB address transfer phase detected
                      :: sequential  AHB data    transfer phase detected FIRST
                         DATA transfer assertion time :   239500 ns
                         ADDR transfer assertion time :   239460 ns
     line ::    38 :: |              290540 ns|              290580 ns|RD-NONSEQ | F832116C | ----- |  1 | -------- |  ----  |SINGLE|    4    | 0 |           0|
                      0 :: first command
     line ::    39 :: |              290580 ns|              291260 ns|RD-DATA   | F832116C |  1/ 1 | -- | 00000382 |  OKAY  | ---- | ------- | - | ---------- |
                      ::             AHB address transfer phase detected
                      :: sequential  AHB data    transfer phase detected FIRST
                         DATA transfer assertion time :   290580 ns
                         ADDR transfer assertion time :   290540 ns
     line ::    40 :: |              291700 ns|              291740 ns|WR-NONSEQ | F832116C | ----- |  1 | -------- |  ----  |SINGLE|    4    | 0 |           0|
                      0 :: first command
     line ::    41 :: |              291740 ns|              292380 ns|WR-DATA   | F832116C |  1/ 1 | -- | 00000282 |  OKAY  | ---- | ------- | - | ---------- |
                      ::             AHB address transfer phase detected
                      :: sequential  AHB data    transfer phase detected FIRST
                         DATA transfer assertion time :   291740 ns
                         ADDR transfer assertion time :   291700 ns
     line ::    42 :: |              292980 ns|              293020 ns|RD-NONSEQ | F832116C | ----- |  1 | -------- |  ----  |SINGLE|    4    | 0 |           0|
                      0 :: first command
     line ::    43 :: |              293020 ns|              293740 ns|RD-DATA   | F832116C |  1/ 1 | -- | 00000282 |  OKAY  | ---- | ------- | - | ---------- |
                      ::             AHB address transfer phase detected
                      :: sequential  AHB data    transfer phase detected FIRST
                         DATA transfer assertion time :   293020 ns
                         ADDR transfer assertion time :   292980 ns
     line ::    44 :: |              294180 ns|              294220 ns|WR-NONSEQ | F832116C | ----- |  1 | -------- |  ----  |SINGLE|    4    | 0 |           0|
                      0 :: first command
     line ::    45 :: |              294220 ns|              294860 ns|WR-DATA   | F832116C |  1/ 1 | -- | 00000283 |  OKAY  | ---- | ------- | - | ---------- |
                      ::             AHB address transfer phase detected
                      :: sequential  AHB data    transfer phase detected FIRST
                         DATA transfer assertion time :   294220 ns
                         ADDR transfer assertion time :   294180 ns
     line ::    46 :: |              295460 ns|              295500 ns|RD-NONSEQ | F832116C | ----- |  1 | -------- |  ----  |SINGLE|    4    | 0 |           0|
                      0 :: first command
     line ::    47 :: |              295500 ns|              296140 ns|RD-DATA   | F832116C |  1/ 1 | -- | 00000283 |  OKAY  | ---- | ------- | - | ---------- |
                      ::             AHB address transfer phase detected
                      :: sequential  AHB data    transfer phase detected FIRST
                         DATA transfer assertion time :   295500 ns
                         ADDR transfer assertion time :   295460 ns
     line ::    48 :: |              296580 ns|              296620 ns|WR-NONSEQ | F832116C | ----- |  1 | -------- |  ----  |SINGLE|    4    | 0 |           0|
                      0 :: first command
     line ::    49 :: |              296620 ns|              296970 ns|WR-DATA   | F832116C |  1/ 1 | -- | 00000203 |  OKAY  | ---- | ------- | - | ---------- |
                      ::             AHB address transfer phase detected
                      :: sequential  AHB data    transfer phase detected FIRST
                         DATA transfer assertion time :   296620 ns
                         ADDR transfer assertion time :   296580 ns
     line ::    50 :: |              297425 ns|              297430 ns|WR-NONSEQ | F8320018 | ----- |  1 | -------- |  ----  |SINGLE|    4    | 0 |           0|
                      0 :: first command
     line ::    51 :: |              297430 ns|              297700 ns|WR-DATA   | F8320018 |  1/ 1 | -- | 00000001 |  OKAY  | ---- | ------- | - | ---------- |
                      ::             AHB address transfer phase detected
                      :: sequential  AHB data    transfer phase detected FIRST
                         DATA transfer assertion time :   297430 ns
                         ADDR transfer assertion time :   297425 ns
     line ::    52 :: |              297750 ns|              297755 ns|RD-NONSEQ | F832200C | ----- |  1 | -------- |  ----  |SINGLE|    4    | 0 |           0|
                      0 :: first command
     line ::    53 :: |              297755 ns|              297990 ns|RD-DATA   | F832200C |  1/ 1 | -- | 00190003 |  OKAY  | ---- | ------- | - | ---------- |
                      ::             AHB address transfer phase detected
                      :: sequential  AHB data    transfer phase detected FIRST
                         DATA transfer assertion time :   297755 ns
                         ADDR transfer assertion time :   297750 ns
     line ::    54 :: |              298040 ns|              298045 ns|RD-NONSEQ | F8322010 | ----- |  1 | -------- |  ----  |SINGLE|    4    | 0 |           0|
                      0 :: first command
     line ::    55 :: |              298045 ns|              298300 ns|RD-DATA   | F8322010 |  1/ 1 | -- | 00000001 |  OKAY  | ---- | ------- | - | ---------- |
                      ::             AHB address transfer phase detected
                      :: sequential  AHB data    transfer phase detected FIRST
                         DATA transfer assertion time :   298045 ns
                         ADDR transfer assertion time :   298040 ns
     line ::    56 :: |              298355 ns|              298360 ns|WR-NONSEQ | F8322010 | ----- |  1 | -------- |  ----  |SINGLE|    4    | 0 |           0|
                      0 :: first command
     line ::    57 :: |              298360 ns|              298630 ns|WR-DATA   | F8322010 |  1/ 1 | -- | 00000000 |  OKAY  | ---- | ------- | - | ---------- |
                      ::             AHB address transfer phase detected
                      :: sequential  AHB data    transfer phase detected FIRST
                         DATA transfer assertion time :   298360 ns
                         ADDR transfer assertion time :   298355 ns
     line ::    58 :: |              298685 ns|              298690 ns|WR-NONSEQ | F8312060 | ----- |  1 | -------- |  ----  |SINGLE|    4    | 0 |           0|
                      0 :: first command
     line ::    59 :: |              298690 ns|              298980 ns|WR-DATA   | F8312060 |  1/ 1 | -- | 00000000 |  OKAY  | ---- | ------- | - | ---------- |
                      ::             AHB address transfer phase detected
                      :: sequential  AHB data    transfer phase detected FIRST
                         DATA transfer assertion time :   298690 ns
                         ADDR transfer assertion time :   298685 ns
     line ::    60 :: |              299035 ns|              299040 ns|WR-NONSEQ | 48250020 | ----- |  1 | -------- |  ----  |SINGLE|    4    | 0 |           0|
                      0 :: first command
     line ::    61 :: |              299040 ns|              299950 ns|WR-DATA   | 48250020 |  1/ 1 | -- | 00000001 |  OKAY  | ---- | ------- | - | ---------- |
                      ::             AHB address transfer phase detected
                      :: sequential  AHB data    transfer phase detected FIRST
                         DATA transfer assertion time :   299040 ns
                         ADDR transfer assertion time :   299035 ns
     line ::    62 :: |              300000 ns|              300005 ns|RD-NONSEQ | 4826017C | ----- |  1 | -------- |  ----  |SINGLE|    4    | 0 |           0|
                      0 :: first command
     line ::    63 :: |              300005 ns|              300910 ns|RD-DATA   | 4826017C |  1/ 1 | -- | 20801E01 |  OKAY  | ---- | ------- | - | ---------- |
                      ::             AHB address transfer phase detected
                      :: sequential  AHB data    transfer phase detected FIRST
                         DATA transfer assertion time :   300005 ns
                         ADDR transfer assertion time :   300000 ns
     line ::    64 :: |              300965 ns|              300970 ns|WR-NONSEQ | 4826017C | ----- |  1 | -------- |  ----  |SINGLE|    4    | 0 |           0|
                      0 :: first command
     line ::    65 :: |              300970 ns|              301870 ns|WR-DATA   | 4826017C |  1/ 1 | -- | 20801E41 |  OKAY  | ---- | ------- | - | ---------- |
                      ::             AHB address transfer phase detected
                      :: sequential  AHB data    transfer phase detected FIRST
                         DATA transfer assertion time :   300970 ns
                         ADDR transfer assertion time :   300965 ns
     line ::    66 :: |              302320 ns|              302325 ns|RD-NONSEQ | 4826017C | ----- |  1 | -------- |  ----  |SINGLE|    4    | 0 |           0|
                      0 :: first command
     line ::    67 :: |              302325 ns|              303230 ns|RD-DATA   | 4826017C |  1/ 1 | -- | 20801E41 |  OKAY  | ---- | ------- | - | ---------- |
                      ::             AHB address transfer phase detected
                      :: sequential  AHB data    transfer phase detected FIRST
                         DATA transfer assertion time :   302325 ns
                         ADDR transfer assertion time :   302320 ns
     line ::    68 :: |              303285 ns|              303290 ns|WR-NONSEQ | 4826017C | ----- |  1 | -------- |  ----  |SINGLE|    4    | 0 |           0|
                      0 :: first command
     line ::    69 :: |              303290 ns|              304190 ns|WR-DATA   | 4826017C |  1/ 1 | -- | 20801E40 |  OKAY  | ---- | ------- | - | ---------- |
                      ::             AHB address transfer phase detected
                      :: sequential  AHB data    transfer phase detected FIRST
                         DATA transfer assertion time :   303290 ns
                         ADDR transfer assertion time :   303285 ns
     line ::    70 :: |              304440 ns|              304445 ns|RD-NONSEQ | 4826017C | ----- |  1 | -------- |  ----  |SINGLE|    4    | 0 |           0|
                      0 :: first command
     line ::    71 :: |              304445 ns|              305310 ns|RD-DATA   | 4826017C |  1/ 1 | -- | 20801E40 |  OKAY  | ---- | ------- | - | ---------- |
                      ::             AHB address transfer phase detected
                      :: sequential  AHB data    transfer phase detected FIRST
                         DATA transfer assertion time :   304445 ns
                         ADDR transfer assertion time :   304440 ns
     line ::    72 :: |              305365 ns|              305370 ns|WR-NONSEQ | 4826017C | ----- |  1 | -------- |  ----  |SINGLE|    4    | 0 |           0|
                      0 :: first command
     line ::    73 :: |              305370 ns|              306270 ns|WR-DATA   | 4826017C |  1/ 1 | -- | 20801E40 |  OKAY  | ---- | ------- | - | ---------- |
                      ::             AHB address transfer phase detected
                      :: sequential  AHB data    transfer phase detected FIRST
                         DATA transfer assertion time :   305370 ns
                         ADDR transfer assertion time :   305365 ns
     line ::    74 :: |              306825 ns|              306830 ns|WR-NONSEQ | 4826017C | ----- |  1 | -------- |  ----  |SINGLE|    4    | 0 |           0|
                      0 :: first command
     line ::    75 :: |              306830 ns|              307790 ns|WR-DATA   | 4826017C |  1/ 1 | -- | 20801E40 |  OKAY  | ---- | ------- | - | ---------- |
                      ::             AHB address transfer phase detected
                      :: sequential  AHB data    transfer phase detected FIRST
                         DATA transfer assertion time :   306830 ns
                         ADDR transfer assertion time :   306825 ns
     line ::    76 :: |              307845 ns|              307850 ns|WR-NONSEQ | 4826017C | ----- |  1 | -------- |  ----  |SINGLE|    4    | 0 |           0|
                      0 :: first command
     line ::    77 :: |              307850 ns|              308790 ns|WR-DATA   | 4826017C |  1/ 1 | -- | 84002E40 |  OKAY  | ---- | ------- | - | ---------- |
                      ::             AHB address transfer phase detected
                      :: sequential  AHB data    transfer phase detected FIRST
                         DATA transfer assertion time :   307850 ns
                         ADDR transfer assertion time :   307845 ns
     line ::    78 :: |              308845 ns|              308850 ns|WR-NONSEQ | 4826017C | ----- |  1 | -------- |  ----  |SINGLE|    4    | 0 |           0|
                      0 :: first command
     line ::    79 :: |              308850 ns|              309790 ns|WR-DATA   | 4826017C |  1/ 1 | -- | 84002240 |  OKAY  | ---- | ------- | - | ---------- |
                      ::             AHB address transfer phase detected
                      :: sequential  AHB data    transfer phase detected FIRST
                         DATA transfer assertion time :   308850 ns
                         ADDR transfer assertion time :   308845 ns
     line ::    80 :: |              319845 ns|              319850 ns|WR-NONSEQ | 4826017C | ----- |  1 | -------- |  ----  |SINGLE|    4    | 0 |           0|
                      0 :: first command
     line ::    81 :: |              319850 ns|              320750 ns|WR-DATA   | 4826017C |  1/ 1 | -- | 84002040 |  OKAY  | ---- | ------- | - | ---------- |
                      ::             AHB address transfer phase detected
                      :: sequential  AHB data    transfer phase detected FIRST
                         DATA transfer assertion time :   319850 ns
                         ADDR transfer assertion time :   319845 ns
     line ::    82 :: |              321300 ns|              321305 ns|RD-NONSEQ | 48260190 | ----- |  1 | -------- |  ----  |SINGLE|    4    | 0 |           0|
                      0 :: first command
     line ::    83 :: |              321305 ns|              322230 ns|RD-DATA   | 48260190 |  1/ 1 | -- | 00000000 |  OKAY  | ---- | ------- | - | ---------- |
                      ::             AHB address transfer phase detected
                      :: sequential  AHB data    transfer phase detected FIRST
                         DATA transfer assertion time :   321305 ns
                         ADDR transfer assertion time :   321300 ns
     line ::    84 :: |              322780 ns|              322785 ns|RD-NONSEQ | 48260190 | ----- |  1 | -------- |  ----  |SINGLE|    4    | 0 |           0|
                      0 :: first command
     line ::    85 :: |              322785 ns|              323710 ns|RD-DATA   | 48260190 |  1/ 1 | -- | 00000000 |  OKAY  | ---- | ------- | - | ---------- |
                      ::             AHB address transfer phase detected
                      :: sequential  AHB data    transfer phase detected FIRST
                         DATA transfer assertion time :   322785 ns
                         ADDR transfer assertion time :   322780 ns
     line ::    86 :: |              324260 ns|              324265 ns|RD-NONSEQ | 48260190 | ----- |  1 | -------- |  ----  |SINGLE|    4    | 0 |           0|
                      0 :: first command
     line ::    87 :: |              324265 ns|              325230 ns|RD-DATA   | 48260190 |  1/ 1 | -- | 00000000 |  OKAY  | ---- | ------- | - | ---------- |
                      ::             AHB address transfer phase detected
                      :: sequential  AHB data    transfer phase detected FIRST
                         DATA transfer assertion time :   324265 ns
                         ADDR transfer assertion time :   324260 ns
     line ::    88 :: |              325780 ns|              325785 ns|RD-NONSEQ | 48260190 | ----- |  1 | -------- |  ----  |SINGLE|    4    | 0 |           0|
                      0 :: first command
     line ::    89 :: |              325785 ns|              326670 ns|RD-DATA   | 48260190 |  1/ 1 | -- | 00000000 |  OKAY  | ---- | ------- | - | ---------- |
                      ::             AHB address transfer phase detected
                      :: sequential  AHB data    transfer phase detected FIRST
                         DATA transfer assertion time :   325785 ns
                         ADDR transfer assertion time :   325780 ns
     line ::    90 :: |              327220 ns|              327225 ns|RD-NONSEQ | 48260190 | ----- |  1 | -------- |  ----  |SINGLE|    4    | 0 |           0|
                      0 :: first command
     line ::    91 :: |              327225 ns|              328150 ns|RD-DATA   | 48260190 |  1/ 1 | -- | 00000000 |  OKAY  | ---- | ------- | - | ---------- |
                      ::             AHB address transfer phase detected
                      :: sequential  AHB data    transfer phase detected FIRST
                         DATA transfer assertion time :   327225 ns
                         ADDR transfer assertion time :   327220 ns
     line ::    92 :: |              328700 ns|              328705 ns|RD-NONSEQ | 48260190 | ----- |  1 | -------- |  ----  |SINGLE|    4    | 0 |           0|
                      0 :: first command
     line ::    93 :: |              328705 ns|              329590 ns|RD-DATA   | 48260190 |  1/ 1 | -- | 00000000 |  OKAY  | ---- | ------- | - | ---------- |
                      ::             AHB address transfer phase detected
                      :: sequential  AHB data    transfer phase detected FIRST
                         DATA transfer assertion time :   328705 ns
                         ADDR transfer assertion time :   328700 ns
     line ::    94 :: |              330140 ns|              330145 ns|RD-NONSEQ | 48260190 | ----- |  1 | -------- |  ----  |SINGLE|    4    | 0 |           0|
                      0 :: first command
     line ::    95 :: |              330145 ns|              331030 ns|RD-DATA   | 48260190 |  1/ 1 | -- | 00000000 |  OKAY  | ---- | ------- | - | ---------- |
                      ::             AHB address transfer phase detected
                      :: sequential  AHB data    transfer phase detected FIRST
                         DATA transfer assertion time :   330145 ns
                         ADDR transfer assertion time :   330140 ns
     line ::    96 :: |              331580 ns|              331585 ns|RD-NONSEQ | 48260190 | ----- |  1 | -------- |  ----  |SINGLE|    4    | 0 |           0|
                      0 :: first command
     line ::    97 :: |              331585 ns|              332470 ns|RD-DATA   | 48260190 |  1/ 1 | -- | 00000000 |  OKAY  | ---- | ------- | - | ---------- |
                      ::             AHB address transfer phase detected
                      :: sequential  AHB data    transfer phase detected FIRST
                         DATA transfer assertion time :   331585 ns
                         ADDR transfer assertion time :   331580 ns
     line ::    98 :: |              333020 ns|              333025 ns|RD-NONSEQ | 48260190 | ----- |  1 | -------- |  ----  |SINGLE|    4    | 0 |           0|
                      0 :: first command
     line ::    99 :: |              333025 ns|              333910 ns|RD-DATA   | 48260190 |  1/ 1 | -- | 00000000 |  OKAY  | ---- | ------- | - | ---------- |
                      ::             AHB address transfer phase detected
                      :: sequential  AHB data    transfer phase detected FIRST
                         DATA transfer assertion time :   333025 ns
                         ADDR transfer assertion time :   333020 ns
     line ::   100 :: |              334460 ns|              334465 ns|RD-NONSEQ | 48260190 | ----- |  1 | -------- |  ----  |SINGLE|    4    | 0 |           0|
                      0 :: first command
     line ::   101 :: |              334465 ns|              335350 ns|RD-DATA   | 48260190 |  1/ 1 | -- | 00000001 |  OKAY  | ---- | ------- | - | ---------- |
                      ::             AHB address transfer phase detected
                      :: sequential  AHB data    transfer phase detected FIRST
                         DATA transfer assertion time :   334465 ns
                         ADDR transfer assertion time :   334460 ns
     line ::   102 :: |              335400 ns|              335405 ns|RD-NONSEQ | 4826018C | ----- |  1 | -------- |  ----  |SINGLE|    4    | 0 |           0|
                      0 :: first command
     line ::   103 :: |              335405 ns|              336310 ns|RD-DATA   | 4826018C |  1/ 1 | -- | 0000623F |  OKAY  | ---- | ------- | - | ---------- |
                      ::             AHB address transfer phase detected
                      :: sequential  AHB data    transfer phase detected FIRST
                         DATA transfer assertion time :   335405 ns
                         ADDR transfer assertion time :   335400 ns
     line ::   104 :: |              336365 ns|              336370 ns|WR-NONSEQ | 4826018C | ----- |  1 | -------- |  ----  |SINGLE|    4    | 0 |           0|
                      0 :: first command
     line ::   105 :: |              336370 ns|              337270 ns|WR-DATA   | 4826018C |  1/ 1 | -- | 0000623E |  OKAY  | ---- | ------- | - | ---------- |
                      ::             AHB address transfer phase detected
                      :: sequential  AHB data    transfer phase detected FIRST
                         DATA transfer assertion time :   336370 ns
                         ADDR transfer assertion time :   336365 ns
     line ::   106 :: |              337320 ns|              337325 ns|RD-NONSEQ | 4826017C | ----- |  1 | -------- |  ----  |SINGLE|    4    | 0 |           0|
                      0 :: first command
     line ::   107 :: |              337325 ns|              338270 ns|RD-DATA   | 4826017C |  1/ 1 | -- | 84002040 |  OKAY  | ---- | ------- | - | ---------- |
                      ::             AHB address transfer phase detected
                      :: sequential  AHB data    transfer phase detected FIRST
                         DATA transfer assertion time :   337325 ns
                         ADDR transfer assertion time :   337320 ns
     line ::   108 :: |              338325 ns|              338330 ns|WR-NONSEQ | 4826017C | ----- |  1 | -------- |  ----  |SINGLE|    4    | 0 |           0|
                      0 :: first command
     line ::   109 :: |              338330 ns|              339310 ns|WR-DATA   | 4826017C |  1/ 1 | -- | 84002041 |  OKAY  | ---- | ------- | - | ---------- |
                      ::             AHB address transfer phase detected
                      :: sequential  AHB data    transfer phase detected FIRST
                         DATA transfer assertion time :   338330 ns
                         ADDR transfer assertion time :   338325 ns
     line ::   110 :: |              339565 ns|              339570 ns|WR-NONSEQ | 4826017C | ----- |  1 | -------- |  ----  |SINGLE|    4    | 0 |           0|
                      0 :: first command
     line ::   111 :: |              339570 ns|              340510 ns|WR-DATA   | 4826017C |  1/ 1 | -- | 84002001 |  OKAY  | ---- | ------- | - | ---------- |
                      ::             AHB address transfer phase detected
                      :: sequential  AHB data    transfer phase detected FIRST
                         DATA transfer assertion time :   339570 ns
                         ADDR transfer assertion time :   339565 ns
     line ::   112 :: |              340960 ns|              340965 ns|RD-NONSEQ | 482601B4 | ----- |  1 | -------- |  ----  |SINGLE|    4    | 0 |           0|
                      0 :: first command
     line ::   113 :: |              340965 ns|              341830 ns|RD-DATA   | 482601B4 |  1/ 1 | -- | 000001CB |  OKAY  | ---- | ------- | - | ---------- |
                      ::             AHB address transfer phase detected
                      :: sequential  AHB data    transfer phase detected FIRST
                         DATA transfer assertion time :   340965 ns
                         ADDR transfer assertion time :   340960 ns
     line ::   114 :: |              341885 ns|              341890 ns|WR-NONSEQ | 482601B4 | ----- |  1 | -------- |  ----  |SINGLE|    4    | 0 |           0|
                      0 :: first command
     line ::   115 :: |              341890 ns|              342675 ns|WR-DATA   | 482601B4 |  1/ 1 | -- | 0000014B |  OKAY  | ---- | ------- | - | ---------- |
                      ::             AHB address transfer phase detected
                      :: sequential  AHB data    transfer phase detected FIRST
                         DATA transfer assertion time :   341890 ns
                         ADDR transfer assertion time :   341885 ns
     line ::   116 :: |              342725 ns|              342730 ns|RD-NONSEQ | 482601C0 | ----- |  1 | -------- |  ----  |SINGLE|    4    | 0 |           0|
                      0 :: first command
     line ::   117 :: |              342730 ns|              343435 ns|RD-DATA   | 482601C0 |  1/ 1 | -- | 000007CB |  OKAY  | ---- | ------- | - | ---------- |
                      ::             AHB address transfer phase detected
                      :: sequential  AHB data    transfer phase detected FIRST
                         DATA transfer assertion time :   342730 ns
                         ADDR transfer assertion time :   342725 ns
     line ::   118 :: |              343490 ns|              343495 ns|WR-NONSEQ | 482601C0 | ----- |  1 | -------- |  ----  |SINGLE|    4    | 0 |           0|
                      0 :: first command
     line ::   119 :: |              343495 ns|              344010 ns|WR-DATA   | 482601C0 |  1/ 1 | -- | 0000074B |  OKAY  | ---- | ------- | - | ---------- |
                      ::             AHB address transfer phase detected
                      :: sequential  AHB data    transfer phase detected FIRST
                         DATA transfer assertion time :   343495 ns
                         ADDR transfer assertion time :   343490 ns
     line ::   120 :: |              344060 ns|              344065 ns|RD-NONSEQ | 48260194 | ----- |  1 | -------- |  ----  |SINGLE|    4    | 0 |           0|
                      0 :: first command
     line ::   121 :: |              344065 ns|              344380 ns|RD-DATA   | 48260194 |  1/ 1 | -- | 43002E00 |  OKAY  | ---- | ------- | - | ---------- |
                      ::             AHB address transfer phase detected
                      :: sequential  AHB data    transfer phase detected FIRST
                         DATA transfer assertion time :   344065 ns
                         ADDR transfer assertion time :   344060 ns
     line ::   122 :: |              344430 ns|              344435 ns|RD-NONSEQ | 48260164 | ----- |  1 | -------- |  ----  |SINGLE|    4    | 0 |           0|
                      0 :: first command
     line ::   123 :: |              344435 ns|              344740 ns|RD-DATA   | 48260164 |  1/ 1 | -- | 20B01E01 |  OKAY  | ---- | ------- | - | ---------- |
                      ::             AHB address transfer phase detected
                      :: sequential  AHB data    transfer phase detected FIRST
                         DATA transfer assertion time :   344435 ns
                         ADDR transfer assertion time :   344430 ns
     line ::   124 :: |              344795 ns|              344800 ns|WR-NONSEQ | 48260194 | ----- |  1 | -------- |  ----  |SINGLE|    4    | 0 |           0|
                      0 :: first command
     line ::   125 :: |              344800 ns|              345130 ns|WR-DATA   | 48260194 |  1/ 1 | -- | 43002E40 |  OKAY  | ---- | ------- | - | ---------- |
                      ::             AHB address transfer phase detected
                      :: sequential  AHB data    transfer phase detected FIRST
                         DATA transfer assertion time :   344800 ns
                         ADDR transfer assertion time :   344795 ns
     line ::   126 :: |              345185 ns|              345190 ns|WR-NONSEQ | 48260164 | ----- |  1 | -------- |  ----  |SINGLE|    4    | 0 |           0|
                      0 :: first command
     line ::   127 :: |              345190 ns|              345490 ns|WR-DATA   | 48260164 |  1/ 1 | -- | 20B01E41 |  OKAY  | ---- | ------- | - | ---------- |
                      ::             AHB address transfer phase detected
                      :: sequential  AHB data    transfer phase detected FIRST
                         DATA transfer assertion time :   345190 ns
                         ADDR transfer assertion time :   345185 ns
     line ::   128 :: |              345580 ns|              345585 ns|RD-NONSEQ | 48260194 | ----- |  1 | -------- |  ----  |SINGLE|    4    | 0 |           0|
                      0 :: first command
     line ::   129 :: |              345585 ns|              345890 ns|RD-DATA   | 48260194 |  1/ 1 | -- | 43002E40 |  OKAY  | ---- | ------- | - | ---------- |
                      ::             AHB address transfer phase detected
                      :: sequential  AHB data    transfer phase detected FIRST
                         DATA transfer assertion time :   345585 ns
                         ADDR transfer assertion time :   345580 ns
     line ::   130 :: |              345940 ns|              345945 ns|RD-NONSEQ | 48260164 | ----- |  1 | -------- |  ----  |SINGLE|    4    | 0 |           0|
                      0 :: first command
     line ::   131 :: |              345945 ns|              346250 ns|RD-DATA   | 48260164 |  1/ 1 | -- | 20B01E41 |  OKAY  | ---- | ------- | - | ---------- |
                      ::             AHB address transfer phase detected
                      :: sequential  AHB data    transfer phase detected FIRST
                         DATA transfer assertion time :   345945 ns
                         ADDR transfer assertion time :   345940 ns
     line ::   132 :: |              346305 ns|              346310 ns|WR-NONSEQ | 48260194 | ----- |  1 | -------- |  ----  |SINGLE|    4    | 0 |           0|
                      0 :: first command
     line ::   133 :: |              346310 ns|              346620 ns|WR-DATA   | 48260194 |  1/ 1 | -- | 43002E40 |  OKAY  | ---- | ------- | - | ---------- |
                      ::             AHB address transfer phase detected
                      :: sequential  AHB data    transfer phase detected FIRST
                         DATA transfer assertion time :   346310 ns
                         ADDR transfer assertion time :   346305 ns
     line ::   134 :: |              346675 ns|              346680 ns|WR-NONSEQ | 48260164 | ----- |  1 | -------- |  ----  |SINGLE|    4    | 0 |           0|
                      0 :: first command
     line ::   135 :: |              346680 ns|              347050 ns|WR-DATA   | 48260164 |  1/ 1 | -- | 20B01E40 |  OKAY  | ---- | ------- | - | ---------- |
                      ::             AHB address transfer phase detected
                      :: sequential  AHB data    transfer phase detected FIRST
                         DATA transfer assertion time :   346680 ns
                         ADDR transfer assertion time :   346675 ns
     line ::   136 :: |              347100 ns|              347105 ns|RD-NONSEQ | 48260194 | ----- |  1 | -------- |  ----  |SINGLE|    4    | 0 |           0|
                      0 :: first command
     line ::   137 :: |              347105 ns|              347450 ns|RD-DATA   | 48260194 |  1/ 1 | -- | 43002E40 |  OKAY  | ---- | ------- | - | ---------- |
                      ::             AHB address transfer phase detected
                      :: sequential  AHB data    transfer phase detected FIRST
                         DATA transfer assertion time :   347105 ns
                         ADDR transfer assertion time :   347100 ns
     line ::   138 :: |              347500 ns|              347505 ns|RD-NONSEQ | 48260164 | ----- |  1 | -------- |  ----  |SINGLE|    4    | 0 |           0|
                      0 :: first command
     line ::   139 :: |              347505 ns|              347810 ns|RD-DATA   | 48260164 |  1/ 1 | -- | 20B01E40 |  OKAY  | ---- | ------- | - | ---------- |
                      ::             AHB address transfer phase detected
                      :: sequential  AHB data    transfer phase detected FIRST
                         DATA transfer assertion time :   347505 ns
                         ADDR transfer assertion time :   347500 ns
     line ::   140 :: |              347865 ns|              347870 ns|WR-NONSEQ | 48260194 | ----- |  1 | -------- |  ----  |SINGLE|    4    | 0 |           0|
                      0 :: first command
     line ::   141 :: |              347870 ns|              348170 ns|WR-DATA   | 48260194 |  1/ 1 | -- | 43002E40 |  OKAY  | ---- | ------- | - | ---------- |
                      ::             AHB address transfer phase detected
                      :: sequential  AHB data    transfer phase detected FIRST
                         DATA transfer assertion time :   347870 ns
                         ADDR transfer assertion time :   347865 ns
     line ::   142 :: |              348225 ns|              348230 ns|WR-NONSEQ | 48260164 | ----- |  1 | -------- |  ----  |SINGLE|    4    | 0 |           0|
                      0 :: first command
     line ::   143 :: |              348230 ns|              348530 ns|WR-DATA   | 48260164 |  1/ 1 | -- | 20B01E40 |  OKAY  | ---- | ------- | - | ---------- |
                      ::             AHB address transfer phase detected
                      :: sequential  AHB data    transfer phase detected FIRST
                         DATA transfer assertion time :   348230 ns
                         ADDR transfer assertion time :   348225 ns
     line ::   144 :: |              348725 ns|              348730 ns|WR-NONSEQ | 48260194 | ----- |  1 | -------- |  ----  |SINGLE|    4    | 0 |           0|
                      0 :: first command
     line ::   145 :: |              348730 ns|              349060 ns|WR-DATA   | 48260194 |  1/ 1 | -- | 43002E40 |  OKAY  | ---- | ------- | - | ---------- |
                      ::             AHB address transfer phase detected
                      :: sequential  AHB data    transfer phase detected FIRST
                         DATA transfer assertion time :   348730 ns
                         ADDR transfer assertion time :   348725 ns
     line ::   146 :: |              349115 ns|              349120 ns|WR-NONSEQ | 48260164 | ----- |  1 | -------- |  ----  |SINGLE|    4    | 0 |           0|
                      0 :: first command
     line ::   147 :: |              349120 ns|              349500 ns|WR-DATA   | 48260164 |  1/ 1 | -- | 20B01E40 |  OKAY  | ---- | ------- | - | ---------- |
                      ::             AHB address transfer phase detected
                      :: sequential  AHB data    transfer phase detected FIRST
                         DATA transfer assertion time :   349120 ns
                         ADDR transfer assertion time :   349115 ns
     line ::   148 :: |              349555 ns|              349560 ns|WR-NONSEQ | 48260194 | ----- |  1 | -------- |  ----  |SINGLE|    4    | 0 |           0|
                      0 :: first command
     line ::   149 :: |              349560 ns|              349890 ns|WR-DATA   | 48260194 |  1/ 1 | -- | 83002E40 |  OKAY  | ---- | ------- | - | ---------- |
                      ::             AHB address transfer phase detected
                      :: sequential  AHB data    transfer phase detected FIRST
                         DATA transfer assertion time :   349560 ns
                         ADDR transfer assertion time :   349555 ns
     line ::   150 :: |              349945 ns|              349950 ns|WR-NONSEQ | 48260164 | ----- |  1 | -------- |  ----  |SINGLE|    4    | 0 |           0|
                      0 :: first command
     line ::   151 :: |              349950 ns|              350250 ns|WR-DATA   | 48260164 |  1/ 1 | -- | 42C02E40 |  OKAY  | ---- | ------- | - | ---------- |
                      ::             AHB address transfer phase detected
                      :: sequential  AHB data    transfer phase detected FIRST
                         DATA transfer assertion time :   349950 ns
                         ADDR transfer assertion time :   349945 ns
     line ::   152 :: |              350305 ns|              350310 ns|WR-NONSEQ | 48260194 | ----- |  1 | -------- |  ----  |SINGLE|    4    | 0 |           0|
                      0 :: first command
     line ::   153 :: |              350310 ns|              350650 ns|WR-DATA   | 48260194 |  1/ 1 | -- | 83002240 |  OKAY  | ---- | ------- | - | ---------- |
                      ::             AHB address transfer phase detected
                      :: sequential  AHB data    transfer phase detected FIRST
                         DATA transfer assertion time :   350310 ns
                         ADDR transfer assertion time :   350305 ns
     line ::   154 :: |              350705 ns|              350710 ns|WR-NONSEQ | 48260164 | ----- |  1 | -------- |  ----  |SINGLE|    4    | 0 |           0|
                      0 :: first command
     line ::   155 :: |              350710 ns|              351050 ns|WR-DATA   | 48260164 |  1/ 1 | -- | 42C02240 |  OKAY  | ---- | ------- | - | ---------- |
                      ::             AHB address transfer phase detected
                      :: sequential  AHB data    transfer phase detected FIRST
                         DATA transfer assertion time :   350710 ns
                         ADDR transfer assertion time :   350705 ns
     line ::   156 :: |              360705 ns|              360710 ns|WR-NONSEQ | 48260194 | ----- |  1 | -------- |  ----  |SINGLE|    4    | 0 |           0|
                      0 :: first command
     line ::   157 :: |              360710 ns|              361010 ns|WR-DATA   | 48260194 |  1/ 1 | -- | 83002040 |  OKAY  | ---- | ------- | - | ---------- |
                      ::             AHB address transfer phase detected
                      :: sequential  AHB data    transfer phase detected FIRST
                         DATA transfer assertion time :   360710 ns
                         ADDR transfer assertion time :   360705 ns
     line ::   158 :: |              361105 ns|              361110 ns|WR-NONSEQ | 48260164 | ----- |  1 | -------- |  ----  |SINGLE|    4    | 0 |           0|
                      0 :: first command
     line ::   159 :: |              361110 ns|              361410 ns|WR-DATA   | 48260164 |  1/ 1 | -- | 42C02040 |  OKAY  | ---- | ------- | - | ---------- |
                      ::             AHB address transfer phase detected
                      :: sequential  AHB data    transfer phase detected FIRST
                         DATA transfer assertion time :   361110 ns
                         ADDR transfer assertion time :   361105 ns
     line ::   160 :: |              361560 ns|              361565 ns|RD-NONSEQ | 482601A8 | ----- |  1 | -------- |  ----  |SINGLE|    4    | 0 |           0|
                      0 :: first command
     line ::   161 :: |              361565 ns|              361890 ns|RD-DATA   | 482601A8 |  1/ 1 | -- | 00000000 |  OKAY  | ---- | ------- | - | ---------- |
                      ::             AHB address transfer phase detected
                      :: sequential  AHB data    transfer phase detected FIRST
                         DATA transfer assertion time :   361565 ns
                         ADDR transfer assertion time :   361560 ns
     line ::   162 :: |              361960 ns|              361965 ns|RD-NONSEQ | 48260178 | ----- |  1 | -------- |  ----  |SINGLE|    4    | 0 |           0|
                      0 :: first command
     line ::   163 :: |              361965 ns|              362330 ns|RD-DATA   | 48260178 |  1/ 1 | -- | 00000000 |  OKAY  | ---- | ------- | - | ---------- |
                      ::             AHB address transfer phase detected
                      :: sequential  AHB data    transfer phase detected FIRST
                         DATA transfer assertion time :   361965 ns
                         ADDR transfer assertion time :   361960 ns
     line ::   164 :: |              362440 ns|              362445 ns|RD-NONSEQ | 482601A8 | ----- |  1 | -------- |  ----  |SINGLE|    4    | 0 |           0|
                      0 :: first command
     line ::   165 :: |              362445 ns|              362770 ns|RD-DATA   | 482601A8 |  1/ 1 | -- | 00000000 |  OKAY  | ---- | ------- | - | ---------- |
                      ::             AHB address transfer phase detected
                      :: sequential  AHB data    transfer phase detected FIRST
                         DATA transfer assertion time :   362445 ns
                         ADDR transfer assertion time :   362440 ns
     line ::   166 :: |              362880 ns|              362885 ns|RD-NONSEQ | 48260178 | ----- |  1 | -------- |  ----  |SINGLE|    4    | 0 |           0|
                      0 :: first command
     line ::   167 :: |              362885 ns|              363210 ns|RD-DATA   | 48260178 |  1/ 1 | -- | 00000000 |  OKAY  | ---- | ------- | - | ---------- |
                      ::             AHB address transfer phase detected
                      :: sequential  AHB data    transfer phase detected FIRST
                         DATA transfer assertion time :   362885 ns
                         ADDR transfer assertion time :   362880 ns
     line ::   168 :: |              363320 ns|              363325 ns|RD-NONSEQ | 482601A8 | ----- |  1 | -------- |  ----  |SINGLE|    4    | 0 |           0|
                      0 :: first command
     line ::   169 :: |              363325 ns|              363690 ns|RD-DATA   | 482601A8 |  1/ 1 | -- | 00000000 |  OKAY  | ---- | ------- | - | ---------- |
                      ::             AHB address transfer phase detected
                      :: sequential  AHB data    transfer phase detected FIRST
                         DATA transfer assertion time :   363325 ns
                         ADDR transfer assertion time :   363320 ns
     line ::   170 :: |              363760 ns|              363765 ns|RD-NONSEQ | 48260178 | ----- |  1 | -------- |  ----  |SINGLE|    4    | 0 |           0|
                      0 :: first command
     line ::   171 :: |              363765 ns|              364130 ns|RD-DATA   | 48260178 |  1/ 1 | -- | 00000000 |  OKAY  | ---- | ------- | - | ---------- |
                      ::             AHB address transfer phase detected
                      :: sequential  AHB data    transfer phase detected FIRST
                         DATA transfer assertion time :   363765 ns
                         ADDR transfer assertion time :   363760 ns
     line ::   172 :: |              364240 ns|              364245 ns|RD-NONSEQ | 482601A8 | ----- |  1 | -------- |  ----  |SINGLE|    4    | 0 |           0|
                      0 :: first command
     line ::   173 :: |              364245 ns|              364610 ns|RD-DATA   | 482601A8 |  1/ 1 | -- | 00000000 |  OKAY  | ---- | ------- | - | ---------- |
                      ::             AHB address transfer phase detected
                      :: sequential  AHB data    transfer phase detected FIRST
                         DATA transfer assertion time :   364245 ns
                         ADDR transfer assertion time :   364240 ns
     line ::   174 :: |              364680 ns|              364685 ns|RD-NONSEQ | 48260178 | ----- |  1 | -------- |  ----  |SINGLE|    4    | 0 |           0|
                      0 :: first command
     line ::   175 :: |              364685 ns|              365020 ns|RD-DATA   | 48260178 |  1/ 1 | -- | 00000000 |  OKAY  | ---- | ------- | - | ---------- |
                      ::             AHB address transfer phase detected
                      :: sequential  AHB data    transfer phase detected FIRST
                         DATA transfer assertion time :   364685 ns
                         ADDR transfer assertion time :   364680 ns
     line ::   176 :: |              365160 ns|              365165 ns|RD-NONSEQ | 482601A8 | ----- |  1 | -------- |  ----  |SINGLE|    4    | 0 |           0|
                      0 :: first command
     line ::   177 :: |              365165 ns|              365500 ns|RD-DATA   | 482601A8 |  1/ 1 | -- | 00000000 |  OKAY  | ---- | ------- | - | ---------- |
                      ::             AHB address transfer phase detected
                      :: sequential  AHB data    transfer phase detected FIRST
                         DATA transfer assertion time :   365165 ns
                         ADDR transfer assertion time :   365160 ns
     line ::   178 :: |              365570 ns|              365575 ns|RD-NONSEQ | 48260178 | ----- |  1 | -------- |  ----  |SINGLE|    4    | 0 |           0|
                      0 :: first command
     line ::   179 :: |              365575 ns|              365890 ns|RD-DATA   | 48260178 |  1/ 1 | -- | 00000000 |  OKAY  | ---- | ------- | - | ---------- |
                      ::             AHB address transfer phase detected
                      :: sequential  AHB data    transfer phase detected FIRST
                         DATA transfer assertion time :   365575 ns
                         ADDR transfer assertion time :   365570 ns
     line ::   180 :: |              366050 ns|              366055 ns|RD-NONSEQ | 482601A8 | ----- |  1 | -------- |  ----  |SINGLE|    4    | 0 |           0|
                      0 :: first command
     line ::   181 :: |              366055 ns|              366370 ns|RD-DATA   | 482601A8 |  1/ 1 | -- | 00000000 |  OKAY  | ---- | ------- | - | ---------- |
                      ::             AHB address transfer phase detected
                      :: sequential  AHB data    transfer phase detected FIRST
                         DATA transfer assertion time :   366055 ns
                         ADDR transfer assertion time :   366050 ns
     line ::   182 :: |              366440 ns|              366445 ns|RD-NONSEQ | 48260178 | ----- |  1 | -------- |  ----  |SINGLE|    4    | 0 |           0|
                      0 :: first command
     line ::   183 :: |              366445 ns|              366780 ns|RD-DATA   | 48260178 |  1/ 1 | -- | 00000000 |  OKAY  | ---- | ------- | - | ---------- |
                      ::             AHB address transfer phase detected
                      :: sequential  AHB data    transfer phase detected FIRST
                         DATA transfer assertion time :   366445 ns
                         ADDR transfer assertion time :   366440 ns
     line ::   184 :: |              366920 ns|              366925 ns|RD-NONSEQ | 482601A8 | ----- |  1 | -------- |  ----  |SINGLE|    4    | 0 |           0|
                      0 :: first command
     line ::   185 :: |              366925 ns|              367290 ns|RD-DATA   | 482601A8 |  1/ 1 | -- | 00000000 |  OKAY  | ---- | ------- | - | ---------- |
                      ::             AHB address transfer phase detected
                      :: sequential  AHB data    transfer phase detected FIRST
                         DATA transfer assertion time :   366925 ns
                         ADDR transfer assertion time :   366920 ns
     line ::   186 :: |              367340 ns|              367345 ns|RD-NONSEQ | 48260178 | ----- |  1 | -------- |  ----  |SINGLE|    4    | 0 |           0|
                      0 :: first command
     line ::   187 :: |              367345 ns|              367650 ns|RD-DATA   | 48260178 |  1/ 1 | -- | 00000000 |  OKAY  | ---- | ------- | - | ---------- |
                      ::             AHB address transfer phase detected
                      :: sequential  AHB data    transfer phase detected FIRST
                         DATA transfer assertion time :   367345 ns
                         ADDR transfer assertion time :   367340 ns
     line ::   188 :: |              367840 ns|              367845 ns|RD-NONSEQ | 482601A8 | ----- |  1 | -------- |  ----  |SINGLE|    4    | 0 |           0|
                      0 :: first command
     line ::   189 :: |              367845 ns|              368220 ns|RD-DATA   | 482601A8 |  1/ 1 | -- | 00000000 |  OKAY  | ---- | ------- | - | ---------- |
                      ::             AHB address transfer phase detected
                      :: sequential  AHB data    transfer phase detected FIRST
                         DATA transfer assertion time :   367845 ns
                         ADDR transfer assertion time :   367840 ns
     line ::   190 :: |              368270 ns|              368275 ns|RD-NONSEQ | 48260178 | ----- |  1 | -------- |  ----  |SINGLE|    4    | 0 |           0|
                      0 :: first command
     line ::   191 :: |              368275 ns|              368580 ns|RD-DATA   | 48260178 |  1/ 1 | -- | 00000000 |  OKAY  | ---- | ------- | - | ---------- |
                      ::             AHB address transfer phase detected
                      :: sequential  AHB data    transfer phase detected FIRST
                         DATA transfer assertion time :   368275 ns
                         ADDR transfer assertion time :   368270 ns
     line ::   192 :: |              368770 ns|              368775 ns|RD-NONSEQ | 482601A8 | ----- |  1 | -------- |  ----  |SINGLE|    4    | 0 |           0|
                      0 :: first command
     line ::   193 :: |              368775 ns|              369090 ns|RD-DATA   | 482601A8 |  1/ 1 | -- | 00000000 |  OKAY  | ---- | ------- | - | ---------- |
                      ::             AHB address transfer phase detected
                      :: sequential  AHB data    transfer phase detected FIRST
                         DATA transfer assertion time :   368775 ns
                         ADDR transfer assertion time :   368770 ns
     line ::   194 :: |              369140 ns|              369145 ns|RD-NONSEQ | 48260178 | ----- |  1 | -------- |  ----  |SINGLE|    4    | 0 |           0|
                      0 :: first command
     line ::   195 :: |              369145 ns|              369450 ns|RD-DATA   | 48260178 |  1/ 1 | -- | 00000000 |  OKAY  | ---- | ------- | - | ---------- |
                      ::             AHB address transfer phase detected
                      :: sequential  AHB data    transfer phase detected FIRST
                         DATA transfer assertion time :   369145 ns
                         ADDR transfer assertion time :   369140 ns
     line ::   196 :: |              369640 ns|              369645 ns|RD-NONSEQ | 482601A8 | ----- |  1 | -------- |  ----  |SINGLE|    4    | 0 |           0|
                      0 :: first command
     line ::   197 :: |              369645 ns|              369980 ns|RD-DATA   | 482601A8 |  1/ 1 | -- | 00000000 |  OKAY  | ---- | ------- | - | ---------- |
                      ::             AHB address transfer phase detected
                      :: sequential  AHB data    transfer phase detected FIRST
                         DATA transfer assertion time :   369645 ns
                         ADDR transfer assertion time :   369640 ns
     line ::   198 :: |              370030 ns|              370035 ns|RD-NONSEQ | 48260178 | ----- |  1 | -------- |  ----  |SINGLE|    4    | 0 |           0|
                      0 :: first command
     line ::   199 :: |              370035 ns|              370370 ns|RD-DATA   | 48260178 |  1/ 1 | -- | 00000000 |  OKAY  | ---- | ------- | - | ---------- |
                      ::             AHB address transfer phase detected
                      :: sequential  AHB data    transfer phase detected FIRST
                         DATA transfer assertion time :   370035 ns
                         ADDR transfer assertion time :   370030 ns
     line ::   200 :: |              370530 ns|              370535 ns|RD-NONSEQ | 482601A8 | ----- |  1 | -------- |  ----  |SINGLE|    4    | 0 |           0|
                      0 :: first command
     line ::   201 :: |              370535 ns|              370860 ns|RD-DATA   | 482601A8 |  1/ 1 | -- | 00000000 |  OKAY  | ---- | ------- | - | ---------- |
                      ::             AHB address transfer phase detected
                      :: sequential  AHB data    transfer phase detected FIRST
                         DATA transfer assertion time :   370535 ns
                         ADDR transfer assertion time :   370530 ns
     line ::   202 :: |              370920 ns|              370925 ns|RD-NONSEQ | 48260178 | ----- |  1 | -------- |  ----  |SINGLE|    4    | 0 |           0|
                      0 :: first command
     line ::   203 :: |              370925 ns|              371300 ns|RD-DATA   | 48260178 |  1/ 1 | -- | 00000000 |  OKAY  | ---- | ------- | - | ---------- |
                      ::             AHB address transfer phase detected
                      :: sequential  AHB data    transfer phase detected FIRST
                         DATA transfer assertion time :   370925 ns
                         ADDR transfer assertion time :   370920 ns
     line ::   204 :: |              371410 ns|              371415 ns|RD-NONSEQ | 482601A8 | ----- |  1 | -------- |  ----  |SINGLE|    4    | 0 |           0|
                      0 :: first command
     line ::   205 :: |              371415 ns|              371730 ns|RD-DATA   | 482601A8 |  1/ 1 | -- | 00000000 |  OKAY  | ---- | ------- | - | ---------- |
                      ::             AHB address transfer phase detected
                      :: sequential  AHB data    transfer phase detected FIRST
                         DATA transfer assertion time :   371415 ns
                         ADDR transfer assertion time :   371410 ns
     line ::   206 :: |              371850 ns|              371855 ns|RD-NONSEQ | 48260178 | ----- |  1 | -------- |  ----  |SINGLE|    4    | 0 |           0|
                      0 :: first command
     line ::   207 :: |              371855 ns|              372170 ns|RD-DATA   | 48260178 |  1/ 1 | -- | 00000000 |  OKAY  | ---- | ------- | - | ---------- |
                      ::             AHB address transfer phase detected
                      :: sequential  AHB data    transfer phase detected FIRST
                         DATA transfer assertion time :   371855 ns
                         ADDR transfer assertion time :   371850 ns
     line ::   208 :: |              372280 ns|              372285 ns|RD-NONSEQ | 482601A8 | ----- |  1 | -------- |  ----  |SINGLE|    4    | 0 |           0|
                      0 :: first command
     line ::   209 :: |              372285 ns|              372660 ns|RD-DATA   | 482601A8 |  1/ 1 | -- | 00000000 |  OKAY  | ---- | ------- | - | ---------- |
                      ::             AHB address transfer phase detected
                      :: sequential  AHB data    transfer phase detected FIRST
                         DATA transfer assertion time :   372285 ns
                         ADDR transfer assertion time :   372280 ns
     line ::   210 :: |              372720 ns|              372725 ns|RD-NONSEQ | 48260178 | ----- |  1 | -------- |  ----  |SINGLE|    4    | 0 |           0|
                      0 :: first command
     line ::   211 :: |              372725 ns|              373090 ns|RD-DATA   | 48260178 |  1/ 1 | -- | 00000000 |  OKAY  | ---- | ------- | - | ---------- |
                      ::             AHB address transfer phase detected
                      :: sequential  AHB data    transfer phase detected FIRST
                         DATA transfer assertion time :   372725 ns
                         ADDR transfer assertion time :   372720 ns
     line ::   212 :: |              373210 ns|              373215 ns|RD-NONSEQ | 482601A8 | ----- |  1 | -------- |  ----  |SINGLE|    4    | 0 |           0|
                      0 :: first command
     line ::   213 :: |              373215 ns|              373530 ns|RD-DATA   | 482601A8 |  1/ 1 | -- | 00000000 |  OKAY  | ---- | ------- | - | ---------- |
                      ::             AHB address transfer phase detected
                      :: sequential  AHB data    transfer phase detected FIRST
                         DATA transfer assertion time :   373215 ns
                         ADDR transfer assertion time :   373210 ns
     line ::   214 :: |              373640 ns|              373645 ns|RD-NONSEQ | 48260178 | ----- |  1 | -------- |  ----  |SINGLE|    4    | 0 |           0|
                      0 :: first command
     line ::   215 :: |              373645 ns|              373980 ns|RD-DATA   | 48260178 |  1/ 1 | -- | 00000000 |  OKAY  | ---- | ------- | - | ---------- |
                      ::             AHB address transfer phase detected
                      :: sequential  AHB data    transfer phase detected FIRST
                         DATA transfer assertion time :   373645 ns
                         ADDR transfer assertion time :   373640 ns
     line ::   216 :: |              374080 ns|              374085 ns|RD-NONSEQ | 482601A8 | ----- |  1 | -------- |  ----  |SINGLE|    4    | 0 |           0|
                      0 :: first command
     line ::   217 :: |              374085 ns|              374450 ns|RD-DATA   | 482601A8 |  1/ 1 | -- | 00000000 |  OKAY  | ---- | ------- | - | ---------- |
                      ::             AHB address transfer phase detected
                      :: sequential  AHB data    transfer phase detected FIRST
                         DATA transfer assertion time :   374085 ns
                         ADDR transfer assertion time :   374080 ns
     line ::   218 :: |              374530 ns|              374535 ns|RD-NONSEQ | 48260178 | ----- |  1 | -------- |  ----  |SINGLE|    4    | 0 |           0|
                      0 :: first command
     line ::   219 :: |              374535 ns|              374850 ns|RD-DATA   | 48260178 |  1/ 1 | -- | 00000000 |  OKAY  | ---- | ------- | - | ---------- |
                      ::             AHB address transfer phase detected
                      :: sequential  AHB data    transfer phase detected FIRST
                         DATA transfer assertion time :   374535 ns
                         ADDR transfer assertion time :   374530 ns
     line ::   220 :: |              375000 ns|              375005 ns|RD-NONSEQ | 482601A8 | ----- |  1 | -------- |  ----  |SINGLE|    4    | 0 |           0|
                      0 :: first command
     line ::   221 :: |              375005 ns|              375380 ns|RD-DATA   | 482601A8 |  1/ 1 | -- | 00000001 |  OKAY  | ---- | ------- | - | ---------- |
                      ::             AHB address transfer phase detected
                      :: sequential  AHB data    transfer phase detected FIRST
                         DATA transfer assertion time :   375005 ns
                         ADDR transfer assertion time :   375000 ns
     line ::   222 :: |              375430 ns|              375435 ns|RD-NONSEQ | 48260178 | ----- |  1 | -------- |  ----  |SINGLE|    4    | 0 |           0|
                      0 :: first command
     line ::   223 :: |              375435 ns|              375770 ns|RD-DATA   | 48260178 |  1/ 1 | -- | 00000001 |  OKAY  | ---- | ------- | - | ---------- |
                      ::             AHB address transfer phase detected
                      :: sequential  AHB data    transfer phase detected FIRST
                         DATA transfer assertion time :   375435 ns
                         ADDR transfer assertion time :   375430 ns
     line ::   224 :: |              375820 ns|              375825 ns|RD-NONSEQ | 482601A4 | ----- |  1 | -------- |  ----  |SINGLE|    4    | 0 |           0|
                      0 :: first command
     line ::   225 :: |              375825 ns|              376130 ns|RD-DATA   | 482601A4 |  1/ 1 | -- | 0000623F |  OKAY  | ---- | ------- | - | ---------- |
                      ::             AHB address transfer phase detected
                      :: sequential  AHB data    transfer phase detected FIRST
                         DATA transfer assertion time :   375825 ns
                         ADDR transfer assertion time :   375820 ns
     line ::   226 :: |              376180 ns|              376185 ns|RD-NONSEQ | 48260174 | ----- |  1 | -------- |  ----  |SINGLE|    4    | 0 |           0|
                      0 :: first command
     line ::   227 :: |              376185 ns|              376530 ns|RD-DATA   | 48260174 |  1/ 1 | -- | 0000623F |  OKAY  | ---- | ------- | - | ---------- |
                      ::             AHB address transfer phase detected
                      :: sequential  AHB data    transfer phase detected FIRST
                         DATA transfer assertion time :   376185 ns
                         ADDR transfer assertion time :   376180 ns
     line ::   228 :: |              376585 ns|              376590 ns|WR-NONSEQ | 482601A4 | ----- |  1 | -------- |  ----  |SINGLE|    4    | 0 |           0|
                      0 :: first command
     line ::   229 :: |              376590 ns|              376900 ns|WR-DATA   | 482601A4 |  1/ 1 | -- | 0000623E |  OKAY  | ---- | ------- | - | ---------- |
                      ::             AHB address transfer phase detected
                      :: sequential  AHB data    transfer phase detected FIRST
                         DATA transfer assertion time :   376590 ns
                         ADDR transfer assertion time :   376585 ns
     line ::   230 :: |              376955 ns|              376960 ns|WR-NONSEQ | 48260174 | ----- |  1 | -------- |  ----  |SINGLE|    4    | 0 |           0|
                      0 :: first command
     line ::   231 :: |              376960 ns|              377290 ns|WR-DATA   | 48260174 |  1/ 1 | -- | 0000623E |  OKAY  | ---- | ------- | - | ---------- |
                      ::             AHB address transfer phase detected
                      :: sequential  AHB data    transfer phase detected FIRST
                         DATA transfer assertion time :   376960 ns
                         ADDR transfer assertion time :   376955 ns
     line ::   232 :: |              377340 ns|              377345 ns|RD-NONSEQ | 48260194 | ----- |  1 | -------- |  ----  |SINGLE|    4    | 0 |           0|
                      0 :: first command
     line ::   233 :: |              377345 ns|              377690 ns|RD-DATA   | 48260194 |  1/ 1 | -- | 83002040 |  OKAY  | ---- | ------- | - | ---------- |
                      ::             AHB address transfer phase detected
                      :: sequential  AHB data    transfer phase detected FIRST
                         DATA transfer assertion time :   377345 ns
                         ADDR transfer assertion time :   377340 ns
     line ::   234 :: |              377740 ns|              377745 ns|RD-NONSEQ | 48260164 | ----- |  1 | -------- |  ----  |SINGLE|    4    | 0 |           0|
                      0 :: first command
     line ::   235 :: |              377745 ns|              378050 ns|RD-DATA   | 48260164 |  1/ 1 | -- | 42C02040 |  OKAY  | ---- | ------- | - | ---------- |
                      ::             AHB address transfer phase detected
                      :: sequential  AHB data    transfer phase detected FIRST
                         DATA transfer assertion time :   377745 ns
                         ADDR transfer assertion time :   377740 ns
     line ::   236 :: |              378105 ns|              378110 ns|WR-NONSEQ | 48260194 | ----- |  1 | -------- |  ----  |SINGLE|    4    | 0 |           0|
                      0 :: first command
     line ::   237 :: |              378110 ns|              378450 ns|WR-DATA   | 48260194 |  1/ 1 | -- | 83002041 |  OKAY  | ---- | ------- | - | ---------- |
                      ::             AHB address transfer phase detected
                      :: sequential  AHB data    transfer phase detected FIRST
                         DATA transfer assertion time :   378110 ns
                         ADDR transfer assertion time :   378105 ns
     line ::   238 :: |              378505 ns|              378510 ns|WR-NONSEQ | 48260164 | ----- |  1 | -------- |  ----  |SINGLE|    4    | 0 |           0|
                      0 :: first command
     line ::   239 :: |              378510 ns|              378820 ns|WR-DATA   | 48260164 |  1/ 1 | -- | 42C02041 |  OKAY  | ---- | ------- | - | ---------- |
                      ::             AHB address transfer phase detected
                      :: sequential  AHB data    transfer phase detected FIRST
                         DATA transfer assertion time :   378510 ns
                         ADDR transfer assertion time :   378505 ns
     line ::   240 :: |              378875 ns|              378880 ns|WR-NONSEQ | 48260194 | ----- |  1 | -------- |  ----  |SINGLE|    4    | 0 |           0|
                      0 :: first command
     line ::   241 :: |              378880 ns|              379210 ns|WR-DATA   | 48260194 |  1/ 1 | -- | 83002001 |  OKAY  | ---- | ------- | - | ---------- |
                      ::             AHB address transfer phase detected
                      :: sequential  AHB data    transfer phase detected FIRST
                         DATA transfer assertion time :   378880 ns
                         ADDR transfer assertion time :   378875 ns
     line ::   242 :: |              379265 ns|              379270 ns|WR-NONSEQ | 48260164 | ----- |  1 | -------- |  ----  |SINGLE|    4    | 0 |           0|
                      0 :: first command
     line ::   243 :: |              379270 ns|              379610 ns|WR-DATA   | 48260164 |  1/ 1 | -- | 42C02001 |  OKAY  | ---- | ------- | - | ---------- |
                      ::             AHB address transfer phase detected
                      :: sequential  AHB data    transfer phase detected FIRST
                         DATA transfer assertion time :   379270 ns
                         ADDR transfer assertion time :   379265 ns
     line ::   244 :: |              380060 ns|              380065 ns|RD-NONSEQ | 482601AC | ----- |  1 | -------- |  ----  |SINGLE|    4    | 0 |           0|
                      0 :: first command
     line ::   245 :: |              380065 ns|              380420 ns|RD-DATA   | 482601AC |  1/ 1 | -- | 000000CD |  OKAY  | ---- | ------- | - | ---------- |
                      ::             AHB address transfer phase detected
                      :: sequential  AHB data    transfer phase detected FIRST
                         DATA transfer assertion time :   380065 ns
                         ADDR transfer assertion time :   380060 ns
     line ::   246 :: |              380475 ns|              380480 ns|WR-NONSEQ | 482601AC | ----- |  1 | -------- |  ----  |SINGLE|    4    | 0 |           0|
                      0 :: first command
     line ::   247 :: |              380480 ns|              380810 ns|WR-DATA   | 482601AC |  1/ 1 | -- | 0000004D |  OKAY  | ---- | ------- | - | ---------- |
                      ::             AHB address transfer phase detected
                      :: sequential  AHB data    transfer phase detected FIRST
                         DATA transfer assertion time :   380480 ns
                         ADDR transfer assertion time :   380475 ns
     line ::   248 :: |              380865 ns|              380870 ns|WR-NONSEQ | 482601C8 | ----- |  1 | -------- |  ----  |SINGLE|    4    | 0 |           0|
                      0 :: first command
     line ::   249 :: |              380870 ns|              381170 ns|WR-DATA   | 482601C8 |  1/ 1 | -- | FFFFFFFF |  OKAY  | ---- | ------- | - | ---------- |
                      ::             AHB address transfer phase detected
                      :: sequential  AHB data    transfer phase detected FIRST
                         DATA transfer assertion time :   380870 ns
                         ADDR transfer assertion time :   380865 ns
     line ::   250 :: |              381225 ns|              381230 ns|WR-NONSEQ | 482601C4 | ----- |  1 | -------- |  ----  |SINGLE|    4    | 0 |           0|
                      0 :: first command
     line ::   251 :: |              381230 ns|              381540 ns|WR-DATA   | 482601C4 |  1/ 1 | -- | FFFFFFFF |  OKAY  | ---- | ------- | - | ---------- |
                      ::             AHB address transfer phase detected
                      :: sequential  AHB data    transfer phase detected FIRST
                         DATA transfer assertion time :   381230 ns
                         ADDR transfer assertion time :   381225 ns
     line ::   252 :: |              381590 ns|              381595 ns|RD-NONSEQ | 482601B8 | ----- |  1 | -------- |  ----  |SINGLE|    4    | 0 |           0|
                      0 :: first command
     line ::   253 :: |              381595 ns|              381900 ns|RD-DATA   | 482601B8 |  1/ 1 | -- | 0000000A |  OKAY  | ---- | ------- | - | ---------- |
                      ::             AHB address transfer phase detected
                      :: sequential  AHB data    transfer phase detected FIRST
                         DATA transfer assertion time :   381595 ns
                         ADDR transfer assertion time :   381590 ns
     line ::   254 :: |              381955 ns|              381960 ns|WR-NONSEQ | 482601B8 | ----- |  1 | -------- |  ----  |SINGLE|    4    | 0 |           0|
                      0 :: first command
     line ::   255 :: |              381960 ns|              382300 ns|WR-DATA   | 482601B8 |  1/ 1 | -- | 0000004A |  OKAY  | ---- | ------- | - | ---------- |
                      ::             AHB address transfer phase detected
                      :: sequential  AHB data    transfer phase detected FIRST
                         DATA transfer assertion time :   381960 ns
                         ADDR transfer assertion time :   381955 ns
     line ::   256 :: |              382355 ns|              382360 ns|WR-NONSEQ | 482601B8 | ----- |  1 | -------- |  ----  |SINGLE|    4    | 0 |           0|
                      0 :: first command
     line ::   257 :: |              382360 ns|              382730 ns|WR-DATA   | 482601B8 |  1/ 1 | -- | 0000004B |  OKAY  | ---- | ------- | - | ---------- |
                      ::             AHB address transfer phase detected
                      :: sequential  AHB data    transfer phase detected FIRST
                         DATA transfer assertion time :   382360 ns
                         ADDR transfer assertion time :   382355 ns
     line ::   258 :: |              382780 ns|              382785 ns|RD-NONSEQ | 482601B8 | ----- |  1 | -------- |  ----  |SINGLE|    4    | 0 |           0|
                      0 :: first command
     line ::   259 :: |              382785 ns|              383090 ns|RD-DATA   | 482601B8 |  1/ 1 | -- | 0000004B |  OKAY  | ---- | ------- | - | ---------- |
                      ::             AHB address transfer phase detected
                      :: sequential  AHB data    transfer phase detected FIRST
                         DATA transfer assertion time :   382785 ns
                         ADDR transfer assertion time :   382780 ns
     line ::   260 :: |              383190 ns|              383195 ns|RD-NONSEQ | 482601B0 | ----- |  1 | -------- |  ----  |SINGLE|    4    | 0 |           0|
                      0 :: first command
     line ::   261 :: |              383195 ns|              383530 ns|RD-DATA   | 482601B0 |  1/ 1 | -- | 00000008 |  OKAY  | ---- | ------- | - | ---------- |
                      ::             AHB address transfer phase detected
                      :: sequential  AHB data    transfer phase detected FIRST
                         DATA transfer assertion time :   383195 ns
                         ADDR transfer assertion time :   383190 ns
     line ::   262 :: |              383585 ns|              383590 ns|WR-NONSEQ | 482601B0 | ----- |  1 | -------- |  ----  |SINGLE|    4    | 0 |           0|
                      0 :: first command
     line ::   263 :: |              383590 ns|              383890 ns|WR-DATA   | 482601B0 |  1/ 1 | -- | 00000048 |  OKAY  | ---- | ------- | - | ---------- |
                      ::             AHB address transfer phase detected
                      :: sequential  AHB data    transfer phase detected FIRST
                         DATA transfer assertion time :   383590 ns
                         ADDR transfer assertion time :   383585 ns
     line ::   264 :: |              383945 ns|              383950 ns|WR-NONSEQ | 482601B0 | ----- |  1 | -------- |  ----  |SINGLE|    4    | 0 |           0|
                      0 :: first command
     line ::   265 :: |              383950 ns|              384250 ns|WR-DATA   | 482601B0 |  1/ 1 | -- | 00000049 |  OKAY  | ---- | ------- | - | ---------- |
                      ::             AHB address transfer phase detected
                      :: sequential  AHB data    transfer phase detected FIRST
                         DATA transfer assertion time :   383950 ns
                         ADDR transfer assertion time :   383945 ns
     line ::   266 :: |              384300 ns|              384305 ns|RD-NONSEQ | 482601B0 | ----- |  1 | -------- |  ----  |SINGLE|    4    | 0 |           0|
                      0 :: first command
     line ::   267 :: |              384305 ns|              384610 ns|RD-DATA   | 482601B0 |  1/ 1 | -- | 00000049 |  OKAY  | ---- | ------- | - | ---------- |
                      ::             AHB address transfer phase detected
                      :: sequential  AHB data    transfer phase detected FIRST
                         DATA transfer assertion time :   384305 ns
                         ADDR transfer assertion time :   384300 ns
     line ::   268 :: |              384710 ns|              384715 ns|RD-NONSEQ | 482601B8 | ----- |  1 | -------- |  ----  |SINGLE|    4    | 0 |           0|
                      0 :: first command
     line ::   269 :: |              384715 ns|              385010 ns|RD-DATA   | 482601B8 |  1/ 1 | -- | 0000004B |  OKAY  | ---- | ------- | - | ---------- |
                      ::             AHB address transfer phase detected
                      :: sequential  AHB data    transfer phase detected FIRST
                         DATA transfer assertion time :   384715 ns
                         ADDR transfer assertion time :   384710 ns
     line ::   270 :: |              385065 ns|              385070 ns|WR-NONSEQ | 482601B8 | ----- |  1 | -------- |  ----  |SINGLE|    4    | 0 |           0|
                      0 :: first command
     line ::   271 :: |              385070 ns|              385410 ns|WR-DATA   | 482601B8 |  1/ 1 | -- | 0000004B |  OKAY  | ---- | ------- | - | ---------- |
                      ::             AHB address transfer phase detected
                      :: sequential  AHB data    transfer phase detected FIRST
                         DATA transfer assertion time :   385070 ns
                         ADDR transfer assertion time :   385065 ns
     line ::   272 :: |              385465 ns|              385470 ns|WR-NONSEQ | 482601B8 | ----- |  1 | -------- |  ----  |SINGLE|    4    | 0 |           0|
                      0 :: first command
     line ::   273 :: |              385470 ns|              385780 ns|WR-DATA   | 482601B8 |  1/ 1 | -- | 0000004B |  OKAY  | ---- | ------- | - | ---------- |
                      ::             AHB address transfer phase detected
                      :: sequential  AHB data    transfer phase detected FIRST
                         DATA transfer assertion time :   385470 ns
                         ADDR transfer assertion time :   385465 ns
     line ::   274 :: |              385830 ns|              385835 ns|RD-NONSEQ | 482601B8 | ----- |  1 | -------- |  ----  |SINGLE|    4    | 0 |           0|
                      0 :: first command
     line ::   275 :: |              385835 ns|              386130 ns|RD-DATA   | 482601B8 |  1/ 1 | -- | 0000004B |  OKAY  | ---- | ------- | - | ---------- |
                      ::             AHB address transfer phase detected
                      :: sequential  AHB data    transfer phase detected FIRST
                         DATA transfer assertion time :   385835 ns
                         ADDR transfer assertion time :   385830 ns
     line ::   276 :: |              386230 ns|              386235 ns|RD-NONSEQ | 482601BC | ----- |  1 | -------- |  ----  |SINGLE|    4    | 0 |           0|
                      0 :: first command
     line ::   277 :: |              386235 ns|              386530 ns|RD-DATA   | 482601BC |  1/ 1 | -- | 00000000 |  OKAY  | ---- | ------- | - | ---------- |
                      ::             AHB address transfer phase detected
                      :: sequential  AHB data    transfer phase detected FIRST
                         DATA transfer assertion time :   386235 ns
                         ADDR transfer assertion time :   386230 ns
     line ::   278 :: |              386585 ns|              386590 ns|WR-NONSEQ | 482601BC | ----- |  1 | -------- |  ----  |SINGLE|    4    | 0 |           0|
                      0 :: first command
     line ::   279 :: |              386590 ns|              386900 ns|WR-DATA   | 482601BC |  1/ 1 | -- | 00000040 |  OKAY  | ---- | ------- | - | ---------- |
                      ::             AHB address transfer phase detected
                      :: sequential  AHB data    transfer phase detected FIRST
                         DATA transfer assertion time :   386590 ns
                         ADDR transfer assertion time :   386585 ns
     line ::   280 :: |              386955 ns|              386960 ns|WR-NONSEQ | 482601BC | ----- |  1 | -------- |  ----  |SINGLE|    4    | 0 |           0|
                      0 :: first command
     line ::   281 :: |              386960 ns|              387330 ns|WR-DATA   | 482601BC |  1/ 1 | -- | 00000041 |  OKAY  | ---- | ------- | - | ---------- |
                      ::             AHB address transfer phase detected
                      :: sequential  AHB data    transfer phase detected FIRST
                         DATA transfer assertion time :   386960 ns
                         ADDR transfer assertion time :   386955 ns
     line ::   282 :: |              387380 ns|              387385 ns|RD-NONSEQ | 482601BC | ----- |  1 | -------- |  ----  |SINGLE|    4    | 0 |           0|
                      0 :: first command
     line ::   283 :: |              387385 ns|              387690 ns|RD-DATA   | 482601BC |  1/ 1 | -- | 00000041 |  OKAY  | ---- | ------- | - | ---------- |
                      ::             AHB address transfer phase detected
                      :: sequential  AHB data    transfer phase detected FIRST
                         DATA transfer assertion time :   387385 ns
                         ADDR transfer assertion time :   387380 ns
     line ::   284 :: |              387790 ns|              387795 ns|RD-NONSEQ | F832117C | ----- |  1 | -------- |  ----  |SINGLE|    4    | 0 |           0|
                      0 :: first command
     line ::   285 :: |              387795 ns|              388020 ns|RD-DATA   | F832117C |  1/ 1 | -- | 00000180 |  OKAY  | ---- | ------- | - | ---------- |
                      ::             AHB address transfer phase detected
                      :: sequential  AHB data    transfer phase detected FIRST
                         DATA transfer assertion time :   387795 ns
                         ADDR transfer assertion time :   387790 ns
     line ::   286 :: |              388075 ns|              388080 ns|WR-NONSEQ | F832117C | ----- |  1 | -------- |  ----  |SINGLE|    4    | 0 |           0|
                      0 :: first command
     line ::   287 :: |              388080 ns|              388300 ns|WR-DATA   | F832117C |  1/ 1 | -- | 00000180 |  OKAY  | ---- | ------- | - | ---------- |
                      ::             AHB address transfer phase detected
                      :: sequential  AHB data    transfer phase detected FIRST
                         DATA transfer assertion time :   388080 ns
                         ADDR transfer assertion time :   388075 ns
     line ::   288 :: |              388750 ns|              388755 ns|RD-NONSEQ | F832117C | ----- |  1 | -------- |  ----  |SINGLE|    4    | 0 |           0|
                      0 :: first command
     line ::   289 :: |              388755 ns|              388980 ns|RD-DATA   | F832117C |  1/ 1 | -- | 00000180 |  OKAY  | ---- | ------- | - | ---------- |
                      ::             AHB address transfer phase detected
                      :: sequential  AHB data    transfer phase detected FIRST
                         DATA transfer assertion time :   388755 ns
                         ADDR transfer assertion time :   388750 ns
     line ::   290 :: |              389035 ns|              389040 ns|WR-NONSEQ | F832117C | ----- |  1 | -------- |  ----  |SINGLE|    4    | 0 |           0|
                      0 :: first command
     line ::   291 :: |              389040 ns|              389260 ns|WR-DATA   | F832117C |  1/ 1 | -- | 00000180 |  OKAY  | ---- | ------- | - | ---------- |
                      ::             AHB address transfer phase detected
                      :: sequential  AHB data    transfer phase detected FIRST
                         DATA transfer assertion time :   389040 ns
                         ADDR transfer assertion time :   389035 ns
     line ::   292 :: |              389510 ns|              389515 ns|RD-NONSEQ | F832117C | ----- |  1 | -------- |  ----  |SINGLE|    4    | 0 |           0|
                      0 :: first command
     line ::   293 :: |              389515 ns|              389740 ns|RD-DATA   | F832117C |  1/ 1 | -- | 00000180 |  OKAY  | ---- | ------- | - | ---------- |
                      ::             AHB address transfer phase detected
                      :: sequential  AHB data    transfer phase detected FIRST
                         DATA transfer assertion time :   389515 ns
                         ADDR transfer assertion time :   389510 ns
     line ::   294 :: |              389795 ns|              389800 ns|WR-NONSEQ | F832117C | ----- |  1 | -------- |  ----  |SINGLE|    4    | 0 |           0|
                      0 :: first command
     line ::   295 :: |              389800 ns|              390020 ns|WR-DATA   | F832117C |  1/ 1 | -- | 00000180 |  OKAY  | ---- | ------- | - | ---------- |
                      ::             AHB address transfer phase detected
                      :: sequential  AHB data    transfer phase detected FIRST
                         DATA transfer assertion time :   389800 ns
                         ADDR transfer assertion time :   389795 ns
     line ::   296 :: |              390070 ns|              390075 ns|RD-NONSEQ | F8321180 | ----- |  1 | -------- |  ----  |SINGLE|    4    | 0 |           0|
                      0 :: first command
     line ::   297 :: |              390075 ns|              390340 ns|RD-DATA   | F8321180 |  1/ 1 | -- | 00000692 |  OKAY  | ---- | ------- | - | ---------- |
                      ::             AHB address transfer phase detected
                      :: sequential  AHB data    transfer phase detected FIRST
                         DATA transfer assertion time :   390075 ns
                         ADDR transfer assertion time :   390070 ns
     line ::   298 :: |              390395 ns|              390400 ns|WR-NONSEQ | F8321180 | ----- |  1 | -------- |  ----  |SINGLE|    4    | 0 |           0|
                      0 :: first command
     line ::   299 :: |              390400 ns|              390670 ns|WR-DATA   | F8321180 |  1/ 1 | -- | 00000692 |  OKAY  | ---- | ------- | - | ---------- |
                      ::             AHB address transfer phase detected
                      :: sequential  AHB data    transfer phase detected FIRST
                         DATA transfer assertion time :   390400 ns
                         ADDR transfer assertion time :   390395 ns
     line ::   300 :: |              390720 ns|              390725 ns|RD-NONSEQ | F8321184 | ----- |  1 | -------- |  ----  |SINGLE|    4    | 0 |           0|
                      0 :: first command
     line ::   301 :: |              390725 ns|              390980 ns|RD-DATA   | F8321184 |  1/ 1 | -- | 1322B573 |  OKAY  | ---- | ------- | - | ---------- |
                      ::             AHB address transfer phase detected
                      :: sequential  AHB data    transfer phase detected FIRST
                         DATA transfer assertion time :   390725 ns
                         ADDR transfer assertion time :   390720 ns
     line ::   302 :: |              391035 ns|              391040 ns|WR-NONSEQ | F8321184 | ----- |  1 | -------- |  ----  |SINGLE|    4    | 0 |           0|
                      0 :: first command
     line ::   303 :: |              391040 ns|              391260 ns|WR-DATA   | F8321184 |  1/ 1 | -- | 1322B573 |  OKAY  | ---- | ------- | - | ---------- |
                      ::             AHB address transfer phase detected
                      :: sequential  AHB data    transfer phase detected FIRST
                         DATA transfer assertion time :   391040 ns
                         ADDR transfer assertion time :   391035 ns
     line ::   304 :: |              391310 ns|              391315 ns|RD-NONSEQ | F832117C | ----- |  1 | -------- |  ----  |SINGLE|    4    | 0 |           0|
                      0 :: first command
     line ::   305 :: |              391315 ns|              391540 ns|RD-DATA   | F832117C |  1/ 1 | -- | 00000180 |  OKAY  | ---- | ------- | - | ---------- |
                      ::             AHB address transfer phase detected
                      :: sequential  AHB data    transfer phase detected FIRST
                         DATA transfer assertion time :   391315 ns
                         ADDR transfer assertion time :   391310 ns
     line ::   306 :: |              391595 ns|              391600 ns|WR-NONSEQ | F832117C | ----- |  1 | -------- |  ----  |SINGLE|    4    | 0 |           0|
                      0 :: first command
     line ::   307 :: |              391600 ns|              391820 ns|WR-DATA   | F832117C |  1/ 1 | -- | 00000380 |  OKAY  | ---- | ------- | - | ---------- |
                      ::             AHB address transfer phase detected
                      :: sequential  AHB data    transfer phase detected FIRST
                         DATA transfer assertion time :   391600 ns
                         ADDR transfer assertion time :   391595 ns
     line ::   308 :: |              401870 ns|              401875 ns|RD-NONSEQ | F832117C | ----- |  1 | -------- |  ----  |SINGLE|    4    | 0 |           0|
                      0 :: first command
     line ::   309 :: |              401875 ns|              402110 ns|RD-DATA   | F832117C |  1/ 1 | -- | 00000380 |  OKAY  | ---- | ------- | - | ---------- |
                      ::             AHB address transfer phase detected
                      :: sequential  AHB data    transfer phase detected FIRST
                         DATA transfer assertion time :   401875 ns
                         ADDR transfer assertion time :   401870 ns
     line ::   310 :: |              402165 ns|              402170 ns|WR-NONSEQ | F832117C | ----- |  1 | -------- |  ----  |SINGLE|    4    | 0 |           0|
                      0 :: first command
     line ::   311 :: |              402170 ns|              402460 ns|WR-DATA   | F832117C |  1/ 1 | -- | 00000382 |  OKAY  | ---- | ------- | - | ---------- |
                      ::             AHB address transfer phase detected
                      :: sequential  AHB data    transfer phase detected FIRST
                         DATA transfer assertion time :   402170 ns
                         ADDR transfer assertion time :   402165 ns
