   Picked  : Instance: uvm_test_top.top_env_i.ahbfab_env_i.mvc_ahb_mon_6_env_i.logger_handle_ahb :: Header
             Instance: uvm_test_top.top_env_i.ahbfab_env_i.mvc_ahb_mon_6_env_i.logger_handle_ahb
   Picked  : AHB Clk Cycle = 40 ns; AHB Clk Frequency = 25.00 MHz; Data bus width = 32 bits
             AHB Clk Cycle = 40 ns; AHB Clk Frequency = 25.00 MHz; Data bus width = 32 bits
   Skipped : ------------------------------------------------------------------------------------------------------------------------------------------
   Skipped : |NONSEQ/SEQ Assert Time |  HREADY Assert Time   |  DIR     |   ADDR   | BEAT  |  L |   DATA   |  RESP  | BURST| BURST   | H |    HSEL    |
   Skipped : |                       |                       |   -      |          |  NUM  |  E |          |        | Type | Size    | P |   (SLAVE   |
   Skipped : |                       |                       | PHASE    |          |       |  N |          |        |      |= 2^HSIZE| R |    INDEX)  |
   Skipped : |                       |                       |          |          |       |    |          |        |      | bytes   | O |            |
   Skipped : |                       |                       |          |          |       |    |          |        |      |         | T |            |
   Skipped : |                       |                       |          |          |       |    |          |        |      |         |   |            |
   Skipped : ------------------------------------------------------------------------------------------------------------------------------------------
   Picked  : |              606261 ns|              606266 ns|RD-NONSEQ | F8315248 | ----- |  1 | -------- |  ----  |SINGLE|    4    | 1 |           0|
             |              606261 ns|              606266 ns|RD-NONSEQ | F8315248 | ----- |  1 | -------- |  ----  |SINGLE|    4    | 1 |           0|
   Picked  : |              606266 ns|              606391 ns|RD-DATA   | F8315248 |  1/ 1 | -- | 0000000A |  OKAY  | ---- | ------- | - | ---------- |
             |              606266 ns|              606391 ns|RD-DATA   | F8315248 |  1/ 1 | -- | 0000000A |  OKAY  | ---- | ------- | - | ---------- |
   Picked  : |              606441 ns|              606446 ns|WR-NONSEQ | F8315248 | ----- |  ? | -------- |  ----  |INCR  |    4    | 1 |           0|
             |              606441 ns|              606446 ns|WR-NONSEQ | F8315248 | ----- |  ? | -------- |  ----  |INCR  |    4    | 1 |           0|
   Picked  : |              606446 ns|              606576 ns|WR-DATA   | F8315248 |  1/ ? | -- | 00000005 |  OKAY  | ---- | ------- | - | ---------- |
             |              606446 ns|              606576 ns|WR-DATA   | F8315248 |  1/ ? | -- | 00000005 |  OKAY  | ---- | ------- | - | ---------- |
   Picked  : |              606611 ns|              606616 ns|RD-NONSEQ | F831524C | ----- |  1 | -------- |  ----  |SINGLE|    4    | 1 |           0|
             |              606611 ns|              606616 ns|RD-NONSEQ | F831524C | ----- |  1 | -------- |  ----  |SINGLE|    4    | 1 |           0|
   Picked  : |              606616 ns|              606731 ns|RD-DATA   | F831524C |  1/ 1 | -- | 0000000F |  OKAY  | ---- | ------- | - | ---------- |
             |              606616 ns|              606731 ns|RD-DATA   | F831524C |  1/ 1 | -- | 0000000F |  OKAY  | ---- | ------- | - | ---------- |
   Picked  : |              606781 ns|              606786 ns|WR-NONSEQ | F831524C | ----- |  ? | -------- |  ----  |INCR  |    4    | 1 |           0|
             |              606781 ns|              606786 ns|WR-NONSEQ | F831524C | ----- |  ? | -------- |  ----  |INCR  |    4    | 1 |           0|
   Picked  : |              606786 ns|              606906 ns|WR-DATA   | F831524C |  1/ ? | -- | 00000005 |  OKAY  | ---- | ------- | - | ---------- |
             |              606786 ns|              606906 ns|WR-DATA   | F831524C |  1/ ? | -- | 00000005 |  OKAY  | ---- | ------- | - | ---------- |
   Picked  : |              606941 ns|              606946 ns|RD-NONSEQ | F8315250 | ----- |  1 | -------- |  ----  |SINGLE|    4    | 1 |           0|
             |              606941 ns|              606946 ns|RD-NONSEQ | F8315250 | ----- |  1 | -------- |  ----  |SINGLE|    4    | 1 |           0|
   Picked  : |              606946 ns|              607071 ns|RD-DATA   | F8315250 |  1/ 1 | -- | 0000000F |  OKAY  | ---- | ------- | - | ---------- |
             |              606946 ns|              607071 ns|RD-DATA   | F8315250 |  1/ 1 | -- | 0000000F |  OKAY  | ---- | ------- | - | ---------- |
   Picked  : |              607116 ns|              607121 ns|WR-NONSEQ | F8315250 | ----- |  ? | -------- |  ----  |INCR  |    4    | 1 |           0|
             |              607116 ns|              607121 ns|WR-NONSEQ | F8315250 | ----- |  ? | -------- |  ----  |INCR  |    4    | 1 |           0|
   Picked  : |              607121 ns|              607236 ns|WR-DATA   | F8315250 |  1/ ? | -- | 00000005 |  OKAY  | ---- | ------- | - | ---------- |
             |              607121 ns|              607236 ns|WR-DATA   | F8315250 |  1/ ? | -- | 00000005 |  OKAY  | ---- | ------- | - | ---------- |
   Picked  : |              607271 ns|              607276 ns|RD-NONSEQ | F8315254 | ----- |  1 | -------- |  ----  |SINGLE|    4    | 1 |           0|
             |              607271 ns|              607276 ns|RD-NONSEQ | F8315254 | ----- |  1 | -------- |  ----  |SINGLE|    4    | 1 |           0|
   Picked  : |              607276 ns|              607401 ns|RD-DATA   | F8315254 |  1/ 1 | -- | 0000000A |  OKAY  | ---- | ------- | - | ---------- |
             |              607276 ns|              607401 ns|RD-DATA   | F8315254 |  1/ 1 | -- | 0000000A |  OKAY  | ---- | ------- | - | ---------- |
   Picked  : |              607446 ns|              607451 ns|WR-NONSEQ | F8315254 | ----- |  ? | -------- |  ----  |INCR  |    4    | 1 |           0|
             |              607446 ns|              607451 ns|WR-NONSEQ | F8315254 | ----- |  ? | -------- |  ----  |INCR  |    4    | 1 |           0|
   Picked  : |              607451 ns|              607566 ns|WR-DATA   | F8315254 |  1/ ? | -- | 00000005 |  OKAY  | ---- | ------- | - | ---------- |
             |              607451 ns|              607566 ns|WR-DATA   | F8315254 |  1/ ? | -- | 00000005 |  OKAY  | ---- | ------- | - | ---------- |
   Picked  : |              607601 ns|              607606 ns|RD-NONSEQ | F8315258 | ----- |  1 | -------- |  ----  |SINGLE|    4    | 1 |           0|
             |              607601 ns|              607606 ns|RD-NONSEQ | F8315258 | ----- |  1 | -------- |  ----  |SINGLE|    4    | 1 |           0|
   Picked  : |              607606 ns|              607741 ns|RD-DATA   | F8315258 |  1/ 1 | -- | 0000000A |  OKAY  | ---- | ------- | - | ---------- |
             |              607606 ns|              607741 ns|RD-DATA   | F8315258 |  1/ 1 | -- | 0000000A |  OKAY  | ---- | ------- | - | ---------- |
   Picked  : |              607781 ns|              607786 ns|WR-NONSEQ | F8315258 | ----- |  ? | -------- |  ----  |INCR  |    4    | 1 |           0|
             |              607781 ns|              607786 ns|WR-NONSEQ | F8315258 | ----- |  ? | -------- |  ----  |INCR  |    4    | 1 |           0|
   Picked  : |              607786 ns|              607906 ns|WR-DATA   | F8315258 |  1/ ? | -- | 00000005 |  OKAY  | ---- | ------- | - | ---------- |
             |              607786 ns|              607906 ns|WR-DATA   | F8315258 |  1/ ? | -- | 00000005 |  OKAY  | ---- | ------- | - | ---------- |
   Picked  : |              607941 ns|              607946 ns|RD-NONSEQ | F831525C | ----- |  1 | -------- |  ----  |SINGLE|    4    | 1 |           0|
             |              607941 ns|              607946 ns|RD-NONSEQ | F831525C | ----- |  1 | -------- |  ----  |SINGLE|    4    | 1 |           0|
   Picked  : |              607946 ns|              608061 ns|RD-DATA   | F831525C |  1/ 1 | -- | 0000000F |  OKAY  | ---- | ------- | - | ---------- |
             |              607946 ns|              608061 ns|RD-DATA   | F831525C |  1/ 1 | -- | 0000000F |  OKAY  | ---- | ------- | - | ---------- |
   Picked  : |              608111 ns|              608116 ns|WR-NONSEQ | F831525C | ----- |  ? | -------- |  ----  |INCR  |    4    | 1 |           0|
             |              608111 ns|              608116 ns|WR-NONSEQ | F831525C | ----- |  ? | -------- |  ----  |INCR  |    4    | 1 |           0|
   Picked  : |              608116 ns|              608236 ns|WR-DATA   | F831525C |  1/ ? | -- | 00000000 |  OKAY  | ---- | ------- | - | ---------- |
             |              608116 ns|              608236 ns|WR-DATA   | F831525C |  1/ ? | -- | 00000000 |  OKAY  | ---- | ------- | - | ---------- |
   Picked  : |              608281 ns|              608286 ns|WR-NONSEQ | F8321190 | ----- |  ? | -------- |  ----  |INCR  |    4    | 1 |           0|
             |              608281 ns|              608286 ns|WR-NONSEQ | F8321190 | ----- |  ? | -------- |  ----  |INCR  |    4    | 1 |           0|
   Picked  : |              608286 ns|              608586 ns|WR-DATA   | F8321190 |  1/ ? | -- | 00000005 |  OKAY  | ---- | ------- | - | ---------- |
             |              608286 ns|              608586 ns|WR-DATA   | F8321190 |  1/ ? | -- | 00000005 |  OKAY  | ---- | ------- | - | ---------- |
   Picked  : |              608621 ns|              608626 ns|RD-NONSEQ | F8321190 | ----- |  1 | -------- |  ----  |SINGLE|    4    | 1 |           0|
             |              608621 ns|              608626 ns|RD-NONSEQ | F8321190 | ----- |  1 | -------- |  ----  |SINGLE|    4    | 1 |           0|
   Picked  : |              608626 ns|              608941 ns|RD-DATA   | F8321190 |  1/ 1 | -- | 00000005 |  OKAY  | ---- | ------- | - | ---------- |
             |              608626 ns|              608941 ns|RD-DATA   | F8321190 |  1/ 1 | -- | 00000005 |  OKAY  | ---- | ------- | - | ---------- |
   Picked  : |              608981 ns|              608986 ns|WR-NONSEQ | F8321194 | ----- |  ? | -------- |  ----  |INCR  |    4    | 1 |           0|
             |              608981 ns|              608986 ns|WR-NONSEQ | F8321194 | ----- |  ? | -------- |  ----  |INCR  |    4    | 1 |           0|
   Picked  : |              608986 ns|              609326 ns|WR-DATA   | F8321194 |  1/ ? | -- | 00000005 |  OKAY  | ---- | ------- | - | ---------- |
             |              608986 ns|              609326 ns|WR-DATA   | F8321194 |  1/ ? | -- | 00000005 |  OKAY  | ---- | ------- | - | ---------- |
   Picked  : |              609361 ns|              609366 ns|RD-NONSEQ | F8321194 | ----- |  1 | -------- |  ----  |SINGLE|    4    | 1 |           0|
             |              609361 ns|              609366 ns|RD-NONSEQ | F8321194 | ----- |  1 | -------- |  ----  |SINGLE|    4    | 1 |           0|
   Picked  : |              609366 ns|              609681 ns|RD-DATA   | F8321194 |  1/ 1 | -- | 00000005 |  OKAY  | ---- | ------- | - | ---------- |
             |              609366 ns|              609681 ns|RD-DATA   | F8321194 |  1/ 1 | -- | 00000005 |  OKAY  | ---- | ------- | - | ---------- |
   Picked  : |              609736 ns|              609741 ns|WR-NONSEQ | F8321198 | ----- |  ? | -------- |  ----  |INCR  |    4    | 1 |           0|
             |              609736 ns|              609741 ns|WR-NONSEQ | F8321198 | ----- |  ? | -------- |  ----  |INCR  |    4    | 1 |           0|
   Picked  : |              609741 ns|              610026 ns|WR-DATA   | F8321198 |  1/ ? | -- | 00000005 |  OKAY  | ---- | ------- | - | ---------- |
             |              609741 ns|              610026 ns|WR-DATA   | F8321198 |  1/ ? | -- | 00000005 |  OKAY  | ---- | ------- | - | ---------- |
   Picked  : |              610061 ns|              610066 ns|RD-NONSEQ | F8321198 | ----- |  1 | -------- |  ----  |SINGLE|    4    | 1 |           0|
             |              610061 ns|              610066 ns|RD-NONSEQ | F8321198 | ----- |  1 | -------- |  ----  |SINGLE|    4    | 1 |           0|
   Picked  : |              610066 ns|              610421 ns|RD-DATA   | F8321198 |  1/ 1 | -- | 00000005 |  OKAY  | ---- | ------- | - | ---------- |
             |              610066 ns|              610421 ns|RD-DATA   | F8321198 |  1/ 1 | -- | 00000005 |  OKAY  | ---- | ------- | - | ---------- |
   Picked  : |              610471 ns|              610476 ns|WR-NONSEQ | F832119C | ----- |  ? | -------- |  ----  |INCR  |    4    | 1 |           0|
             |              610471 ns|              610476 ns|WR-NONSEQ | F832119C | ----- |  ? | -------- |  ----  |INCR  |    4    | 1 |           0|
   Picked  : |              610476 ns|              610786 ns|WR-DATA   | F832119C |  1/ ? | -- | 00000005 |  OKAY  | ---- | ------- | - | ---------- |
             |              610476 ns|              610786 ns|WR-DATA   | F832119C |  1/ ? | -- | 00000005 |  OKAY  | ---- | ------- | - | ---------- |
   Picked  : |              610821 ns|              610826 ns|RD-NONSEQ | F832119C | ----- |  1 | -------- |  ----  |SINGLE|    4    | 1 |           0|
             |              610821 ns|              610826 ns|RD-NONSEQ | F832119C | ----- |  1 | -------- |  ----  |SINGLE|    4    | 1 |           0|
   Picked  : |              610826 ns|              611141 ns|RD-DATA   | F832119C |  1/ 1 | -- | 00000005 |  OKAY  | ---- | ------- | - | ---------- |
             |              610826 ns|              611141 ns|RD-DATA   | F832119C |  1/ 1 | -- | 00000005 |  OKAY  | ---- | ------- | - | ---------- |
   Picked  : |              611181 ns|              611186 ns|WR-NONSEQ | F83211A0 | ----- |  ? | -------- |  ----  |INCR  |    4    | 1 |           0|
             |              611181 ns|              611186 ns|WR-NONSEQ | F83211A0 | ----- |  ? | -------- |  ----  |INCR  |    4    | 1 |           0|
   Picked  : |              611186 ns|              611506 ns|WR-DATA   | F83211A0 |  1/ ? | -- | 00000005 |  OKAY  | ---- | ------- | - | ---------- |
             |              611186 ns|              611506 ns|WR-DATA   | F83211A0 |  1/ ? | -- | 00000005 |  OKAY  | ---- | ------- | - | ---------- |
   Picked  : |              611541 ns|              611546 ns|RD-NONSEQ | F83211A0 | ----- |  1 | -------- |  ----  |SINGLE|    4    | 1 |           0|
             |              611541 ns|              611546 ns|RD-NONSEQ | F83211A0 | ----- |  1 | -------- |  ----  |SINGLE|    4    | 1 |           0|
   Picked  : |              611546 ns|              611881 ns|RD-DATA   | F83211A0 |  1/ 1 | -- | 00000005 |  OKAY  | ---- | ------- | - | ---------- |
             |              611546 ns|              611881 ns|RD-DATA   | F83211A0 |  1/ 1 | -- | 00000005 |  OKAY  | ---- | ------- | - | ---------- |
   Picked  : |              611926 ns|              611931 ns|WR-NONSEQ | F83211A4 | ----- |  ? | -------- |  ----  |INCR  |    4    | 1 |           0|
             |              611926 ns|              611931 ns|WR-NONSEQ | F83211A4 | ----- |  ? | -------- |  ----  |INCR  |    4    | 1 |           0|
   Picked  : |              611931 ns|              612246 ns|WR-DATA   | F83211A4 |  1/ ? | -- | 00000005 |  OKAY  | ---- | ------- | - | ---------- |
             |              611931 ns|              612246 ns|WR-DATA   | F83211A4 |  1/ ? | -- | 00000005 |  OKAY  | ---- | ------- | - | ---------- |
   Picked  : |              612281 ns|              612286 ns|RD-NONSEQ | F83211A4 | ----- |  1 | -------- |  ----  |SINGLE|    4    | 1 |           0|
             |              612281 ns|              612286 ns|RD-NONSEQ | F83211A4 | ----- |  1 | -------- |  ----  |SINGLE|    4    | 1 |           0|
   Picked  : |              612286 ns|              612581 ns|RD-DATA   | F83211A4 |  1/ 1 | -- | 00000005 |  OKAY  | ---- | ------- | - | ---------- |
             |              612286 ns|              612581 ns|RD-DATA   | F83211A4 |  1/ 1 | -- | 00000005 |  OKAY  | ---- | ------- | - | ---------- |
   Picked  : |              612621 ns|              612626 ns|WR-NONSEQ | F83211A8 | ----- |  ? | -------- |  ----  |INCR  |    4    | 1 |           0|
             |              612621 ns|              612626 ns|WR-NONSEQ | F83211A8 | ----- |  ? | -------- |  ----  |INCR  |    4    | 1 |           0|
   Picked  : |              612626 ns|              612946 ns|WR-DATA   | F83211A8 |  1/ ? | -- | 00000005 |  OKAY  | ---- | ------- | - | ---------- |
             |              612626 ns|              612946 ns|WR-DATA   | F83211A8 |  1/ ? | -- | 00000005 |  OKAY  | ---- | ------- | - | ---------- |
   Picked  : |              612981 ns|              612986 ns|RD-NONSEQ | F83211A8 | ----- |  1 | -------- |  ----  |SINGLE|    4    | 1 |           0|
             |              612981 ns|              612986 ns|RD-NONSEQ | F83211A8 | ----- |  1 | -------- |  ----  |SINGLE|    4    | 1 |           0|
   Picked  : |              612986 ns|              613301 ns|RD-DATA   | F83211A8 |  1/ 1 | -- | 00000005 |  OKAY  | ---- | ------- | - | ---------- |
             |              612986 ns|              613301 ns|RD-DATA   | F83211A8 |  1/ 1 | -- | 00000005 |  OKAY  | ---- | ------- | - | ---------- |
   Picked  : |              613341 ns|              613346 ns|WR-NONSEQ | F83211AC | ----- |  ? | -------- |  ----  |INCR  |    4    | 1 |           0|
             |              613341 ns|              613346 ns|WR-NONSEQ | F83211AC | ----- |  ? | -------- |  ----  |INCR  |    4    | 1 |           0|
   Picked  : |              613346 ns|              613666 ns|WR-DATA   | F83211AC |  1/ ? | -- | 00000005 |  OKAY  | ---- | ------- | - | ---------- |
             |              613346 ns|              613666 ns|WR-DATA   | F83211AC |  1/ ? | -- | 00000005 |  OKAY  | ---- | ------- | - | ---------- |
   Picked  : |              613701 ns|              613706 ns|RD-NONSEQ | F83211AC | ----- |  1 | -------- |  ----  |SINGLE|    4    | 1 |           0|
             |              613701 ns|              613706 ns|RD-NONSEQ | F83211AC | ----- |  1 | -------- |  ----  |SINGLE|    4    | 1 |           0|
   Picked  : |              613706 ns|              614041 ns|RD-DATA   | F83211AC |  1/ 1 | -- | 00000005 |  OKAY  | ---- | ------- | - | ---------- |
             |              613706 ns|              614041 ns|RD-DATA   | F83211AC |  1/ 1 | -- | 00000005 |  OKAY  | ---- | ------- | - | ---------- |
   Picked  : |              614091 ns|              614096 ns|WR-NONSEQ | F83211B0 | ----- |  ? | -------- |  ----  |INCR  |    4    | 1 |           0|
             |              614091 ns|              614096 ns|WR-NONSEQ | F83211B0 | ----- |  ? | -------- |  ----  |INCR  |    4    | 1 |           0|
   Picked  : |              614096 ns|              614446 ns|WR-DATA   | F83211B0 |  1/ ? | -- | 00000005 |  OKAY  | ---- | ------- | - | ---------- |
             |              614096 ns|              614446 ns|WR-DATA   | F83211B0 |  1/ ? | -- | 00000005 |  OKAY  | ---- | ------- | - | ---------- |
   Picked  : |              614481 ns|              614486 ns|RD-NONSEQ | F83211B0 | ----- |  1 | -------- |  ----  |SINGLE|    4    | 1 |           0|
             |              614481 ns|              614486 ns|RD-NONSEQ | F83211B0 | ----- |  1 | -------- |  ----  |SINGLE|    4    | 1 |           0|
   Picked  : |              614486 ns|              614821 ns|RD-DATA   | F83211B0 |  1/ 1 | -- | 00000005 |  OKAY  | ---- | ------- | - | ---------- |
             |              614486 ns|              614821 ns|RD-DATA   | F83211B0 |  1/ 1 | -- | 00000005 |  OKAY  | ---- | ------- | - | ---------- |
   Picked  : |              614871 ns|              614876 ns|WR-NONSEQ | F83211B8 | ----- |  ? | -------- |  ----  |INCR  |    4    | 1 |           0|
             |              614871 ns|              614876 ns|WR-NONSEQ | F83211B8 | ----- |  ? | -------- |  ----  |INCR  |    4    | 1 |           0|
   Picked  : |              614876 ns|              615186 ns|WR-DATA   | F83211B8 |  1/ ? | -- | 00000005 |  OKAY  | ---- | ------- | - | ---------- |
             |              614876 ns|              615186 ns|WR-DATA   | F83211B8 |  1/ ? | -- | 00000005 |  OKAY  | ---- | ------- | - | ---------- |
   Picked  : |              615221 ns|              615226 ns|RD-NONSEQ | F83211B8 | ----- |  1 | -------- |  ----  |SINGLE|    4    | 1 |           0|
             |              615221 ns|              615226 ns|RD-NONSEQ | F83211B8 | ----- |  1 | -------- |  ----  |SINGLE|    4    | 1 |           0|
   Picked  : |              615226 ns|              615601 ns|RD-DATA   | F83211B8 |  1/ 1 | -- | 00000005 |  OKAY  | ---- | ------- | - | ---------- |
             |              615226 ns|              615601 ns|RD-DATA   | F83211B8 |  1/ 1 | -- | 00000005 |  OKAY  | ---- | ------- | - | ---------- |
   Picked  : |              618841 ns|              618846 ns|WR-NONSEQ | F8321190 | ----- |  ? | -------- |  ----  |INCR  |    4    | 1 |           0|
             |              618841 ns|              618846 ns|WR-NONSEQ | F8321190 | ----- |  ? | -------- |  ----  |INCR  |    4    | 1 |           0|
   Picked  : |              618846 ns|              619156 ns|WR-DATA   | F8321190 |  1/ ? | -- | 00000003 |  OKAY  | ---- | ------- | - | ---------- |
             |              618846 ns|              619156 ns|WR-DATA   | F8321190 |  1/ ? | -- | 00000003 |  OKAY  | ---- | ------- | - | ---------- |
   Picked  : |              619191 ns|              619196 ns|RD-NONSEQ | F8321190 | ----- |  1 | -------- |  ----  |SINGLE|    4    | 1 |           0|
             |              619191 ns|              619196 ns|RD-NONSEQ | F8321190 | ----- |  1 | -------- |  ----  |SINGLE|    4    | 1 |           0|
   Picked  : |              619196 ns|              619421 ns|RD-DATA   | F8321190 |  1/ 1 | -- | 00000003 |  OKAY  | ---- | ------- | - | ---------- |
             |              619196 ns|              619421 ns|RD-DATA   | F8321190 |  1/ 1 | -- | 00000003 |  OKAY  | ---- | ------- | - | ---------- |
   Picked  : |              619461 ns|              619466 ns|WR-NONSEQ | F8321194 | ----- |  ? | -------- |  ----  |INCR  |    4    | 1 |           0|
             |              619461 ns|              619466 ns|WR-NONSEQ | F8321194 | ----- |  ? | -------- |  ----  |INCR  |    4    | 1 |           0|
   Picked  : |              619466 ns|              619706 ns|WR-DATA   | F8321194 |  1/ ? | -- | 00000003 |  OKAY  | ---- | ------- | - | ---------- |
             |              619466 ns|              619706 ns|WR-DATA   | F8321194 |  1/ ? | -- | 00000003 |  OKAY  | ---- | ------- | - | ---------- |
   Picked  : |              619741 ns|              619746 ns|RD-NONSEQ | F8321194 | ----- |  1 | -------- |  ----  |SINGLE|    4    | 1 |           0|
             |              619741 ns|              619746 ns|RD-NONSEQ | F8321194 | ----- |  1 | -------- |  ----  |SINGLE|    4    | 1 |           0|
   Picked  : |              619746 ns|              619981 ns|RD-DATA   | F8321194 |  1/ 1 | -- | 00000003 |  OKAY  | ---- | ------- | - | ---------- |
             |              619746 ns|              619981 ns|RD-DATA   | F8321194 |  1/ 1 | -- | 00000003 |  OKAY  | ---- | ------- | - | ---------- |
   Picked  : |              620031 ns|              620036 ns|WR-NONSEQ | F8321198 | ----- |  ? | -------- |  ----  |INCR  |    4    | 1 |           0|
             |              620031 ns|              620036 ns|WR-NONSEQ | F8321198 | ----- |  ? | -------- |  ----  |INCR  |    4    | 1 |           0|
   Picked  : |              620036 ns|              620306 ns|WR-DATA   | F8321198 |  1/ ? | -- | 00000003 |  OKAY  | ---- | ------- | - | ---------- |
             |              620036 ns|              620306 ns|WR-DATA   | F8321198 |  1/ ? | -- | 00000003 |  OKAY  | ---- | ------- | - | ---------- |
   Picked  : |              620341 ns|              620346 ns|RD-NONSEQ | F8321198 | ----- |  1 | -------- |  ----  |SINGLE|    4    | 1 |           0|
             |              620341 ns|              620346 ns|RD-NONSEQ | F8321198 | ----- |  1 | -------- |  ----  |SINGLE|    4    | 1 |           0|
   Picked  : |              620346 ns|              620621 ns|RD-DATA   | F8321198 |  1/ 1 | -- | 00000003 |  OKAY  | ---- | ------- | - | ---------- |
             |              620346 ns|              620621 ns|RD-DATA   | F8321198 |  1/ 1 | -- | 00000003 |  OKAY  | ---- | ------- | - | ---------- |
   Picked  : |              620671 ns|              620676 ns|WR-NONSEQ | F832119C | ----- |  ? | -------- |  ----  |INCR  |    4    | 1 |           0|
             |              620671 ns|              620676 ns|WR-NONSEQ | F832119C | ----- |  ? | -------- |  ----  |INCR  |    4    | 1 |           0|
   Picked  : |              620676 ns|              620916 ns|WR-DATA   | F832119C |  1/ ? | -- | 00000003 |  OKAY  | ---- | ------- | - | ---------- |
             |              620676 ns|              620916 ns|WR-DATA   | F832119C |  1/ ? | -- | 00000003 |  OKAY  | ---- | ------- | - | ---------- |
   Picked  : |              620951 ns|              620956 ns|RD-NONSEQ | F832119C | ----- |  1 | -------- |  ----  |SINGLE|    4    | 1 |           0|
             |              620951 ns|              620956 ns|RD-NONSEQ | F832119C | ----- |  1 | -------- |  ----  |SINGLE|    4    | 1 |           0|
   Picked  : |              620956 ns|              621181 ns|RD-DATA   | F832119C |  1/ 1 | -- | 00000003 |  OKAY  | ---- | ------- | - | ---------- |
             |              620956 ns|              621181 ns|RD-DATA   | F832119C |  1/ 1 | -- | 00000003 |  OKAY  | ---- | ------- | - | ---------- |
   Picked  : |              621226 ns|              621231 ns|WR-NONSEQ | F83211A0 | ----- |  ? | -------- |  ----  |INCR  |    4    | 1 |           0|
             |              621226 ns|              621231 ns|WR-NONSEQ | F83211A0 | ----- |  ? | -------- |  ----  |INCR  |    4    | 1 |           0|
   Picked  : |              621231 ns|              621476 ns|WR-DATA   | F83211A0 |  1/ ? | -- | 00000003 |  OKAY  | ---- | ------- | - | ---------- |
             |              621231 ns|              621476 ns|WR-DATA   | F83211A0 |  1/ ? | -- | 00000003 |  OKAY  | ---- | ------- | - | ---------- |
   Picked  : |              621511 ns|              621516 ns|RD-NONSEQ | F83211A0 | ----- |  1 | -------- |  ----  |SINGLE|    4    | 1 |           0|
             |              621511 ns|              621516 ns|RD-NONSEQ | F83211A0 | ----- |  1 | -------- |  ----  |SINGLE|    4    | 1 |           0|
   Picked  : |              621516 ns|              621781 ns|RD-DATA   | F83211A0 |  1/ 1 | -- | 00000003 |  OKAY  | ---- | ------- | - | ---------- |
             |              621516 ns|              621781 ns|RD-DATA   | F83211A0 |  1/ 1 | -- | 00000003 |  OKAY  | ---- | ------- | - | ---------- |
   Picked  : |              621836 ns|              621841 ns|WR-NONSEQ | F83211A4 | ----- |  ? | -------- |  ----  |INCR  |    4    | 1 |           0|
             |              621836 ns|              621841 ns|WR-NONSEQ | F83211A4 | ----- |  ? | -------- |  ----  |INCR  |    4    | 1 |           0|
   Picked  : |              621841 ns|              622106 ns|WR-DATA   | F83211A4 |  1/ ? | -- | 00000003 |  OKAY  | ---- | ------- | - | ---------- |
             |              621841 ns|              622106 ns|WR-DATA   | F83211A4 |  1/ ? | -- | 00000003 |  OKAY  | ---- | ------- | - | ---------- |
   Picked  : |              622141 ns|              622146 ns|RD-NONSEQ | F83211A4 | ----- |  1 | -------- |  ----  |SINGLE|    4    | 1 |           0|
             |              622141 ns|              622146 ns|RD-NONSEQ | F83211A4 | ----- |  1 | -------- |  ----  |SINGLE|    4    | 1 |           0|
   Picked  : |              622146 ns|              622381 ns|RD-DATA   | F83211A4 |  1/ 1 | -- | 00000003 |  OKAY  | ---- | ------- | - | ---------- |
             |              622146 ns|              622381 ns|RD-DATA   | F83211A4 |  1/ 1 | -- | 00000003 |  OKAY  | ---- | ------- | - | ---------- |
   Picked  : |              622421 ns|              622426 ns|WR-NONSEQ | F83211A8 | ----- |  ? | -------- |  ----  |INCR  |    4    | 1 |           0|
             |              622421 ns|              622426 ns|WR-NONSEQ | F83211A8 | ----- |  ? | -------- |  ----  |INCR  |    4    | 1 |           0|
   Picked  : |              622426 ns|              622706 ns|WR-DATA   | F83211A8 |  1/ ? | -- | 00000003 |  OKAY  | ---- | ------- | - | ---------- |
             |              622426 ns|              622706 ns|WR-DATA   | F83211A8 |  1/ ? | -- | 00000003 |  OKAY  | ---- | ------- | - | ---------- |
   Picked  : |              622741 ns|              622746 ns|RD-NONSEQ | F83211A8 | ----- |  1 | -------- |  ----  |SINGLE|    4    | 1 |           0|
             |              622741 ns|              622746 ns|RD-NONSEQ | F83211A8 | ----- |  1 | -------- |  ----  |SINGLE|    4    | 1 |           0|
   Picked  : |              622746 ns|              622981 ns|RD-DATA   | F83211A8 |  1/ 1 | -- | 00000003 |  OKAY  | ---- | ------- | - | ---------- |
             |              622746 ns|              622981 ns|RD-DATA   | F83211A8 |  1/ 1 | -- | 00000003 |  OKAY  | ---- | ------- | - | ---------- |
   Picked  : |              623021 ns|              623026 ns|WR-NONSEQ | F83211AC | ----- |  ? | -------- |  ----  |INCR  |    4    | 1 |           0|
             |              623021 ns|              623026 ns|WR-NONSEQ | F83211AC | ----- |  ? | -------- |  ----  |INCR  |    4    | 1 |           0|
   Picked  : |              623026 ns|              623266 ns|WR-DATA   | F83211AC |  1/ ? | -- | 00000003 |  OKAY  | ---- | ------- | - | ---------- |
             |              623026 ns|              623266 ns|WR-DATA   | F83211AC |  1/ ? | -- | 00000003 |  OKAY  | ---- | ------- | - | ---------- |
   Picked  : |              623301 ns|              623306 ns|RD-NONSEQ | F83211AC | ----- |  1 | -------- |  ----  |SINGLE|    4    | 1 |           0|
             |              623301 ns|              623306 ns|RD-NONSEQ | F83211AC | ----- |  1 | -------- |  ----  |SINGLE|    4    | 1 |           0|
   Picked  : |              623306 ns|              623541 ns|RD-DATA   | F83211AC |  1/ 1 | -- | 00000003 |  OKAY  | ---- | ------- | - | ---------- |
             |              623306 ns|              623541 ns|RD-DATA   | F83211AC |  1/ 1 | -- | 00000003 |  OKAY  | ---- | ------- | - | ---------- |
   Picked  : |              623581 ns|              623586 ns|WR-NONSEQ | F83211B0 | ----- |  ? | -------- |  ----  |INCR  |    4    | 1 |           0|
             |              623581 ns|              623586 ns|WR-NONSEQ | F83211B0 | ----- |  ? | -------- |  ----  |INCR  |    4    | 1 |           0|
   Picked  : |              623586 ns|              623826 ns|WR-DATA   | F83211B0 |  1/ ? | -- | 00000003 |  OKAY  | ---- | ------- | - | ---------- |
             |              623586 ns|              623826 ns|WR-DATA   | F83211B0 |  1/ ? | -- | 00000003 |  OKAY  | ---- | ------- | - | ---------- |
   Picked  : |              623861 ns|              623866 ns|RD-NONSEQ | F83211B0 | ----- |  1 | -------- |  ----  |SINGLE|    4    | 1 |           0|
             |              623861 ns|              623866 ns|RD-NONSEQ | F83211B0 | ----- |  1 | -------- |  ----  |SINGLE|    4    | 1 |           0|
   Picked  : |              623866 ns|              624101 ns|RD-DATA   | F83211B0 |  1/ 1 | -- | 00000003 |  OKAY  | ---- | ------- | - | ---------- |
             |              623866 ns|              624101 ns|RD-DATA   | F83211B0 |  1/ 1 | -- | 00000003 |  OKAY  | ---- | ------- | - | ---------- |
   Picked  : |              624151 ns|              624156 ns|WR-NONSEQ | F83211B8 | ----- |  ? | -------- |  ----  |INCR  |    4    | 1 |           0|
             |              624151 ns|              624156 ns|WR-NONSEQ | F83211B8 | ----- |  ? | -------- |  ----  |INCR  |    4    | 1 |           0|
   Picked  : |              624156 ns|              624386 ns|WR-DATA   | F83211B8 |  1/ ? | -- | 00000003 |  OKAY  | ---- | ------- | - | ---------- |
             |              624156 ns|              624386 ns|WR-DATA   | F83211B8 |  1/ ? | -- | 00000003 |  OKAY  | ---- | ------- | - | ---------- |
   Picked  : |              624421 ns|              624426 ns|RD-NONSEQ | F83211B8 | ----- |  1 | -------- |  ----  |SINGLE|    4    | 1 |           0|
             |              624421 ns|              624426 ns|RD-NONSEQ | F83211B8 | ----- |  1 | -------- |  ----  |SINGLE|    4    | 1 |           0|
   Picked  : |              624426 ns|              624661 ns|RD-DATA   | F83211B8 |  1/ 1 | -- | 00000003 |  OKAY  | ---- | ------- | - | ---------- |
             |              624426 ns|              624661 ns|RD-DATA   | F83211B8 |  1/ 1 | -- | 00000003 |  OKAY  | ---- | ------- | - | ---------- |
   Picked  : |              627266 ns|              627271 ns|WR-NONSEQ | F8321190 | ----- |  ? | -------- |  ----  |INCR  |    4    | 1 |           0|
             |              627266 ns|              627271 ns|WR-NONSEQ | F8321190 | ----- |  ? | -------- |  ----  |INCR  |    4    | 1 |           0|
   Picked  : |              627271 ns|              627506 ns|WR-DATA   | F8321190 |  1/ ? | -- | 00000003 |  OKAY  | ---- | ------- | - | ---------- |
             |              627271 ns|              627506 ns|WR-DATA   | F8321190 |  1/ ? | -- | 00000003 |  OKAY  | ---- | ------- | - | ---------- |
   Picked  : |              627541 ns|              627546 ns|RD-NONSEQ | F8321190 | ----- |  1 | -------- |  ----  |SINGLE|    4    | 1 |           0|
             |              627541 ns|              627546 ns|RD-NONSEQ | F8321190 | ----- |  1 | -------- |  ----  |SINGLE|    4    | 1 |           0|
   Picked  : |              627546 ns|              627791 ns|RD-DATA   | F8321190 |  1/ 1 | -- | 00000003 |  OKAY  | ---- | ------- | - | ---------- |
             |              627546 ns|              627791 ns|RD-DATA   | F8321190 |  1/ 1 | -- | 00000003 |  OKAY  | ---- | ------- | - | ---------- |
   Picked  : |              627846 ns|              627851 ns|WR-NONSEQ | F8321194 | ----- |  ? | -------- |  ----  |INCR  |    4    | 1 |           0|
             |              627846 ns|              627851 ns|WR-NONSEQ | F8321194 | ----- |  ? | -------- |  ----  |INCR  |    4    | 1 |           0|
   Picked  : |              627851 ns|              628106 ns|WR-DATA   | F8321194 |  1/ ? | -- | 00000003 |  OKAY  | ---- | ------- | - | ---------- |
             |              627851 ns|              628106 ns|WR-DATA   | F8321194 |  1/ ? | -- | 00000003 |  OKAY  | ---- | ------- | - | ---------- |
   Picked  : |              628141 ns|              628146 ns|RD-NONSEQ | F8321194 | ----- |  1 | -------- |  ----  |SINGLE|    4    | 1 |           0|
             |              628141 ns|              628146 ns|RD-NONSEQ | F8321194 | ----- |  1 | -------- |  ----  |SINGLE|    4    | 1 |           0|
   Picked  : |              628146 ns|              628421 ns|RD-DATA   | F8321194 |  1/ 1 | -- | 00000003 |  OKAY  | ---- | ------- | - | ---------- |
             |              628146 ns|              628421 ns|RD-DATA   | F8321194 |  1/ 1 | -- | 00000003 |  OKAY  | ---- | ------- | - | ---------- |
   Picked  : |              628466 ns|              628471 ns|WR-NONSEQ | F8321198 | ----- |  ? | -------- |  ----  |INCR  |    4    | 1 |           0|
             |              628466 ns|              628471 ns|WR-NONSEQ | F8321198 | ----- |  ? | -------- |  ----  |INCR  |    4    | 1 |           0|
   Picked  : |              628471 ns|              628706 ns|WR-DATA   | F8321198 |  1/ ? | -- | 00000003 |  OKAY  | ---- | ------- | - | ---------- |
             |              628471 ns|              628706 ns|WR-DATA   | F8321198 |  1/ ? | -- | 00000003 |  OKAY  | ---- | ------- | - | ---------- |
   Picked  : |              628741 ns|              628746 ns|RD-NONSEQ | F8321198 | ----- |  1 | -------- |  ----  |SINGLE|    4    | 1 |           0|
             |              628741 ns|              628746 ns|RD-NONSEQ | F8321198 | ----- |  1 | -------- |  ----  |SINGLE|    4    | 1 |           0|
   Picked  : |              628746 ns|              628991 ns|RD-DATA   | F8321198 |  1/ 1 | -- | 00000003 |  OKAY  | ---- | ------- | - | ---------- |
             |              628746 ns|              628991 ns|RD-DATA   | F8321198 |  1/ 1 | -- | 00000003 |  OKAY  | ---- | ------- | - | ---------- |
   Picked  : |              629036 ns|              629041 ns|WR-NONSEQ | F832119C | ----- |  ? | -------- |  ----  |INCR  |    4    | 1 |           0|
             |              629036 ns|              629041 ns|WR-NONSEQ | F832119C | ----- |  ? | -------- |  ----  |INCR  |    4    | 1 |           0|
   Picked  : |              629041 ns|              629266 ns|WR-DATA   | F832119C |  1/ ? | -- | 00000003 |  OKAY  | ---- | ------- | - | ---------- |
             |              629041 ns|              629266 ns|WR-DATA   | F832119C |  1/ ? | -- | 00000003 |  OKAY  | ---- | ------- | - | ---------- |
   Picked  : |              629301 ns|              629306 ns|RD-NONSEQ | F832119C | ----- |  1 | -------- |  ----  |SINGLE|    4    | 1 |           0|
             |              629301 ns|              629306 ns|RD-NONSEQ | F832119C | ----- |  1 | -------- |  ----  |SINGLE|    4    | 1 |           0|
   Picked  : |              629306 ns|              629581 ns|RD-DATA   | F832119C |  1/ 1 | -- | 00000003 |  OKAY  | ---- | ------- | - | ---------- |
             |              629306 ns|              629581 ns|RD-DATA   | F832119C |  1/ 1 | -- | 00000003 |  OKAY  | ---- | ------- | - | ---------- |
   Picked  : |              629626 ns|              629631 ns|WR-NONSEQ | F83211A0 | ----- |  ? | -------- |  ----  |INCR  |    4    | 1 |           0|
             |              629626 ns|              629631 ns|WR-NONSEQ | F83211A0 | ----- |  ? | -------- |  ----  |INCR  |    4    | 1 |           0|
   Picked  : |              629631 ns|              629866 ns|WR-DATA   | F83211A0 |  1/ ? | -- | 00000003 |  OKAY  | ---- | ------- | - | ---------- |
             |              629631 ns|              629866 ns|WR-DATA   | F83211A0 |  1/ ? | -- | 00000003 |  OKAY  | ---- | ------- | - | ---------- |
   Picked  : |              629901 ns|              629906 ns|RD-NONSEQ | F83211A0 | ----- |  1 | -------- |  ----  |SINGLE|    4    | 1 |           0|
             |              629901 ns|              629906 ns|RD-NONSEQ | F83211A0 | ----- |  1 | -------- |  ----  |SINGLE|    4    | 1 |           0|
   Picked  : |              629906 ns|              630141 ns|RD-DATA   | F83211A0 |  1/ 1 | -- | 00000003 |  OKAY  | ---- | ------- | - | ---------- |
             |              629906 ns|              630141 ns|RD-DATA   | F83211A0 |  1/ 1 | -- | 00000003 |  OKAY  | ---- | ------- | - | ---------- |
   Picked  : |              630186 ns|              630191 ns|WR-NONSEQ | F83211A4 | ----- |  ? | -------- |  ----  |INCR  |    4    | 1 |           0|
             |              630186 ns|              630191 ns|WR-NONSEQ | F83211A4 | ----- |  ? | -------- |  ----  |INCR  |    4    | 1 |           0|
   Picked  : |              630191 ns|              630426 ns|WR-DATA   | F83211A4 |  1/ ? | -- | 00000003 |  OKAY  | ---- | ------- | - | ---------- |
             |              630191 ns|              630426 ns|WR-DATA   | F83211A4 |  1/ ? | -- | 00000003 |  OKAY  | ---- | ------- | - | ---------- |
   Picked  : |              630461 ns|              630466 ns|RD-NONSEQ | F83211A4 | ----- |  1 | -------- |  ----  |SINGLE|    4    | 1 |           0|
             |              630461 ns|              630466 ns|RD-NONSEQ | F83211A4 | ----- |  1 | -------- |  ----  |SINGLE|    4    | 1 |           0|
   Picked  : |              630466 ns|              630701 ns|RD-DATA   | F83211A4 |  1/ 1 | -- | 00000003 |  OKAY  | ---- | ------- | - | ---------- |
             |              630466 ns|              630701 ns|RD-DATA   | F83211A4 |  1/ 1 | -- | 00000003 |  OKAY  | ---- | ------- | - | ---------- |
   Picked  : |              630751 ns|              630756 ns|WR-NONSEQ | F83211A8 | ----- |  ? | -------- |  ----  |INCR  |    4    | 1 |           0|
             |              630751 ns|              630756 ns|WR-NONSEQ | F83211A8 | ----- |  ? | -------- |  ----  |INCR  |    4    | 1 |           0|
   Picked  : |              630756 ns|              631036 ns|WR-DATA   | F83211A8 |  1/ ? | -- | 00000003 |  OKAY  | ---- | ------- | - | ---------- |
             |              630756 ns|              631036 ns|WR-DATA   | F83211A8 |  1/ ? | -- | 00000003 |  OKAY  | ---- | ------- | - | ---------- |
   Picked  : |              631071 ns|              631076 ns|RD-NONSEQ | F83211A8 | ----- |  1 | -------- |  ----  |SINGLE|    4    | 1 |           0|
             |              631071 ns|              631076 ns|RD-NONSEQ | F83211A8 | ----- |  1 | -------- |  ----  |SINGLE|    4    | 1 |           0|
   Picked  : |              631076 ns|              631301 ns|RD-DATA   | F83211A8 |  1/ 1 | -- | 00000003 |  OKAY  | ---- | ------- | - | ---------- |
             |              631076 ns|              631301 ns|RD-DATA   | F83211A8 |  1/ 1 | -- | 00000003 |  OKAY  | ---- | ------- | - | ---------- |
   Picked  : |              631356 ns|              631361 ns|WR-NONSEQ | F83211AC | ----- |  ? | -------- |  ----  |INCR  |    4    | 1 |           0|
             |              631356 ns|              631361 ns|WR-NONSEQ | F83211AC | ----- |  ? | -------- |  ----  |INCR  |    4    | 1 |           0|
   Picked  : |              631361 ns|              631586 ns|WR-DATA   | F83211AC |  1/ ? | -- | 00000003 |  OKAY  | ---- | ------- | - | ---------- |
             |              631361 ns|              631586 ns|WR-DATA   | F83211AC |  1/ ? | -- | 00000003 |  OKAY  | ---- | ------- | - | ---------- |
   Picked  : |              631621 ns|              631626 ns|RD-NONSEQ | F83211AC | ----- |  1 | -------- |  ----  |SINGLE|    4    | 1 |           0|
             |              631621 ns|              631626 ns|RD-NONSEQ | F83211AC | ----- |  1 | -------- |  ----  |SINGLE|    4    | 1 |           0|
   Picked  : |              631626 ns|              631861 ns|RD-DATA   | F83211AC |  1/ 1 | -- | 00000003 |  OKAY  | ---- | ------- | - | ---------- |
             |              631626 ns|              631861 ns|RD-DATA   | F83211AC |  1/ 1 | -- | 00000003 |  OKAY  | ---- | ------- | - | ---------- |
   Picked  : |              631906 ns|              631911 ns|WR-NONSEQ | F83211B0 | ----- |  ? | -------- |  ----  |INCR  |    4    | 1 |           0|
             |              631906 ns|              631911 ns|WR-NONSEQ | F83211B0 | ----- |  ? | -------- |  ----  |INCR  |    4    | 1 |           0|
   Picked  : |              631911 ns|              632146 ns|WR-DATA   | F83211B0 |  1/ ? | -- | 00000003 |  OKAY  | ---- | ------- | - | ---------- |
             |              631911 ns|              632146 ns|WR-DATA   | F83211B0 |  1/ ? | -- | 00000003 |  OKAY  | ---- | ------- | - | ---------- |
   Picked  : |              632181 ns|              632186 ns|RD-NONSEQ | F83211B0 | ----- |  1 | -------- |  ----  |SINGLE|    4    | 1 |           0|
             |              632181 ns|              632186 ns|RD-NONSEQ | F83211B0 | ----- |  1 | -------- |  ----  |SINGLE|    4    | 1 |           0|
   Picked  : |              632186 ns|              632461 ns|RD-DATA   | F83211B0 |  1/ 1 | -- | 00000003 |  OKAY  | ---- | ------- | - | ---------- |
             |              632186 ns|              632461 ns|RD-DATA   | F83211B0 |  1/ 1 | -- | 00000003 |  OKAY  | ---- | ------- | - | ---------- |
   Picked  : |              632511 ns|              632516 ns|WR-NONSEQ | F83211B8 | ----- |  ? | -------- |  ----  |INCR  |    4    | 1 |           0|
             |              632511 ns|              632516 ns|WR-NONSEQ | F83211B8 | ----- |  ? | -------- |  ----  |INCR  |    4    | 1 |           0|
   Picked  : |              632516 ns|              632786 ns|WR-DATA   | F83211B8 |  1/ ? | -- | 00000003 |  OKAY  | ---- | ------- | - | ---------- |
             |              632516 ns|              632786 ns|WR-DATA   | F83211B8 |  1/ ? | -- | 00000003 |  OKAY  | ---- | ------- | - | ---------- |
   Picked  : |              632821 ns|              632826 ns|RD-NONSEQ | F83211B8 | ----- |  1 | -------- |  ----  |SINGLE|    4    | 1 |           0|
             |              632821 ns|              632826 ns|RD-NONSEQ | F83211B8 | ----- |  1 | -------- |  ----  |SINGLE|    4    | 1 |           0|
   Picked  : |              632826 ns|              633061 ns|RD-DATA   | F83211B8 |  1/ 1 | -- | 00000003 |  OKAY  | ---- | ------- | - | ---------- |
             |              632826 ns|              633061 ns|RD-DATA   | F83211B8 |  1/ 1 | -- | 00000003 |  OKAY  | ---- | ------- | - | ---------- |
   Picked  : |              875821 ns|              875826 ns|RD-NONSEQ | F8316CB8 | ----- |  1 | -------- |  ----  |SINGLE|    4    | 1 |           0|
             |              875821 ns|              875826 ns|RD-NONSEQ | F8316CB8 | ----- |  1 | -------- |  ----  |SINGLE|    4    | 1 |           0|
   Picked  : |              875826 ns|              875911 ns|RD-DATA   | F8316CB8 |  1/ 1 | -- | 00000000 |  OKAY  | ---- | ------- | - | ---------- |
             |              875826 ns|              875911 ns|RD-DATA   | F8316CB8 |  1/ 1 | -- | 00000000 |  OKAY  | ---- | ------- | - | ---------- |
   Picked  : |              875946 ns|              875951 ns|RD-NONSEQ | F8316CBC | ----- |  1 | -------- |  ----  |SINGLE|    4    | 1 |           0|
             |              875946 ns|              875951 ns|RD-NONSEQ | F8316CBC | ----- |  1 | -------- |  ----  |SINGLE|    4    | 1 |           0|
   Picked  : |              875951 ns|              876031 ns|RD-DATA   | F8316CBC |  1/ 1 | -- | 00000000 |  OKAY  | ---- | ------- | - | ---------- |
             |              875951 ns|              876031 ns|RD-DATA   | F8316CBC |  1/ 1 | -- | 00000000 |  OKAY  | ---- | ------- | - | ---------- |
   Picked  : |              876066 ns|              876071 ns|RD-NONSEQ | F8316CCC | ----- |  1 | -------- |  ----  |SINGLE|    4    | 1 |           0|
             |              876066 ns|              876071 ns|RD-NONSEQ | F8316CCC | ----- |  1 | -------- |  ----  |SINGLE|    4    | 1 |           0|
   Picked  : |              876071 ns|              876151 ns|RD-DATA   | F8316CCC |  1/ 1 | -- | 00000000 |  OKAY  | ---- | ------- | - | ---------- |
             |              876071 ns|              876151 ns|RD-DATA   | F8316CCC |  1/ 1 | -- | 00000000 |  OKAY  | ---- | ------- | - | ---------- |
   Picked  : |              876186 ns|              876191 ns|RD-NONSEQ | F8316CD0 | ----- |  1 | -------- |  ----  |SINGLE|    4    | 1 |           0|
             |              876186 ns|              876191 ns|RD-NONSEQ | F8316CD0 | ----- |  1 | -------- |  ----  |SINGLE|    4    | 1 |           0|
   Picked  : |              876191 ns|              876271 ns|RD-DATA   | F8316CD0 |  1/ 1 | -- | 00000000 |  OKAY  | ---- | ------- | - | ---------- |
             |              876191 ns|              876271 ns|RD-DATA   | F8316CD0 |  1/ 1 | -- | 00000000 |  OKAY  | ---- | ------- | - | ---------- |
   Picked  : |              876306 ns|              876311 ns|RD-NONSEQ | F8316CE0 | ----- |  1 | -------- |  ----  |SINGLE|    4    | 1 |           0|
             |              876306 ns|              876311 ns|RD-NONSEQ | F8316CE0 | ----- |  1 | -------- |  ----  |SINGLE|    4    | 1 |           0|
   Picked  : |              876311 ns|              876391 ns|RD-DATA   | F8316CE0 |  1/ 1 | -- | 00000000 |  OKAY  | ---- | ------- | - | ---------- |
             |              876311 ns|              876391 ns|RD-DATA   | F8316CE0 |  1/ 1 | -- | 00000000 |  OKAY  | ---- | ------- | - | ---------- |
   Picked  : |              876426 ns|              876431 ns|RD-NONSEQ | F8316CE4 | ----- |  1 | -------- |  ----  |SINGLE|    4    | 1 |           0|
             |              876426 ns|              876431 ns|RD-NONSEQ | F8316CE4 | ----- |  1 | -------- |  ----  |SINGLE|    4    | 1 |           0|
   Picked  : |              876431 ns|              876521 ns|RD-DATA   | F8316CE4 |  1/ 1 | -- | 00000000 |  OKAY  | ---- | ------- | - | ---------- |
             |              876431 ns|              876521 ns|RD-DATA   | F8316CE4 |  1/ 1 | -- | 00000000 |  OKAY  | ---- | ------- | - | ---------- |
   Picked  : |              876556 ns|              876561 ns|RD-NONSEQ | F8316CF4 | ----- |  1 | -------- |  ----  |SINGLE|    4    | 1 |           0|
             |              876556 ns|              876561 ns|RD-NONSEQ | F8316CF4 | ----- |  1 | -------- |  ----  |SINGLE|    4    | 1 |           0|
   Picked  : |              876561 ns|              876641 ns|RD-DATA   | F8316CF4 |  1/ 1 | -- | 00000000 |  OKAY  | ---- | ------- | - | ---------- |
             |              876561 ns|              876641 ns|RD-DATA   | F8316CF4 |  1/ 1 | -- | 00000000 |  OKAY  | ---- | ------- | - | ---------- |
   Picked  : |              876676 ns|              876681 ns|RD-NONSEQ | F8316CF8 | ----- |  1 | -------- |  ----  |SINGLE|    4    | 1 |           0|
             |              876676 ns|              876681 ns|RD-NONSEQ | F8316CF8 | ----- |  1 | -------- |  ----  |SINGLE|    4    | 1 |           0|
   Picked  : |              876681 ns|              876761 ns|RD-DATA   | F8316CF8 |  1/ 1 | -- | 00000000 |  OKAY  | ---- | ------- | - | ---------- |
             |              876681 ns|              876761 ns|RD-DATA   | F8316CF8 |  1/ 1 | -- | 00000000 |  OKAY  | ---- | ------- | - | ---------- |
   Picked  : |              876796 ns|              876801 ns|RD-NONSEQ | F8316D08 | ----- |  1 | -------- |  ----  |SINGLE|    4    | 1 |           0|
             |              876796 ns|              876801 ns|RD-NONSEQ | F8316D08 | ----- |  1 | -------- |  ----  |SINGLE|    4    | 1 |           0|
   Picked  : |              876801 ns|              876881 ns|RD-DATA   | F8316D08 |  1/ 1 | -- | 00000000 |  OKAY  | ---- | ------- | - | ---------- |
             |              876801 ns|              876881 ns|RD-DATA   | F8316D08 |  1/ 1 | -- | 00000000 |  OKAY  | ---- | ------- | - | ---------- |
   Picked  : |              876916 ns|              876921 ns|RD-NONSEQ | F8316D0C | ----- |  1 | -------- |  ----  |SINGLE|    4    | 1 |           0|
             |              876916 ns|              876921 ns|RD-NONSEQ | F8316D0C | ----- |  1 | -------- |  ----  |SINGLE|    4    | 1 |           0|
   Picked  : |              876921 ns|              877001 ns|RD-DATA   | F8316D0C |  1/ 1 | -- | 00000000 |  OKAY  | ---- | ------- | - | ---------- |
             |              876921 ns|              877001 ns|RD-DATA   | F8316D0C |  1/ 1 | -- | 00000000 |  OKAY  | ---- | ------- | - | ---------- |
   Picked  : |              877036 ns|              877041 ns|RD-NONSEQ | F8316D1C | ----- |  1 | -------- |  ----  |SINGLE|    4    | 1 |           0|
             |              877036 ns|              877041 ns|RD-NONSEQ | F8316D1C | ----- |  1 | -------- |  ----  |SINGLE|    4    | 1 |           0|
   Picked  : |              877041 ns|              877121 ns|RD-DATA   | F8316D1C |  1/ 1 | -- | 00000000 |  OKAY  | ---- | ------- | - | ---------- |
             |              877041 ns|              877121 ns|RD-DATA   | F8316D1C |  1/ 1 | -- | 00000000 |  OKAY  | ---- | ------- | - | ---------- |
   Picked  : |              877156 ns|              877161 ns|RD-NONSEQ | F8316D20 | ----- |  1 | -------- |  ----  |SINGLE|    4    | 1 |           0|
             |              877156 ns|              877161 ns|RD-NONSEQ | F8316D20 | ----- |  1 | -------- |  ----  |SINGLE|    4    | 1 |           0|
   Picked  : |              877161 ns|              877251 ns|RD-DATA   | F8316D20 |  1/ 1 | -- | 00000000 |  OKAY  | ---- | ------- | - | ---------- |
             |              877161 ns|              877251 ns|RD-DATA   | F8316D20 |  1/ 1 | -- | 00000000 |  OKAY  | ---- | ------- | - | ---------- |
   Picked  : |              877286 ns|              877291 ns|RD-NONSEQ | F8316D30 | ----- |  1 | -------- |  ----  |SINGLE|    4    | 1 |           0|
             |              877286 ns|              877291 ns|RD-NONSEQ | F8316D30 | ----- |  1 | -------- |  ----  |SINGLE|    4    | 1 |           0|
   Picked  : |              877291 ns|              877371 ns|RD-DATA   | F8316D30 |  1/ 1 | -- | 00000000 |  OKAY  | ---- | ------- | - | ---------- |
             |              877291 ns|              877371 ns|RD-DATA   | F8316D30 |  1/ 1 | -- | 00000000 |  OKAY  | ---- | ------- | - | ---------- |
   Picked  : |              877406 ns|              877411 ns|RD-NONSEQ | F8316D34 | ----- |  1 | -------- |  ----  |SINGLE|    4    | 1 |           0|
             |              877406 ns|              877411 ns|RD-NONSEQ | F8316D34 | ----- |  1 | -------- |  ----  |SINGLE|    4    | 1 |           0|
   Picked  : |              877411 ns|              877491 ns|RD-DATA   | F8316D34 |  1/ 1 | -- | 00000000 |  OKAY  | ---- | ------- | - | ---------- |
             |              877411 ns|              877491 ns|RD-DATA   | F8316D34 |  1/ 1 | -- | 00000000 |  OKAY  | ---- | ------- | - | ---------- |
   Picked  : |              877526 ns|              877531 ns|RD-NONSEQ | F8316D44 | ----- |  1 | -------- |  ----  |SINGLE|    4    | 1 |           0|
             |              877526 ns|              877531 ns|RD-NONSEQ | F8316D44 | ----- |  1 | -------- |  ----  |SINGLE|    4    | 1 |           0|
   Picked  : |              877531 ns|              877621 ns|RD-DATA   | F8316D44 |  1/ 1 | -- | 48250018 |  OKAY  | ---- | ------- | - | ---------- |
             |              877531 ns|              877621 ns|RD-DATA   | F8316D44 |  1/ 1 | -- | 48250018 |  OKAY  | ---- | ------- | - | ---------- |
   Picked  : |              877656 ns|              877661 ns|RD-NONSEQ | F8316D48 | ----- |  1 | -------- |  ----  |SINGLE|    4    | 1 |           0|
             |              877656 ns|              877661 ns|RD-NONSEQ | F8316D48 | ----- |  1 | -------- |  ----  |SINGLE|    4    | 1 |           0|
   Picked  : |              877661 ns|              877741 ns|RD-DATA   | F8316D48 |  1/ 1 | -- | 00000000 |  OKAY  | ---- | ------- | - | ---------- |
             |              877661 ns|              877741 ns|RD-DATA   | F8316D48 |  1/ 1 | -- | 00000000 |  OKAY  | ---- | ------- | - | ---------- |
   Picked  : |              877776 ns|              877781 ns|RD-NONSEQ | F8316D58 | ----- |  1 | -------- |  ----  |SINGLE|    4    | 1 |           0|
             |              877776 ns|              877781 ns|RD-NONSEQ | F8316D58 | ----- |  1 | -------- |  ----  |SINGLE|    4    | 1 |           0|
   Picked  : |              877781 ns|              877861 ns|RD-DATA   | F8316D58 |  1/ 1 | -- | 00000000 |  OKAY  | ---- | ------- | - | ---------- |
             |              877781 ns|              877861 ns|RD-DATA   | F8316D58 |  1/ 1 | -- | 00000000 |  OKAY  | ---- | ------- | - | ---------- |
   Picked  : |              877896 ns|              877901 ns|RD-NONSEQ | F8316D5C | ----- |  1 | -------- |  ----  |SINGLE|    4    | 1 |           0|
             |              877896 ns|              877901 ns|RD-NONSEQ | F8316D5C | ----- |  1 | -------- |  ----  |SINGLE|    4    | 1 |           0|
   Picked  : |              877901 ns|              878001 ns|RD-DATA   | F8316D5C |  1/ 1 | -- | 00000000 |  OKAY  | ---- | ------- | - | ---------- |
             |              877901 ns|              878001 ns|RD-DATA   | F8316D5C |  1/ 1 | -- | 00000000 |  OKAY  | ---- | ------- | - | ---------- |
   Picked  : |              878036 ns|              878041 ns|RD-NONSEQ | F8316D6C | ----- |  1 | -------- |  ----  |SINGLE|    4    | 1 |           0|
             |              878036 ns|              878041 ns|RD-NONSEQ | F8316D6C | ----- |  1 | -------- |  ----  |SINGLE|    4    | 1 |           0|
   Picked  : |              878041 ns|              878121 ns|RD-DATA   | F8316D6C |  1/ 1 | -- | 00000000 |  OKAY  | ---- | ------- | - | ---------- |
             |              878041 ns|              878121 ns|RD-DATA   | F8316D6C |  1/ 1 | -- | 00000000 |  OKAY  | ---- | ------- | - | ---------- |
   Picked  : |              878156 ns|              878161 ns|RD-NONSEQ | F8316D70 | ----- |  1 | -------- |  ----  |SINGLE|    4    | 1 |           0|
             |              878156 ns|              878161 ns|RD-NONSEQ | F8316D70 | ----- |  1 | -------- |  ----  |SINGLE|    4    | 1 |           0|
   Picked  : |              878161 ns|              878251 ns|RD-DATA   | F8316D70 |  1/ 1 | -- | 00000000 |  OKAY  | ---- | ------- | - | ---------- |
             |              878161 ns|              878251 ns|RD-DATA   | F8316D70 |  1/ 1 | -- | 00000000 |  OKAY  | ---- | ------- | - | ---------- |
   Picked  : |              878286 ns|              878291 ns|RD-NONSEQ | F8316D80 | ----- |  1 | -------- |  ----  |SINGLE|    4    | 1 |           0|
             |              878286 ns|              878291 ns|RD-NONSEQ | F8316D80 | ----- |  1 | -------- |  ----  |SINGLE|    4    | 1 |           0|
   Picked  : |              878291 ns|              878381 ns|RD-DATA   | F8316D80 |  1/ 1 | -- | F8316D80 |  OKAY  | ---- | ------- | - | ---------- |
             |              878291 ns|              878381 ns|RD-DATA   | F8316D80 |  1/ 1 | -- | F8316D80 |  OKAY  | ---- | ------- | - | ---------- |
   Picked  : |              878416 ns|              878421 ns|RD-NONSEQ | F8316D84 | ----- |  1 | -------- |  ----  |SINGLE|    4    | 1 |           0|
             |              878416 ns|              878421 ns|RD-NONSEQ | F8316D84 | ----- |  1 | -------- |  ----  |SINGLE|    4    | 1 |           0|
   Picked  : |              878421 ns|              878511 ns|RD-DATA   | F8316D84 |  1/ 1 | -- | 00000000 |  OKAY  | ---- | ------- | - | ---------- |
             |              878421 ns|              878511 ns|RD-DATA   | F8316D84 |  1/ 1 | -- | 00000000 |  OKAY  | ---- | ------- | - | ---------- |
   Picked  : |              878546 ns|              878551 ns|RD-NONSEQ | F8316D94 | ----- |  1 | -------- |  ----  |SINGLE|    4    | 1 |           0|
             |              878546 ns|              878551 ns|RD-NONSEQ | F8316D94 | ----- |  1 | -------- |  ----  |SINGLE|    4    | 1 |           0|
   Picked  : |              878551 ns|              878631 ns|RD-DATA   | F8316D94 |  1/ 1 | -- | 00000000 |  OKAY  | ---- | ------- | - | ---------- |
             |              878551 ns|              878631 ns|RD-DATA   | F8316D94 |  1/ 1 | -- | 00000000 |  OKAY  | ---- | ------- | - | ---------- |
   Picked  : |              878666 ns|              878671 ns|RD-NONSEQ | F8316D98 | ----- |  1 | -------- |  ----  |SINGLE|    4    | 1 |           0|
             |              878666 ns|              878671 ns|RD-NONSEQ | F8316D98 | ----- |  1 | -------- |  ----  |SINGLE|    4    | 1 |           0|
   Picked  : |              878671 ns|              878761 ns|RD-DATA   | F8316D98 |  1/ 1 | -- | 00000000 |  OKAY  | ---- | ------- | - | ---------- |
             |              878671 ns|              878761 ns|RD-DATA   | F8316D98 |  1/ 1 | -- | 00000000 |  OKAY  | ---- | ------- | - | ---------- |
   Picked  : |              878796 ns|              878801 ns|RD-NONSEQ | F8316DA8 | ----- |  1 | -------- |  ----  |SINGLE|    4    | 1 |           0|
             |              878796 ns|              878801 ns|RD-NONSEQ | F8316DA8 | ----- |  1 | -------- |  ----  |SINGLE|    4    | 1 |           0|
   Picked  : |              878801 ns|              878891 ns|RD-DATA   | F8316DA8 |  1/ 1 | -- | 00000000 |  OKAY  | ---- | ------- | - | ---------- |
             |              878801 ns|              878891 ns|RD-DATA   | F8316DA8 |  1/ 1 | -- | 00000000 |  OKAY  | ---- | ------- | - | ---------- |
   Picked  : |              878926 ns|              878931 ns|RD-NONSEQ | F8316DAC | ----- |  1 | -------- |  ----  |SINGLE|    4    | 1 |           0|
             |              878926 ns|              878931 ns|RD-NONSEQ | F8316DAC | ----- |  1 | -------- |  ----  |SINGLE|    4    | 1 |           0|
   Picked  : |              878931 ns|              879011 ns|RD-DATA   | F8316DAC |  1/ 1 | -- | 00000000 |  OKAY  | ---- | ------- | - | ---------- |
             |              878931 ns|              879011 ns|RD-DATA   | F8316DAC |  1/ 1 | -- | 00000000 |  OKAY  | ---- | ------- | - | ---------- |
   Picked  : |              879046 ns|              879051 ns|RD-NONSEQ | F8316DBC | ----- |  1 | -------- |  ----  |SINGLE|    4    | 1 |           0|
             |              879046 ns|              879051 ns|RD-NONSEQ | F8316DBC | ----- |  1 | -------- |  ----  |SINGLE|    4    | 1 |           0|
   Picked  : |              879051 ns|              879131 ns|RD-DATA   | F8316DBC |  1/ 1 | -- | 00000000 |  OKAY  | ---- | ------- | - | ---------- |
             |              879051 ns|              879131 ns|RD-DATA   | F8316DBC |  1/ 1 | -- | 00000000 |  OKAY  | ---- | ------- | - | ---------- |
   Picked  : |              879166 ns|              879171 ns|RD-NONSEQ | F8316DC0 | ----- |  1 | -------- |  ----  |SINGLE|    4    | 1 |           0|
             |              879166 ns|              879171 ns|RD-NONSEQ | F8316DC0 | ----- |  1 | -------- |  ----  |SINGLE|    4    | 1 |           0|
   Picked  : |              879171 ns|              879261 ns|RD-DATA   | F8316DC0 |  1/ 1 | -- | 00000000 |  OKAY  | ---- | ------- | - | ---------- |
             |              879171 ns|              879261 ns|RD-DATA   | F8316DC0 |  1/ 1 | -- | 00000000 |  OKAY  | ---- | ------- | - | ---------- |
   Picked  : |              879296 ns|              879301 ns|RD-NONSEQ | F8316DD0 | ----- |  1 | -------- |  ----  |SINGLE|    4    | 1 |           0|
             |              879296 ns|              879301 ns|RD-NONSEQ | F8316DD0 | ----- |  1 | -------- |  ----  |SINGLE|    4    | 1 |           0|
   Picked  : |              879301 ns|              879391 ns|RD-DATA   | F8316DD0 |  1/ 1 | -- | 00000000 |  OKAY  | ---- | ------- | - | ---------- |
             |              879301 ns|              879391 ns|RD-DATA   | F8316DD0 |  1/ 1 | -- | 00000000 |  OKAY  | ---- | ------- | - | ---------- |
   Picked  : |              879426 ns|              879431 ns|RD-NONSEQ | F8316DD4 | ----- |  1 | -------- |  ----  |SINGLE|    4    | 1 |           0|
             |              879426 ns|              879431 ns|RD-NONSEQ | F8316DD4 | ----- |  1 | -------- |  ----  |SINGLE|    4    | 1 |           0|
   Picked  : |              879431 ns|              879511 ns|RD-DATA   | F8316DD4 |  1/ 1 | -- | 00000000 |  OKAY  | ---- | ------- | - | ---------- |
             |              879431 ns|              879511 ns|RD-DATA   | F8316DD4 |  1/ 1 | -- | 00000000 |  OKAY  | ---- | ------- | - | ---------- |
   Picked  : |              879546 ns|              879551 ns|RD-NONSEQ | F8316DE4 | ----- |  1 | -------- |  ----  |SINGLE|    4    | 1 |           0|
             |              879546 ns|              879551 ns|RD-NONSEQ | F8316DE4 | ----- |  1 | -------- |  ----  |SINGLE|    4    | 1 |           0|
   Picked  : |              879551 ns|              879631 ns|RD-DATA   | F8316DE4 |  1/ 1 | -- | 00000000 |  OKAY  | ---- | ------- | - | ---------- |
             |              879551 ns|              879631 ns|RD-DATA   | F8316DE4 |  1/ 1 | -- | 00000000 |  OKAY  | ---- | ------- | - | ---------- |
   Picked  : |              879666 ns|              879671 ns|RD-NONSEQ | F8316DE8 | ----- |  1 | -------- |  ----  |SINGLE|    4    | 1 |           0|
             |              879666 ns|              879671 ns|RD-NONSEQ | F8316DE8 | ----- |  1 | -------- |  ----  |SINGLE|    4    | 1 |           0|
   Picked  : |              879671 ns|              879751 ns|RD-DATA   | F8316DE8 |  1/ 1 | -- | 00000000 |  OKAY  | ---- | ------- | - | ---------- |
             |              879671 ns|              879751 ns|RD-DATA   | F8316DE8 |  1/ 1 | -- | 00000000 |  OKAY  | ---- | ------- | - | ---------- |
   Picked  : |              879786 ns|              879791 ns|RD-NONSEQ | F8316DF8 | ----- |  1 | -------- |  ----  |SINGLE|    4    | 1 |           0|
             |              879786 ns|              879791 ns|RD-NONSEQ | F8316DF8 | ----- |  1 | -------- |  ----  |SINGLE|    4    | 1 |           0|
   Picked  : |              879791 ns|              879881 ns|RD-DATA   | F8316DF8 |  1/ 1 | -- | 00000000 |  OKAY  | ---- | ------- | - | ---------- |
             |              879791 ns|              879881 ns|RD-DATA   | F8316DF8 |  1/ 1 | -- | 00000000 |  OKAY  | ---- | ------- | - | ---------- |
   Picked  : |              879916 ns|              879921 ns|RD-NONSEQ | F8316DFC | ----- |  1 | -------- |  ----  |SINGLE|    4    | 1 |           0|
             |              879916 ns|              879921 ns|RD-NONSEQ | F8316DFC | ----- |  1 | -------- |  ----  |SINGLE|    4    | 1 |           0|
   Picked  : |              879921 ns|              880001 ns|RD-DATA   | F8316DFC |  1/ 1 | -- | 00000000 |  OKAY  | ---- | ------- | - | ---------- |
             |              879921 ns|              880001 ns|RD-DATA   | F8316DFC |  1/ 1 | -- | 00000000 |  OKAY  | ---- | ------- | - | ---------- |
   Picked  : |              880036 ns|              880041 ns|RD-NONSEQ | F8316E0C | ----- |  1 | -------- |  ----  |SINGLE|    4    | 1 |           0|
             |              880036 ns|              880041 ns|RD-NONSEQ | F8316E0C | ----- |  1 | -------- |  ----  |SINGLE|    4    | 1 |           0|
   Picked  : |              880041 ns|              880131 ns|RD-DATA   | F8316E0C |  1/ 1 | -- | 00000000 |  OKAY  | ---- | ------- | - | ---------- |
             |              880041 ns|              880131 ns|RD-DATA   | F8316E0C |  1/ 1 | -- | 00000000 |  OKAY  | ---- | ------- | - | ---------- |
   Picked  : |              880166 ns|              880171 ns|RD-NONSEQ | F8316E10 | ----- |  1 | -------- |  ----  |SINGLE|    4    | 1 |           0|
             |              880166 ns|              880171 ns|RD-NONSEQ | F8316E10 | ----- |  1 | -------- |  ----  |SINGLE|    4    | 1 |           0|
   Picked  : |              880171 ns|              880271 ns|RD-DATA   | F8316E10 |  1/ 1 | -- | 00000000 |  OKAY  | ---- | ------- | - | ---------- |
             |              880171 ns|              880271 ns|RD-DATA   | F8316E10 |  1/ 1 | -- | 00000000 |  OKAY  | ---- | ------- | - | ---------- |
   Picked  : |              880306 ns|              880311 ns|RD-NONSEQ | F8316E20 | ----- |  1 | -------- |  ----  |SINGLE|    4    | 1 |           0|
             |              880306 ns|              880311 ns|RD-NONSEQ | F8316E20 | ----- |  1 | -------- |  ----  |SINGLE|    4    | 1 |           0|
   Picked  : |              880311 ns|              880391 ns|RD-DATA   | F8316E20 |  1/ 1 | -- | 3FF1140D |  OKAY  | ---- | ------- | - | ---------- |
             |              880311 ns|              880391 ns|RD-DATA   | F8316E20 |  1/ 1 | -- | 3FF1140D |  OKAY  | ---- | ------- | - | ---------- |
   Picked  : |              880426 ns|              880431 ns|RD-NONSEQ | F8316E24 | ----- |  1 | -------- |  ----  |SINGLE|    4    | 1 |           0|
             |              880426 ns|              880431 ns|RD-NONSEQ | F8316E24 | ----- |  1 | -------- |  ----  |SINGLE|    4    | 1 |           0|
   Picked  : |              880431 ns|              880521 ns|RD-DATA   | F8316E24 |  1/ 1 | -- | 00000000 |  OKAY  | ---- | ------- | - | ---------- |
             |              880431 ns|              880521 ns|RD-DATA   | F8316E24 |  1/ 1 | -- | 00000000 |  OKAY  | ---- | ------- | - | ---------- |
   Picked  : |              880556 ns|              880561 ns|RD-NONSEQ | F8316E34 | ----- |  1 | -------- |  ----  |SINGLE|    4    | 1 |           0|
             |              880556 ns|              880561 ns|RD-NONSEQ | F8316E34 | ----- |  1 | -------- |  ----  |SINGLE|    4    | 1 |           0|
   Picked  : |              880561 ns|              880641 ns|RD-DATA   | F8316E34 |  1/ 1 | -- | 00000000 |  OKAY  | ---- | ------- | - | ---------- |
             |              880561 ns|              880641 ns|RD-DATA   | F8316E34 |  1/ 1 | -- | 00000000 |  OKAY  | ---- | ------- | - | ---------- |
   Picked  : |              880676 ns|              880681 ns|RD-NONSEQ | F8316E38 | ----- |  1 | -------- |  ----  |SINGLE|    4    | 1 |           0|
             |              880676 ns|              880681 ns|RD-NONSEQ | F8316E38 | ----- |  1 | -------- |  ----  |SINGLE|    4    | 1 |           0|
   Picked  : |              880681 ns|              880761 ns|RD-DATA   | F8316E38 |  1/ 1 | -- | 00000000 |  OKAY  | ---- | ------- | - | ---------- |
             |              880681 ns|              880761 ns|RD-DATA   | F8316E38 |  1/ 1 | -- | 00000000 |  OKAY  | ---- | ------- | - | ---------- |
   Picked  : |              880796 ns|              880801 ns|RD-NONSEQ | F8316E48 | ----- |  1 | -------- |  ----  |SINGLE|    4    | 1 |           0|
             |              880796 ns|              880801 ns|RD-NONSEQ | F8316E48 | ----- |  1 | -------- |  ----  |SINGLE|    4    | 1 |           0|
   Picked  : |              880801 ns|              880881 ns|RD-DATA   | F8316E48 |  1/ 1 | -- | 00000000 |  OKAY  | ---- | ------- | - | ---------- |
             |              880801 ns|              880881 ns|RD-DATA   | F8316E48 |  1/ 1 | -- | 00000000 |  OKAY  | ---- | ------- | - | ---------- |
   Picked  : |              880916 ns|              880921 ns|RD-NONSEQ | F8316E4C | ----- |  1 | -------- |  ----  |SINGLE|    4    | 1 |           0|
             |              880916 ns|              880921 ns|RD-NONSEQ | F8316E4C | ----- |  1 | -------- |  ----  |SINGLE|    4    | 1 |           0|
   Picked  : |              880921 ns|              881011 ns|RD-DATA   | F8316E4C |  1/ 1 | -- | 00000000 |  OKAY  | ---- | ------- | - | ---------- |
             |              880921 ns|              881011 ns|RD-DATA   | F8316E4C |  1/ 1 | -- | 00000000 |  OKAY  | ---- | ------- | - | ---------- |
   Picked  : |              881046 ns|              881051 ns|RD-NONSEQ | F8316E5C | ----- |  1 | -------- |  ----  |SINGLE|    4    | 1 |           0|
             |              881046 ns|              881051 ns|RD-NONSEQ | F8316E5C | ----- |  1 | -------- |  ----  |SINGLE|    4    | 1 |           0|
   Picked  : |              881051 ns|              881141 ns|RD-DATA   | F8316E5C |  1/ 1 | -- | 00000000 |  OKAY  | ---- | ------- | - | ---------- |
             |              881051 ns|              881141 ns|RD-DATA   | F8316E5C |  1/ 1 | -- | 00000000 |  OKAY  | ---- | ------- | - | ---------- |
   Picked  : |              881176 ns|              881181 ns|RD-NONSEQ | F8316E60 | ----- |  1 | -------- |  ----  |SINGLE|    4    | 1 |           0|
             |              881176 ns|              881181 ns|RD-NONSEQ | F8316E60 | ----- |  1 | -------- |  ----  |SINGLE|    4    | 1 |           0|
   Picked  : |              881181 ns|              881261 ns|RD-DATA   | F8316E60 |  1/ 1 | -- | 00000000 |  OKAY  | ---- | ------- | - | ---------- |
             |              881181 ns|              881261 ns|RD-DATA   | F8316E60 |  1/ 1 | -- | 00000000 |  OKAY  | ---- | ------- | - | ---------- |
   Picked  : |              881296 ns|              881301 ns|RD-NONSEQ | F8316E70 | ----- |  1 | -------- |  ----  |SINGLE|    4    | 1 |           0|
             |              881296 ns|              881301 ns|RD-NONSEQ | F8316E70 | ----- |  1 | -------- |  ----  |SINGLE|    4    | 1 |           0|
   Picked  : |              881301 ns|              881391 ns|RD-DATA   | F8316E70 |  1/ 1 | -- | 00000000 |  OKAY  | ---- | ------- | - | ---------- |
             |              881301 ns|              881391 ns|RD-DATA   | F8316E70 |  1/ 1 | -- | 00000000 |  OKAY  | ---- | ------- | - | ---------- |
   Picked  : |              881426 ns|              881431 ns|RD-NONSEQ | F8316E74 | ----- |  1 | -------- |  ----  |SINGLE|    4    | 1 |           0|
             |              881426 ns|              881431 ns|RD-NONSEQ | F8316E74 | ----- |  1 | -------- |  ----  |SINGLE|    4    | 1 |           0|
   Picked  : |              881431 ns|              881511 ns|RD-DATA   | F8316E74 |  1/ 1 | -- | 00000000 |  OKAY  | ---- | ------- | - | ---------- |
             |              881431 ns|              881511 ns|RD-DATA   | F8316E74 |  1/ 1 | -- | 00000000 |  OKAY  | ---- | ------- | - | ---------- |
   Picked  : |              881546 ns|              881551 ns|RD-NONSEQ | F8316E84 | ----- |  1 | -------- |  ----  |SINGLE|    4    | 1 |           0|
             |              881546 ns|              881551 ns|RD-NONSEQ | F8316E84 | ----- |  1 | -------- |  ----  |SINGLE|    4    | 1 |           0|
   Picked  : |              881551 ns|              881641 ns|RD-DATA   | F8316E84 |  1/ 1 | -- | 00000000 |  OKAY  | ---- | ------- | - | ---------- |
             |              881551 ns|              881641 ns|RD-DATA   | F8316E84 |  1/ 1 | -- | 00000000 |  OKAY  | ---- | ------- | - | ---------- |
   Picked  : |              881676 ns|              881681 ns|RD-NONSEQ | F8316E88 | ----- |  1 | -------- |  ----  |SINGLE|    4    | 1 |           0|
             |              881676 ns|              881681 ns|RD-NONSEQ | F8316E88 | ----- |  1 | -------- |  ----  |SINGLE|    4    | 1 |           0|
   Picked  : |              881681 ns|              881771 ns|RD-DATA   | F8316E88 |  1/ 1 | -- | 00000000 |  OKAY  | ---- | ------- | - | ---------- |
             |              881681 ns|              881771 ns|RD-DATA   | F8316E88 |  1/ 1 | -- | 00000000 |  OKAY  | ---- | ------- | - | ---------- |
   Picked  : |              881806 ns|              881811 ns|RD-NONSEQ | F8316E98 | ----- |  1 | -------- |  ----  |SINGLE|    4    | 1 |           0|
             |              881806 ns|              881811 ns|RD-NONSEQ | F8316E98 | ----- |  1 | -------- |  ----  |SINGLE|    4    | 1 |           0|
   Picked  : |              881811 ns|              881891 ns|RD-DATA   | F8316E98 |  1/ 1 | -- | 00000000 |  OKAY  | ---- | ------- | - | ---------- |
             |              881811 ns|              881891 ns|RD-DATA   | F8316E98 |  1/ 1 | -- | 00000000 |  OKAY  | ---- | ------- | - | ---------- |
   Picked  : |              881926 ns|              881931 ns|RD-NONSEQ | F8316E9C | ----- |  1 | -------- |  ----  |SINGLE|    4    | 1 |           0|
             |              881926 ns|              881931 ns|RD-NONSEQ | F8316E9C | ----- |  1 | -------- |  ----  |SINGLE|    4    | 1 |           0|
   Picked  : |              881931 ns|              882011 ns|RD-DATA   | F8316E9C |  1/ 1 | -- | 00000000 |  OKAY  | ---- | ------- | - | ---------- |
             |              881931 ns|              882011 ns|RD-DATA   | F8316E9C |  1/ 1 | -- | 00000000 |  OKAY  | ---- | ------- | - | ---------- |
   Picked  : |              882046 ns|              882051 ns|RD-NONSEQ | F8316EAC | ----- |  1 | -------- |  ----  |SINGLE|    4    | 1 |           0|
             |              882046 ns|              882051 ns|RD-NONSEQ | F8316EAC | ----- |  1 | -------- |  ----  |SINGLE|    4    | 1 |           0|
   Picked  : |              882051 ns|              882131 ns|RD-DATA   | F8316EAC |  1/ 1 | -- | 00000000 |  OKAY  | ---- | ------- | - | ---------- |
             |              882051 ns|              882131 ns|RD-DATA   | F8316EAC |  1/ 1 | -- | 00000000 |  OKAY  | ---- | ------- | - | ---------- |
   Picked  : |              882166 ns|              882171 ns|RD-NONSEQ | F8316EB0 | ----- |  1 | -------- |  ----  |SINGLE|    4    | 1 |           0|
             |              882166 ns|              882171 ns|RD-NONSEQ | F8316EB0 | ----- |  1 | -------- |  ----  |SINGLE|    4    | 1 |           0|
   Picked  : |              882171 ns|              882251 ns|RD-DATA   | F8316EB0 |  1/ 1 | -- | 00000000 |  OKAY  | ---- | ------- | - | ---------- |
             |              882171 ns|              882251 ns|RD-DATA   | F8316EB0 |  1/ 1 | -- | 00000000 |  OKAY  | ---- | ------- | - | ---------- |
