   Trace   : /mnt/ussjf-asic2/workarea1/lkamired/niue1z1_tmp/lkamired/wa_performance/SIM/top/ahbfab_cov.m33i_ram0/uvm_test_top.top_env_i.ahbfab_env_i.mvc_ahb_mon_6_env_i_ahb_beat.log

   Picked  : Instance: uvm_test_top.top_env_i.ahbfab_env_i.mvc_ahb_mon_6_env_i.logger_handle_ahb :: Header
             Instance: uvm_test_top.top_env_i.ahbfab_env_i.mvc_ahb_mon_6_env_i.logger_handle_ahb
   Picked  : AHB Clk Cycle = 40 ns; AHB Clk Frequency = 25.00 MHz; Data bus width = 32 bits
             AHB Clk Cycle = 40 ns; AHB Clk Frequency = 25.00 MHz; Data bus width = 32 bits
   Skipped : ------------------------------------------------------------------------------------------------------------------------------------------
   Skipped : |NONSEQ/SEQ Assert Time |  HREADY Assert Time   |  DIR     |   ADDR   | BEAT  |  L |   DATA   |  RESP  | BURST| BURST   | H |    HSEL    |
   Skipped : |                       |                       |   -      |          |  NUM  |  E |          |        | Type | Size    | P |   (SLAVE   |
   Skipped : |                       |                       | PHASE    |          |       |  N |          |        |      |= 2^HSIZE| R |    INDEX)  |
   Skipped : |                       |                       |          |          |       |    |          |        |      | bytes   | O |            |
   Skipped : |                       |                       |          |          |       |    |          |        |      |         | T |            |
   Skipped : |                       |                       |          |          |       |    |          |        |      |         |   |            |
   Skipped : ------------------------------------------------------------------------------------------------------------------------------------------
   Picked  : |              606261 ns|              606266 ns|RD-NONSEQ | F8315248 | ----- |  1 | -------- |  ----  |SINGLE|    4    | 1 |           0|
             |              606261 ns|              606266 ns|RD-NONSEQ | F8315248 | ----- |  1 | -------- |  ----  |SINGLE|    4    | 1 |           0|
   Picked  : |              606266 ns|              606391 ns|RD-DATA   | F8315248 |  1/ 1 | -- | 0000000A |  OKAY  | ---- | ------- | - | ---------- |
             |              606266 ns|              606391 ns|RD-DATA   | F8315248 |  1/ 1 | -- | 0000000A |  OKAY  | ---- | ------- | - | ---------- |
   Picked  : |              606441 ns|              606446 ns|WR-NONSEQ | F8315248 | ----- |  ? | -------- |  ----  |INCR  |    4    | 1 |           0|
             |              606441 ns|              606446 ns|WR-NONSEQ | F8315248 | ----- |  ? | -------- |  ----  |INCR  |    4    | 1 |           0|
   Picked  : |              606446 ns|              606576 ns|WR-DATA   | F8315248 |  1/ ? | -- | 00000005 |  OKAY  | ---- | ------- | - | ---------- |
             |              606446 ns|              606576 ns|WR-DATA   | F8315248 |  1/ ? | -- | 00000005 |  OKAY  | ---- | ------- | - | ---------- |
   Picked  : |              606611 ns|              606616 ns|RD-NONSEQ | F831524C | ----- |  1 | -------- |  ----  |SINGLE|    4    | 1 |           0|
             |              606611 ns|              606616 ns|RD-NONSEQ | F831524C | ----- |  1 | -------- |  ----  |SINGLE|    4    | 1 |           0|
   Picked  : |              606616 ns|              606731 ns|RD-DATA   | F831524C |  1/ 1 | -- | 0000000F |  OKAY  | ---- | ------- | - | ---------- |
             |              606616 ns|              606731 ns|RD-DATA   | F831524C |  1/ 1 | -- | 0000000F |  OKAY  | ---- | ------- | - | ---------- |
   Picked  : |              606781 ns|              606786 ns|WR-NONSEQ | F831524C | ----- |  ? | -------- |  ----  |INCR  |    4    | 1 |           0|
             |              606781 ns|              606786 ns|WR-NONSEQ | F831524C | ----- |  ? | -------- |  ----  |INCR  |    4    | 1 |           0|
   Picked  : |              606786 ns|              606906 ns|WR-DATA   | F831524C |  1/ ? | -- | 00000005 |  OKAY  | ---- | ------- | - | ---------- |
             |              606786 ns|              606906 ns|WR-DATA   | F831524C |  1/ ? | -- | 00000005 |  OKAY  | ---- | ------- | - | ---------- |
   Picked  : |              606941 ns|              606946 ns|RD-NONSEQ | F8315250 | ----- |  1 | -------- |  ----  |SINGLE|    4    | 1 |           0|
             |              606941 ns|              606946 ns|RD-NONSEQ | F8315250 | ----- |  1 | -------- |  ----  |SINGLE|    4    | 1 |           0|
   Picked  : |              606946 ns|              607071 ns|RD-DATA   | F8315250 |  1/ 1 | -- | 0000000F |  OKAY  | ---- | ------- | - | ---------- |
             |              606946 ns|              607071 ns|RD-DATA   | F8315250 |  1/ 1 | -- | 0000000F |  OKAY  | ---- | ------- | - | ---------- |
   Picked  : |              607116 ns|              607121 ns|WR-NONSEQ | F8315250 | ----- |  ? | -------- |  ----  |INCR  |    4    | 1 |           0|
             |              607116 ns|              607121 ns|WR-NONSEQ | F8315250 | ----- |  ? | -------- |  ----  |INCR  |    4    | 1 |           0|
   Picked  : |              607121 ns|              607236 ns|WR-DATA   | F8315250 |  1/ ? | -- | 00000005 |  OKAY  | ---- | ------- | - | ---------- |
             |              607121 ns|              607236 ns|WR-DATA   | F8315250 |  1/ ? | -- | 00000005 |  OKAY  | ---- | ------- | - | ---------- |
   Picked  : |              607271 ns|              607276 ns|RD-NONSEQ | F8315254 | ----- |  1 | -------- |  ----  |SINGLE|    4    | 1 |           0|
             |              607271 ns|              607276 ns|RD-NONSEQ | F8315254 | ----- |  1 | -------- |  ----  |SINGLE|    4    | 1 |           0|
   Picked  : |              607276 ns|              607401 ns|RD-DATA   | F8315254 |  1/ 1 | -- | 0000000A |  OKAY  | ---- | ------- | - | ---------- |
             |              607276 ns|              607401 ns|RD-DATA   | F8315254 |  1/ 1 | -- | 0000000A |  OKAY  | ---- | ------- | - | ---------- |
   Picked  : |              607446 ns|              607451 ns|WR-NONSEQ | F8315254 | ----- |  ? | -------- |  ----  |INCR  |    4    | 1 |           0|
             |              607446 ns|              607451 ns|WR-NONSEQ | F8315254 | ----- |  ? | -------- |  ----  |INCR  |    4    | 1 |           0|
   Picked  : |              607451 ns|              607566 ns|WR-DATA   | F8315254 |  1/ ? | -- | 00000005 |  OKAY  | ---- | ------- | - | ---------- |
             |              607451 ns|              607566 ns|WR-DATA   | F8315254 |  1/ ? | -- | 00000005 |  OKAY  | ---- | ------- | - | ---------- |
   Picked  : |              607601 ns|              607606 ns|RD-NONSEQ | F8315258 | ----- |  1 | -------- |  ----  |SINGLE|    4    | 1 |           0|
             |              607601 ns|              607606 ns|RD-NONSEQ | F8315258 | ----- |  1 | -------- |  ----  |SINGLE|    4    | 1 |           0|
   Picked  : |              607606 ns|              607741 ns|RD-DATA   | F8315258 |  1/ 1 | -- | 0000000A |  OKAY  | ---- | ------- | - | ---------- |
             |              607606 ns|              607741 ns|RD-DATA   | F8315258 |  1/ 1 | -- | 0000000A |  OKAY  | ---- | ------- | - | ---------- |
   Picked  : |              607781 ns|              607786 ns|WR-NONSEQ | F8315258 | ----- |  ? | -------- |  ----  |INCR  |    4    | 1 |           0|
             |              607781 ns|              607786 ns|WR-NONSEQ | F8315258 | ----- |  ? | -------- |  ----  |INCR  |    4    | 1 |           0|
   Picked  : |              607786 ns|              607906 ns|WR-DATA   | F8315258 |  1/ ? | -- | 00000005 |  OKAY  | ---- | ------- | - | ---------- |
             |              607786 ns|              607906 ns|WR-DATA   | F8315258 |  1/ ? | -- | 00000005 |  OKAY  | ---- | ------- | - | ---------- |
   Picked  : |              607941 ns|              607946 ns|RD-NONSEQ | F831525C | ----- |  1 | -------- |  ----  |SINGLE|    4    | 1 |           0|
             |              607941 ns|              607946 ns|RD-NONSEQ | F831525C | ----- |  1 | -------- |  ----  |SINGLE|    4    | 1 |           0|
   Picked  : |              607946 ns|              608061 ns|RD-DATA   | F831525C |  1/ 1 | -- | 0000000F |  OKAY  | ---- | ------- | - | ---------- |
             |              607946 ns|              608061 ns|RD-DATA   | F831525C |  1/ 1 | -- | 0000000F |  OKAY  | ---- | ------- | - | ---------- |
   Picked  : |              608111 ns|              608116 ns|WR-NONSEQ | F831525C | ----- |  ? | -------- |  ----  |INCR  |    4    | 1 |           0|
             |              608111 ns|              608116 ns|WR-NONSEQ | F831525C | ----- |  ? | -------- |  ----  |INCR  |    4    | 1 |           0|
   Picked  : |              608116 ns|              608236 ns|WR-DATA   | F831525C |  1/ ? | -- | 00000000 |  OKAY  | ---- | ------- | - | ---------- |
             |              608116 ns|              608236 ns|WR-DATA   | F831525C |  1/ ? | -- | 00000000 |  OKAY  | ---- | ------- | - | ---------- |
   Picked  : |              608281 ns|              608286 ns|WR-NONSEQ | F8321190 | ----- |  ? | -------- |  ----  |INCR  |    4    | 1 |           0|
             |              608281 ns|              608286 ns|WR-NONSEQ | F8321190 | ----- |  ? | -------- |  ----  |INCR  |    4    | 1 |           0|
   Picked  : |              608286 ns|              608646 ns|WR-DATA   | F8321190 |  1/ ? | -- | 00000007 |  OKAY  | ---- | ------- | - | ---------- |
             |              608286 ns|              608646 ns|WR-DATA   | F8321190 |  1/ ? | -- | 00000007 |  OKAY  | ---- | ------- | - | ---------- |
   Picked  : |              608681 ns|              608686 ns|RD-NONSEQ | F8321190 | ----- |  1 | -------- |  ----  |SINGLE|    4    | 1 |           0|
             |              608681 ns|              608686 ns|RD-NONSEQ | F8321190 | ----- |  1 | -------- |  ----  |SINGLE|    4    | 1 |           0|
   Picked  : |              608686 ns|              609031 ns|RD-DATA   | F8321190 |  1/ 1 | -- | 00000007 |  OKAY  | ---- | ------- | - | ---------- |
             |              608686 ns|              609031 ns|RD-DATA   | F8321190 |  1/ 1 | -- | 00000007 |  OKAY  | ---- | ------- | - | ---------- |
   Picked  : |              609071 ns|              609076 ns|WR-NONSEQ | F8321194 | ----- |  ? | -------- |  ----  |INCR  |    4    | 1 |           0|
             |              609071 ns|              609076 ns|WR-NONSEQ | F8321194 | ----- |  ? | -------- |  ----  |INCR  |    4    | 1 |           0|
   Picked  : |              609076 ns|              609456 ns|WR-DATA   | F8321194 |  1/ ? | -- | 00000007 |  OKAY  | ---- | ------- | - | ---------- |
             |              609076 ns|              609456 ns|WR-DATA   | F8321194 |  1/ ? | -- | 00000007 |  OKAY  | ---- | ------- | - | ---------- |
   Picked  : |              609491 ns|              609496 ns|RD-NONSEQ | F8321194 | ----- |  1 | -------- |  ----  |SINGLE|    4    | 1 |           0|
             |              609491 ns|              609496 ns|RD-NONSEQ | F8321194 | ----- |  1 | -------- |  ----  |SINGLE|    4    | 1 |           0|
   Picked  : |              609496 ns|              609871 ns|RD-DATA   | F8321194 |  1/ 1 | -- | 00000007 |  OKAY  | ---- | ------- | - | ---------- |
             |              609496 ns|              609871 ns|RD-DATA   | F8321194 |  1/ 1 | -- | 00000007 |  OKAY  | ---- | ------- | - | ---------- |
   Picked  : |              609926 ns|              609931 ns|WR-NONSEQ | F8321198 | ----- |  ? | -------- |  ----  |INCR  |    4    | 1 |           0|
             |              609926 ns|              609931 ns|WR-NONSEQ | F8321198 | ----- |  ? | -------- |  ----  |INCR  |    4    | 1 |           0|
   Picked  : |              609931 ns|              610266 ns|WR-DATA   | F8321198 |  1/ ? | -- | 00000007 |  OKAY  | ---- | ------- | - | ---------- |
             |              609931 ns|              610266 ns|WR-DATA   | F8321198 |  1/ ? | -- | 00000007 |  OKAY  | ---- | ------- | - | ---------- |
   Picked  : |              610301 ns|              610306 ns|RD-NONSEQ | F8321198 | ----- |  1 | -------- |  ----  |SINGLE|    4    | 1 |           0|
             |              610301 ns|              610306 ns|RD-NONSEQ | F8321198 | ----- |  1 | -------- |  ----  |SINGLE|    4    | 1 |           0|
   Picked  : |              610306 ns|              610711 ns|RD-DATA   | F8321198 |  1/ 1 | -- | 00000007 |  OKAY  | ---- | ------- | - | ---------- |
             |              610306 ns|              610711 ns|RD-DATA   | F8321198 |  1/ 1 | -- | 00000007 |  OKAY  | ---- | ------- | - | ---------- |
   Picked  : |              610761 ns|              610766 ns|WR-NONSEQ | F832119C | ----- |  ? | -------- |  ----  |INCR  |    4    | 1 |           0|
             |              610761 ns|              610766 ns|WR-NONSEQ | F832119C | ----- |  ? | -------- |  ----  |INCR  |    4    | 1 |           0|
   Picked  : |              610766 ns|              611196 ns|WR-DATA   | F832119C |  1/ ? | -- | 00000007 |  OKAY  | ---- | ------- | - | ---------- |
             |              610766 ns|              611196 ns|WR-DATA   | F832119C |  1/ ? | -- | 00000007 |  OKAY  | ---- | ------- | - | ---------- |
   Picked  : |              611231 ns|              611236 ns|RD-NONSEQ | F832119C | ----- |  1 | -------- |  ----  |SINGLE|    4    | 1 |           0|
             |              611231 ns|              611236 ns|RD-NONSEQ | F832119C | ----- |  1 | -------- |  ----  |SINGLE|    4    | 1 |           0|
   Picked  : |              611236 ns|              611611 ns|RD-DATA   | F832119C |  1/ 1 | -- | 00000007 |  OKAY  | ---- | ------- | - | ---------- |
             |              611236 ns|              611611 ns|RD-DATA   | F832119C |  1/ 1 | -- | 00000007 |  OKAY  | ---- | ------- | - | ---------- |
   Picked  : |              611651 ns|              611656 ns|WR-NONSEQ | F83211A0 | ----- |  ? | -------- |  ----  |INCR  |    4    | 1 |           0|
             |              611651 ns|              611656 ns|WR-NONSEQ | F83211A0 | ----- |  ? | -------- |  ----  |INCR  |    4    | 1 |           0|
   Picked  : |              611656 ns|              612066 ns|WR-DATA   | F83211A0 |  1/ ? | -- | 00000007 |  OKAY  | ---- | ------- | - | ---------- |
             |              611656 ns|              612066 ns|WR-DATA   | F83211A0 |  1/ ? | -- | 00000007 |  OKAY  | ---- | ------- | - | ---------- |
   Picked  : |              612101 ns|              612106 ns|RD-NONSEQ | F83211A0 | ----- |  1 | -------- |  ----  |SINGLE|    4    | 1 |           0|
             |              612101 ns|              612106 ns|RD-NONSEQ | F83211A0 | ----- |  1 | -------- |  ----  |SINGLE|    4    | 1 |           0|
   Picked  : |              612106 ns|              612511 ns|RD-DATA   | F83211A0 |  1/ 1 | -- | 00000007 |  OKAY  | ---- | ------- | - | ---------- |
             |              612106 ns|              612511 ns|RD-DATA   | F83211A0 |  1/ 1 | -- | 00000007 |  OKAY  | ---- | ------- | - | ---------- |
   Picked  : |              612556 ns|              612561 ns|WR-NONSEQ | F83211A4 | ----- |  ? | -------- |  ----  |INCR  |    4    | 1 |           0|
             |              612556 ns|              612561 ns|WR-NONSEQ | F83211A4 | ----- |  ? | -------- |  ----  |INCR  |    4    | 1 |           0|
   Picked  : |              612561 ns|              612996 ns|WR-DATA   | F83211A4 |  1/ ? | -- | 00000007 |  OKAY  | ---- | ------- | - | ---------- |
             |              612561 ns|              612996 ns|WR-DATA   | F83211A4 |  1/ ? | -- | 00000007 |  OKAY  | ---- | ------- | - | ---------- |
   Picked  : |              613031 ns|              613036 ns|RD-NONSEQ | F83211A4 | ----- |  1 | -------- |  ----  |SINGLE|    4    | 1 |           0|
             |              613031 ns|              613036 ns|RD-NONSEQ | F83211A4 | ----- |  1 | -------- |  ----  |SINGLE|    4    | 1 |           0|
   Picked  : |              613036 ns|              613381 ns|RD-DATA   | F83211A4 |  1/ 1 | -- | 00000007 |  OKAY  | ---- | ------- | - | ---------- |
             |              613036 ns|              613381 ns|RD-DATA   | F83211A4 |  1/ 1 | -- | 00000007 |  OKAY  | ---- | ------- | - | ---------- |
   Picked  : |              613421 ns|              613426 ns|WR-NONSEQ | F83211A8 | ----- |  ? | -------- |  ----  |INCR  |    4    | 1 |           0|
             |              613421 ns|              613426 ns|WR-NONSEQ | F83211A8 | ----- |  ? | -------- |  ----  |INCR  |    4    | 1 |           0|
   Picked  : |              613426 ns|              613806 ns|WR-DATA   | F83211A8 |  1/ ? | -- | 00000007 |  OKAY  | ---- | ------- | - | ---------- |
             |              613426 ns|              613806 ns|WR-DATA   | F83211A8 |  1/ ? | -- | 00000007 |  OKAY  | ---- | ------- | - | ---------- |
   Picked  : |              613841 ns|              613846 ns|RD-NONSEQ | F83211A8 | ----- |  1 | -------- |  ----  |SINGLE|    4    | 1 |           0|
             |              613841 ns|              613846 ns|RD-NONSEQ | F83211A8 | ----- |  1 | -------- |  ----  |SINGLE|    4    | 1 |           0|
   Picked  : |              613846 ns|              614191 ns|RD-DATA   | F83211A8 |  1/ 1 | -- | 00000007 |  OKAY  | ---- | ------- | - | ---------- |
             |              613846 ns|              614191 ns|RD-DATA   | F83211A8 |  1/ 1 | -- | 00000007 |  OKAY  | ---- | ------- | - | ---------- |
   Picked  : |              614231 ns|              614236 ns|WR-NONSEQ | F83211AC | ----- |  ? | -------- |  ----  |INCR  |    4    | 1 |           0|
             |              614231 ns|              614236 ns|WR-NONSEQ | F83211AC | ----- |  ? | -------- |  ----  |INCR  |    4    | 1 |           0|
   Picked  : |              614236 ns|              614646 ns|WR-DATA   | F83211AC |  1/ ? | -- | 00000007 |  OKAY  | ---- | ------- | - | ---------- |
             |              614236 ns|              614646 ns|WR-DATA   | F83211AC |  1/ ? | -- | 00000007 |  OKAY  | ---- | ------- | - | ---------- |
   Picked  : |              614681 ns|              614686 ns|RD-NONSEQ | F83211AC | ----- |  1 | -------- |  ----  |SINGLE|    4    | 1 |           0|
             |              614681 ns|              614686 ns|RD-NONSEQ | F83211AC | ----- |  1 | -------- |  ----  |SINGLE|    4    | 1 |           0|
   Picked  : |              614686 ns|              615061 ns|RD-DATA   | F83211AC |  1/ 1 | -- | 00000007 |  OKAY  | ---- | ------- | - | ---------- |
             |              614686 ns|              615061 ns|RD-DATA   | F83211AC |  1/ 1 | -- | 00000007 |  OKAY  | ---- | ------- | - | ---------- |
   Picked  : |              615111 ns|              615116 ns|WR-NONSEQ | F83211B0 | ----- |  ? | -------- |  ----  |INCR  |    4    | 1 |           0|
             |              615111 ns|              615116 ns|WR-NONSEQ | F83211B0 | ----- |  ? | -------- |  ----  |INCR  |    4    | 1 |           0|
   Picked  : |              615116 ns|              615486 ns|WR-DATA   | F83211B0 |  1/ ? | -- | 00000007 |  OKAY  | ---- | ------- | - | ---------- |
             |              615116 ns|              615486 ns|WR-DATA   | F83211B0 |  1/ ? | -- | 00000007 |  OKAY  | ---- | ------- | - | ---------- |
   Picked  : |              615521 ns|              615526 ns|RD-NONSEQ | F83211B0 | ----- |  1 | -------- |  ----  |SINGLE|    4    | 1 |           0|
             |              615521 ns|              615526 ns|RD-NONSEQ | F83211B0 | ----- |  1 | -------- |  ----  |SINGLE|    4    | 1 |           0|
   Picked  : |              615526 ns|              615871 ns|RD-DATA   | F83211B0 |  1/ 1 | -- | 00000007 |  OKAY  | ---- | ------- | - | ---------- |
             |              615526 ns|              615871 ns|RD-DATA   | F83211B0 |  1/ 1 | -- | 00000007 |  OKAY  | ---- | ------- | - | ---------- |
   Picked  : |              615921 ns|              615926 ns|WR-NONSEQ | F83211B8 | ----- |  ? | -------- |  ----  |INCR  |    4    | 1 |           0|
             |              615921 ns|              615926 ns|WR-NONSEQ | F83211B8 | ----- |  ? | -------- |  ----  |INCR  |    4    | 1 |           0|
   Picked  : |              615926 ns|              616326 ns|WR-DATA   | F83211B8 |  1/ ? | -- | 00000007 |  OKAY  | ---- | ------- | - | ---------- |
             |              615926 ns|              616326 ns|WR-DATA   | F83211B8 |  1/ ? | -- | 00000007 |  OKAY  | ---- | ------- | - | ---------- |
   Picked  : |              616361 ns|              616366 ns|RD-NONSEQ | F83211B8 | ----- |  1 | -------- |  ----  |SINGLE|    4    | 1 |           0|
             |              616361 ns|              616366 ns|RD-NONSEQ | F83211B8 | ----- |  1 | -------- |  ----  |SINGLE|    4    | 1 |           0|
   Picked  : |              616366 ns|              616741 ns|RD-DATA   | F83211B8 |  1/ 1 | -- | 00000007 |  OKAY  | ---- | ------- | - | ---------- |
             |              616366 ns|              616741 ns|RD-DATA   | F83211B8 |  1/ 1 | -- | 00000007 |  OKAY  | ---- | ------- | - | ---------- |
   Picked  : |              619246 ns|              619251 ns|WR-NONSEQ | F8321190 | ----- |  ? | -------- |  ----  |INCR  |    4    | 1 |           0|
             |              619246 ns|              619251 ns|WR-NONSEQ | F8321190 | ----- |  ? | -------- |  ----  |INCR  |    4    | 1 |           0|
   Picked  : |              619251 ns|              619486 ns|WR-DATA   | F8321190 |  1/ ? | -- | 00000001 |  OKAY  | ---- | ------- | - | ---------- |
             |              619251 ns|              619486 ns|WR-DATA   | F8321190 |  1/ ? | -- | 00000001 |  OKAY  | ---- | ------- | - | ---------- |
   Picked  : |              619521 ns|              619526 ns|RD-NONSEQ | F8321190 | ----- |  1 | -------- |  ----  |SINGLE|    4    | 1 |           0|
             |              619521 ns|              619526 ns|RD-NONSEQ | F8321190 | ----- |  1 | -------- |  ----  |SINGLE|    4    | 1 |           0|
   Picked  : |              619526 ns|              619721 ns|RD-DATA   | F8321190 |  1/ 1 | -- | 00000001 |  OKAY  | ---- | ------- | - | ---------- |
             |              619526 ns|              619721 ns|RD-DATA   | F8321190 |  1/ 1 | -- | 00000001 |  OKAY  | ---- | ------- | - | ---------- |
   Picked  : |              619761 ns|              619766 ns|WR-NONSEQ | F8321194 | ----- |  ? | -------- |  ----  |INCR  |    4    | 1 |           0|
             |              619761 ns|              619766 ns|WR-NONSEQ | F8321194 | ----- |  ? | -------- |  ----  |INCR  |    4    | 1 |           0|
   Picked  : |              619766 ns|              620011 ns|WR-DATA   | F8321194 |  1/ ? | -- | 00000001 |  OKAY  | ---- | ------- | - | ---------- |
             |              619766 ns|              620011 ns|WR-DATA   | F8321194 |  1/ ? | -- | 00000001 |  OKAY  | ---- | ------- | - | ---------- |
   Picked  : |              620046 ns|              620051 ns|RD-NONSEQ | F8321194 | ----- |  1 | -------- |  ----  |SINGLE|    4    | 1 |           0|
             |              620046 ns|              620051 ns|RD-NONSEQ | F8321194 | ----- |  1 | -------- |  ----  |SINGLE|    4    | 1 |           0|
   Picked  : |              620051 ns|              620281 ns|RD-DATA   | F8321194 |  1/ 1 | -- | 00000001 |  OKAY  | ---- | ------- | - | ---------- |
             |              620051 ns|              620281 ns|RD-DATA   | F8321194 |  1/ 1 | -- | 00000001 |  OKAY  | ---- | ------- | - | ---------- |
   Picked  : |              620331 ns|              620336 ns|WR-NONSEQ | F8321198 | ----- |  ? | -------- |  ----  |INCR  |    4    | 1 |           0|
             |              620331 ns|              620336 ns|WR-NONSEQ | F8321198 | ----- |  ? | -------- |  ----  |INCR  |    4    | 1 |           0|
   Picked  : |              620336 ns|              620571 ns|WR-DATA   | F8321198 |  1/ ? | -- | 00000001 |  OKAY  | ---- | ------- | - | ---------- |
             |              620336 ns|              620571 ns|WR-DATA   | F8321198 |  1/ ? | -- | 00000001 |  OKAY  | ---- | ------- | - | ---------- |
   Picked  : |              620606 ns|              620611 ns|RD-NONSEQ | F8321198 | ----- |  1 | -------- |  ----  |SINGLE|    4    | 1 |           0|
             |              620606 ns|              620611 ns|RD-NONSEQ | F8321198 | ----- |  1 | -------- |  ----  |SINGLE|    4    | 1 |           0|
   Picked  : |              620611 ns|              620801 ns|RD-DATA   | F8321198 |  1/ 1 | -- | 00000001 |  OKAY  | ---- | ------- | - | ---------- |
             |              620611 ns|              620801 ns|RD-DATA   | F8321198 |  1/ 1 | -- | 00000001 |  OKAY  | ---- | ------- | - | ---------- |
   Picked  : |              620851 ns|              620856 ns|WR-NONSEQ | F832119C | ----- |  ? | -------- |  ----  |INCR  |    4    | 1 |           0|
             |              620851 ns|              620856 ns|WR-NONSEQ | F832119C | ----- |  ? | -------- |  ----  |INCR  |    4    | 1 |           0|
   Picked  : |              620856 ns|              621086 ns|WR-DATA   | F832119C |  1/ ? | -- | 00000001 |  OKAY  | ---- | ------- | - | ---------- |
             |              620856 ns|              621086 ns|WR-DATA   | F832119C |  1/ ? | -- | 00000001 |  OKAY  | ---- | ------- | - | ---------- |
   Picked  : |              621121 ns|              621126 ns|RD-NONSEQ | F832119C | ----- |  1 | -------- |  ----  |SINGLE|    4    | 1 |           0|
             |              621121 ns|              621126 ns|RD-NONSEQ | F832119C | ----- |  1 | -------- |  ----  |SINGLE|    4    | 1 |           0|
   Picked  : |              621126 ns|              621321 ns|RD-DATA   | F832119C |  1/ 1 | -- | 00000001 |  OKAY  | ---- | ------- | - | ---------- |
             |              621126 ns|              621321 ns|RD-DATA   | F832119C |  1/ 1 | -- | 00000001 |  OKAY  | ---- | ------- | - | ---------- |
   Picked  : |              621366 ns|              621371 ns|WR-NONSEQ | F83211A0 | ----- |  ? | -------- |  ----  |INCR  |    4    | 1 |           0|
             |              621366 ns|              621371 ns|WR-NONSEQ | F83211A0 | ----- |  ? | -------- |  ----  |INCR  |    4    | 1 |           0|
   Picked  : |              621371 ns|              621566 ns|WR-DATA   | F83211A0 |  1/ ? | -- | 00000001 |  OKAY  | ---- | ------- | - | ---------- |
             |              621371 ns|              621566 ns|WR-DATA   | F83211A0 |  1/ ? | -- | 00000001 |  OKAY  | ---- | ------- | - | ---------- |
   Picked  : |              621601 ns|              621606 ns|RD-NONSEQ | F83211A0 | ----- |  1 | -------- |  ----  |SINGLE|    4    | 1 |           0|
             |              621601 ns|              621606 ns|RD-NONSEQ | F83211A0 | ----- |  1 | -------- |  ----  |SINGLE|    4    | 1 |           0|
   Picked  : |              621606 ns|              621806 ns|RD-DATA   | F83211A0 |  1/ 1 | -- | 00000001 |  OKAY  | ---- | ------- | - | ---------- |
             |              621606 ns|              621806 ns|RD-DATA   | F83211A0 |  1/ 1 | -- | 00000001 |  OKAY  | ---- | ------- | - | ---------- |
   Picked  : |              621861 ns|              621866 ns|WR-NONSEQ | F83211A4 | ----- |  ? | -------- |  ----  |INCR  |    4    | 1 |           0|
             |              621861 ns|              621866 ns|WR-NONSEQ | F83211A4 | ----- |  ? | -------- |  ----  |INCR  |    4    | 1 |           0|
   Picked  : |              621866 ns|              622091 ns|WR-DATA   | F83211A4 |  1/ ? | -- | 00000001 |  OKAY  | ---- | ------- | - | ---------- |
             |              621866 ns|              622091 ns|WR-DATA   | F83211A4 |  1/ ? | -- | 00000001 |  OKAY  | ---- | ------- | - | ---------- |
   Picked  : |              622126 ns|              622131 ns|RD-NONSEQ | F83211A4 | ----- |  1 | -------- |  ----  |SINGLE|    4    | 1 |           0|
             |              622126 ns|              622131 ns|RD-NONSEQ | F83211A4 | ----- |  1 | -------- |  ----  |SINGLE|    4    | 1 |           0|
   Picked  : |              622131 ns|              622361 ns|RD-DATA   | F83211A4 |  1/ 1 | -- | 00000001 |  OKAY  | ---- | ------- | - | ---------- |
             |              622131 ns|              622361 ns|RD-DATA   | F83211A4 |  1/ 1 | -- | 00000001 |  OKAY  | ---- | ------- | - | ---------- |
   Picked  : |              622401 ns|              622406 ns|WR-NONSEQ | F83211A8 | ----- |  ? | -------- |  ----  |INCR  |    4    | 1 |           0|
             |              622401 ns|              622406 ns|WR-NONSEQ | F83211A8 | ----- |  ? | -------- |  ----  |INCR  |    4    | 1 |           0|
   Picked  : |              622406 ns|              622606 ns|WR-DATA   | F83211A8 |  1/ ? | -- | 00000001 |  OKAY  | ---- | ------- | - | ---------- |
             |              622406 ns|              622606 ns|WR-DATA   | F83211A8 |  1/ ? | -- | 00000001 |  OKAY  | ---- | ------- | - | ---------- |
   Picked  : |              622641 ns|              622646 ns|RD-NONSEQ | F83211A8 | ----- |  1 | -------- |  ----  |SINGLE|    4    | 1 |           0|
             |              622641 ns|              622646 ns|RD-NONSEQ | F83211A8 | ----- |  1 | -------- |  ----  |SINGLE|    4    | 1 |           0|
   Picked  : |              622646 ns|              622881 ns|RD-DATA   | F83211A8 |  1/ 1 | -- | 00000001 |  OKAY  | ---- | ------- | - | ---------- |
             |              622646 ns|              622881 ns|RD-DATA   | F83211A8 |  1/ 1 | -- | 00000001 |  OKAY  | ---- | ------- | - | ---------- |
   Picked  : |              622921 ns|              622926 ns|WR-NONSEQ | F83211AC | ----- |  ? | -------- |  ----  |INCR  |    4    | 1 |           0|
             |              622921 ns|              622926 ns|WR-NONSEQ | F83211AC | ----- |  ? | -------- |  ----  |INCR  |    4    | 1 |           0|
   Picked  : |              622926 ns|              623126 ns|WR-DATA   | F83211AC |  1/ ? | -- | 00000001 |  OKAY  | ---- | ------- | - | ---------- |
             |              622926 ns|              623126 ns|WR-DATA   | F83211AC |  1/ ? | -- | 00000001 |  OKAY  | ---- | ------- | - | ---------- |
   Picked  : |              623161 ns|              623166 ns|RD-NONSEQ | F83211AC | ----- |  1 | -------- |  ----  |SINGLE|    4    | 1 |           0|
             |              623161 ns|              623166 ns|RD-NONSEQ | F83211AC | ----- |  1 | -------- |  ----  |SINGLE|    4    | 1 |           0|
   Picked  : |              623166 ns|              623401 ns|RD-DATA   | F83211AC |  1/ 1 | -- | 00000001 |  OKAY  | ---- | ------- | - | ---------- |
             |              623166 ns|              623401 ns|RD-DATA   | F83211AC |  1/ 1 | -- | 00000001 |  OKAY  | ---- | ------- | - | ---------- |
   Picked  : |              623441 ns|              623446 ns|WR-NONSEQ | F83211B0 | ----- |  ? | -------- |  ----  |INCR  |    4    | 1 |           0|
             |              623441 ns|              623446 ns|WR-NONSEQ | F83211B0 | ----- |  ? | -------- |  ----  |INCR  |    4    | 1 |           0|
   Picked  : |              623446 ns|              623646 ns|WR-DATA   | F83211B0 |  1/ ? | -- | 00000001 |  OKAY  | ---- | ------- | - | ---------- |
             |              623446 ns|              623646 ns|WR-DATA   | F83211B0 |  1/ ? | -- | 00000001 |  OKAY  | ---- | ------- | - | ---------- |
   Picked  : |              623681 ns|              623686 ns|RD-NONSEQ | F83211B0 | ----- |  1 | -------- |  ----  |SINGLE|    4    | 1 |           0|
             |              623681 ns|              623686 ns|RD-NONSEQ | F83211B0 | ----- |  1 | -------- |  ----  |SINGLE|    4    | 1 |           0|
   Picked  : |              623686 ns|              623886 ns|RD-DATA   | F83211B0 |  1/ 1 | -- | 00000001 |  OKAY  | ---- | ------- | - | ---------- |
             |              623686 ns|              623886 ns|RD-DATA   | F83211B0 |  1/ 1 | -- | 00000001 |  OKAY  | ---- | ------- | - | ---------- |
   Picked  : |              623936 ns|              623941 ns|WR-NONSEQ | F83211B8 | ----- |  ? | -------- |  ----  |INCR  |    4    | 1 |           0|
             |              623936 ns|              623941 ns|WR-NONSEQ | F83211B8 | ----- |  ? | -------- |  ----  |INCR  |    4    | 1 |           0|
   Picked  : |              623941 ns|              624166 ns|WR-DATA   | F83211B8 |  1/ ? | -- | 00000001 |  OKAY  | ---- | ------- | - | ---------- |
             |              623941 ns|              624166 ns|WR-DATA   | F83211B8 |  1/ ? | -- | 00000001 |  OKAY  | ---- | ------- | - | ---------- |
   Picked  : |              624201 ns|              624206 ns|RD-NONSEQ | F83211B8 | ----- |  1 | -------- |  ----  |SINGLE|    4    | 1 |           0|
             |              624201 ns|              624206 ns|RD-NONSEQ | F83211B8 | ----- |  1 | -------- |  ----  |SINGLE|    4    | 1 |           0|
   Picked  : |              624206 ns|              624441 ns|RD-DATA   | F83211B8 |  1/ 1 | -- | 00000001 |  OKAY  | ---- | ------- | - | ---------- |
             |              624206 ns|              624441 ns|RD-DATA   | F83211B8 |  1/ 1 | -- | 00000001 |  OKAY  | ---- | ------- | - | ---------- |
   Picked  : |              626741 ns|              626746 ns|WR-NONSEQ | F8321190 | ----- |  ? | -------- |  ----  |INCR  |    4    | 1 |           0|
             |              626741 ns|              626746 ns|WR-NONSEQ | F8321190 | ----- |  ? | -------- |  ----  |INCR  |    4    | 1 |           0|
   Picked  : |              626746 ns|              627066 ns|WR-DATA   | F8321190 |  1/ ? | -- | 00000007 |  OKAY  | ---- | ------- | - | ---------- |
             |              626746 ns|              627066 ns|WR-DATA   | F8321190 |  1/ ? | -- | 00000007 |  OKAY  | ---- | ------- | - | ---------- |
   Picked  : |              627101 ns|              627106 ns|RD-NONSEQ | F8321190 | ----- |  1 | -------- |  ----  |SINGLE|    4    | 1 |           0|
             |              627101 ns|              627106 ns|RD-NONSEQ | F8321190 | ----- |  1 | -------- |  ----  |SINGLE|    4    | 1 |           0|
   Picked  : |              627106 ns|              627481 ns|RD-DATA   | F8321190 |  1/ 1 | -- | 00000007 |  OKAY  | ---- | ------- | - | ---------- |
             |              627106 ns|              627481 ns|RD-DATA   | F8321190 |  1/ 1 | -- | 00000007 |  OKAY  | ---- | ------- | - | ---------- |
   Picked  : |              627536 ns|              627541 ns|WR-NONSEQ | F8321194 | ----- |  ? | -------- |  ----  |INCR  |    4    | 1 |           0|
             |              627536 ns|              627541 ns|WR-NONSEQ | F8321194 | ----- |  ? | -------- |  ----  |INCR  |    4    | 1 |           0|
   Picked  : |              627541 ns|              627936 ns|WR-DATA   | F8321194 |  1/ ? | -- | 00000007 |  OKAY  | ---- | ------- | - | ---------- |
             |              627541 ns|              627936 ns|WR-DATA   | F8321194 |  1/ ? | -- | 00000007 |  OKAY  | ---- | ------- | - | ---------- |
   Picked  : |              627971 ns|              627976 ns|RD-NONSEQ | F8321194 | ----- |  1 | -------- |  ----  |SINGLE|    4    | 1 |           0|
             |              627971 ns|              627976 ns|RD-NONSEQ | F8321194 | ----- |  1 | -------- |  ----  |SINGLE|    4    | 1 |           0|
   Picked  : |              627976 ns|              628351 ns|RD-DATA   | F8321194 |  1/ 1 | -- | 00000007 |  OKAY  | ---- | ------- | - | ---------- |
             |              627976 ns|              628351 ns|RD-DATA   | F8321194 |  1/ 1 | -- | 00000007 |  OKAY  | ---- | ------- | - | ---------- |
   Picked  : |              628401 ns|              628406 ns|WR-NONSEQ | F8321198 | ----- |  ? | -------- |  ----  |INCR  |    4    | 1 |           0|
             |              628401 ns|              628406 ns|WR-NONSEQ | F8321198 | ----- |  ? | -------- |  ----  |INCR  |    4    | 1 |           0|
   Picked  : |              628406 ns|              628806 ns|WR-DATA   | F8321198 |  1/ ? | -- | 00000007 |  OKAY  | ---- | ------- | - | ---------- |
             |              628406 ns|              628806 ns|WR-DATA   | F8321198 |  1/ ? | -- | 00000007 |  OKAY  | ---- | ------- | - | ---------- |
   Picked  : |              628841 ns|              628846 ns|RD-NONSEQ | F8321198 | ----- |  1 | -------- |  ----  |SINGLE|    4    | 1 |           0|
             |              628841 ns|              628846 ns|RD-NONSEQ | F8321198 | ----- |  1 | -------- |  ----  |SINGLE|    4    | 1 |           0|
   Picked  : |              628846 ns|              629221 ns|RD-DATA   | F8321198 |  1/ 1 | -- | 00000007 |  OKAY  | ---- | ------- | - | ---------- |
             |              628846 ns|              629221 ns|RD-DATA   | F8321198 |  1/ 1 | -- | 00000007 |  OKAY  | ---- | ------- | - | ---------- |
   Picked  : |              629266 ns|              629271 ns|WR-NONSEQ | F832119C | ----- |  ? | -------- |  ----  |INCR  |    4    | 1 |           0|
             |              629266 ns|              629271 ns|WR-NONSEQ | F832119C | ----- |  ? | -------- |  ----  |INCR  |    4    | 1 |           0|
   Picked  : |              629271 ns|              629646 ns|WR-DATA   | F832119C |  1/ ? | -- | 00000007 |  OKAY  | ---- | ------- | - | ---------- |
             |              629271 ns|              629646 ns|WR-DATA   | F832119C |  1/ ? | -- | 00000007 |  OKAY  | ---- | ------- | - | ---------- |
   Picked  : |              629681 ns|              629686 ns|RD-NONSEQ | F832119C | ----- |  1 | -------- |  ----  |SINGLE|    4    | 1 |           0|
             |              629681 ns|              629686 ns|RD-NONSEQ | F832119C | ----- |  1 | -------- |  ----  |SINGLE|    4    | 1 |           0|
   Picked  : |              629686 ns|              630031 ns|RD-DATA   | F832119C |  1/ 1 | -- | 00000007 |  OKAY  | ---- | ------- | - | ---------- |
             |              629686 ns|              630031 ns|RD-DATA   | F832119C |  1/ 1 | -- | 00000007 |  OKAY  | ---- | ------- | - | ---------- |
   Picked  : |              630081 ns|              630086 ns|WR-NONSEQ | F83211A0 | ----- |  ? | -------- |  ----  |INCR  |    4    | 1 |           0|
             |              630081 ns|              630086 ns|WR-NONSEQ | F83211A0 | ----- |  ? | -------- |  ----  |INCR  |    4    | 1 |           0|
   Picked  : |              630086 ns|              630426 ns|WR-DATA   | F83211A0 |  1/ ? | -- | 00000007 |  OKAY  | ---- | ------- | - | ---------- |
             |              630086 ns|              630426 ns|WR-DATA   | F83211A0 |  1/ ? | -- | 00000007 |  OKAY  | ---- | ------- | - | ---------- |
   Picked  : |              630461 ns|              630466 ns|RD-NONSEQ | F83211A0 | ----- |  1 | -------- |  ----  |SINGLE|    4    | 1 |           0|
             |              630461 ns|              630466 ns|RD-NONSEQ | F83211A0 | ----- |  1 | -------- |  ----  |SINGLE|    4    | 1 |           0|
   Picked  : |              630466 ns|              630841 ns|RD-DATA   | F83211A0 |  1/ 1 | -- | 00000007 |  OKAY  | ---- | ------- | - | ---------- |
             |              630466 ns|              630841 ns|RD-DATA   | F83211A0 |  1/ 1 | -- | 00000007 |  OKAY  | ---- | ------- | - | ---------- |
   Picked  : |              630886 ns|              630891 ns|WR-NONSEQ | F83211A4 | ----- |  ? | -------- |  ----  |INCR  |    4    | 1 |           0|
             |              630886 ns|              630891 ns|WR-NONSEQ | F83211A4 | ----- |  ? | -------- |  ----  |INCR  |    4    | 1 |           0|
   Picked  : |              630891 ns|              631266 ns|WR-DATA   | F83211A4 |  1/ ? | -- | 00000007 |  OKAY  | ---- | ------- | - | ---------- |
             |              630891 ns|              631266 ns|WR-DATA   | F83211A4 |  1/ ? | -- | 00000007 |  OKAY  | ---- | ------- | - | ---------- |
   Picked  : |              631301 ns|              631306 ns|RD-NONSEQ | F83211A4 | ----- |  1 | -------- |  ----  |SINGLE|    4    | 1 |           0|
             |              631301 ns|              631306 ns|RD-NONSEQ | F83211A4 | ----- |  1 | -------- |  ----  |SINGLE|    4    | 1 |           0|
   Picked  : |              631306 ns|              631711 ns|RD-DATA   | F83211A4 |  1/ 1 | -- | 00000007 |  OKAY  | ---- | ------- | - | ---------- |
             |              631306 ns|              631711 ns|RD-DATA   | F83211A4 |  1/ 1 | -- | 00000007 |  OKAY  | ---- | ------- | - | ---------- |
   Picked  : |              631761 ns|              631766 ns|WR-NONSEQ | F83211A8 | ----- |  ? | -------- |  ----  |INCR  |    4    | 1 |           0|
             |              631761 ns|              631766 ns|WR-NONSEQ | F83211A8 | ----- |  ? | -------- |  ----  |INCR  |    4    | 1 |           0|
   Picked  : |              631766 ns|              632106 ns|WR-DATA   | F83211A8 |  1/ ? | -- | 00000007 |  OKAY  | ---- | ------- | - | ---------- |
             |              631766 ns|              632106 ns|WR-DATA   | F83211A8 |  1/ ? | -- | 00000007 |  OKAY  | ---- | ------- | - | ---------- |
   Picked  : |              632141 ns|              632146 ns|RD-NONSEQ | F83211A8 | ----- |  1 | -------- |  ----  |SINGLE|    4    | 1 |           0|
             |              632141 ns|              632146 ns|RD-NONSEQ | F83211A8 | ----- |  1 | -------- |  ----  |SINGLE|    4    | 1 |           0|
   Picked  : |              632146 ns|              632551 ns|RD-DATA   | F83211A8 |  1/ 1 | -- | 00000007 |  OKAY  | ---- | ------- | - | ---------- |
             |              632146 ns|              632551 ns|RD-DATA   | F83211A8 |  1/ 1 | -- | 00000007 |  OKAY  | ---- | ------- | - | ---------- |
   Picked  : |              632606 ns|              632611 ns|WR-NONSEQ | F83211AC | ----- |  ? | -------- |  ----  |INCR  |    4    | 1 |           0|
             |              632606 ns|              632611 ns|WR-NONSEQ | F83211AC | ----- |  ? | -------- |  ----  |INCR  |    4    | 1 |           0|
   Picked  : |              632611 ns|              632946 ns|WR-DATA   | F83211AC |  1/ ? | -- | 00000007 |  OKAY  | ---- | ------- | - | ---------- |
             |              632611 ns|              632946 ns|WR-DATA   | F83211AC |  1/ ? | -- | 00000007 |  OKAY  | ---- | ------- | - | ---------- |
   Picked  : |              632981 ns|              632986 ns|RD-NONSEQ | F83211AC | ----- |  1 | -------- |  ----  |SINGLE|    4    | 1 |           0|
             |              632981 ns|              632986 ns|RD-NONSEQ | F83211AC | ----- |  1 | -------- |  ----  |SINGLE|    4    | 1 |           0|
   Picked  : |              632986 ns|              633391 ns|RD-DATA   | F83211AC |  1/ 1 | -- | 00000007 |  OKAY  | ---- | ------- | - | ---------- |
             |              632986 ns|              633391 ns|RD-DATA   | F83211AC |  1/ 1 | -- | 00000007 |  OKAY  | ---- | ------- | - | ---------- |
   Picked  : |              633436 ns|              633441 ns|WR-NONSEQ | F83211B0 | ----- |  ? | -------- |  ----  |INCR  |    4    | 1 |           0|
             |              633436 ns|              633441 ns|WR-NONSEQ | F83211B0 | ----- |  ? | -------- |  ----  |INCR  |    4    | 1 |           0|
   Picked  : |              633441 ns|              633816 ns|WR-DATA   | F83211B0 |  1/ ? | -- | 00000007 |  OKAY  | ---- | ------- | - | ---------- |
             |              633441 ns|              633816 ns|WR-DATA   | F83211B0 |  1/ ? | -- | 00000007 |  OKAY  | ---- | ------- | - | ---------- |
   Picked  : |              633851 ns|              633856 ns|RD-NONSEQ | F83211B0 | ----- |  1 | -------- |  ----  |SINGLE|    4    | 1 |           0|
             |              633851 ns|              633856 ns|RD-NONSEQ | F83211B0 | ----- |  1 | -------- |  ----  |SINGLE|    4    | 1 |           0|
   Picked  : |              633856 ns|              634261 ns|RD-DATA   | F83211B0 |  1/ 1 | -- | 00000007 |  OKAY  | ---- | ------- | - | ---------- |
             |              633856 ns|              634261 ns|RD-DATA   | F83211B0 |  1/ 1 | -- | 00000007 |  OKAY  | ---- | ------- | - | ---------- |
   Picked  : |              634311 ns|              634316 ns|WR-NONSEQ | F83211B8 | ----- |  ? | -------- |  ----  |INCR  |    4    | 1 |           0|
             |              634311 ns|              634316 ns|WR-NONSEQ | F83211B8 | ----- |  ? | -------- |  ----  |INCR  |    4    | 1 |           0|
   Picked  : |              634316 ns|              634716 ns|WR-DATA   | F83211B8 |  1/ ? | -- | 00000007 |  OKAY  | ---- | ------- | - | ---------- |
             |              634316 ns|              634716 ns|WR-DATA   | F83211B8 |  1/ ? | -- | 00000007 |  OKAY  | ---- | ------- | - | ---------- |
   Picked  : |              634751 ns|              634756 ns|RD-NONSEQ | F83211B8 | ----- |  1 | -------- |  ----  |SINGLE|    4    | 1 |           0|
             |              634751 ns|              634756 ns|RD-NONSEQ | F83211B8 | ----- |  1 | -------- |  ----  |SINGLE|    4    | 1 |           0|
   Picked  : |              634756 ns|              635161 ns|RD-DATA   | F83211B8 |  1/ 1 | -- | 00000007 |  OKAY  | ---- | ------- | - | ---------- |
             |              634756 ns|              635161 ns|RD-DATA   | F83211B8 |  1/ 1 | -- | 00000007 |  OKAY  | ---- | ------- | - | ---------- |
   Picked  : |             1324641 ns|             1324646 ns|RD-NONSEQ | F8316CB8 | ----- |  1 | -------- |  ----  |SINGLE|    4    | 1 |           0|
             |             1324641 ns|             1324646 ns|RD-NONSEQ | F8316CB8 | ----- |  1 | -------- |  ----  |SINGLE|    4    | 1 |           0|
   Picked  : |             1324646 ns|             1324831 ns|RD-DATA   | F8316CB8 |  1/ 1 | -- | 00000000 |  OKAY  | ---- | ------- | - | ---------- |
             |             1324646 ns|             1324831 ns|RD-DATA   | F8316CB8 |  1/ 1 | -- | 00000000 |  OKAY  | ---- | ------- | - | ---------- |
   Picked  : |             1324866 ns|             1324871 ns|RD-NONSEQ | F8316CBC | ----- |  1 | -------- |  ----  |SINGLE|    4    | 1 |           0|
             |             1324866 ns|             1324871 ns|RD-NONSEQ | F8316CBC | ----- |  1 | -------- |  ----  |SINGLE|    4    | 1 |           0|
   Picked  : |             1324871 ns|             1325071 ns|RD-DATA   | F8316CBC |  1/ 1 | -- | 00000000 |  OKAY  | ---- | ------- | - | ---------- |
             |             1324871 ns|             1325071 ns|RD-DATA   | F8316CBC |  1/ 1 | -- | 00000000 |  OKAY  | ---- | ------- | - | ---------- |
   Picked  : |             1325106 ns|             1325111 ns|RD-NONSEQ | F8316CCC | ----- |  1 | -------- |  ----  |SINGLE|    4    | 1 |           0|
             |             1325106 ns|             1325111 ns|RD-NONSEQ | F8316CCC | ----- |  1 | -------- |  ----  |SINGLE|    4    | 1 |           0|
   Picked  : |             1325111 ns|             1325311 ns|RD-DATA   | F8316CCC |  1/ 1 | -- | 00000000 |  OKAY  | ---- | ------- | - | ---------- |
             |             1325111 ns|             1325311 ns|RD-DATA   | F8316CCC |  1/ 1 | -- | 00000000 |  OKAY  | ---- | ------- | - | ---------- |
   Picked  : |             1325346 ns|             1325351 ns|RD-NONSEQ | F8316CD0 | ----- |  1 | -------- |  ----  |SINGLE|    4    | 1 |           0|
             |             1325346 ns|             1325351 ns|RD-NONSEQ | F8316CD0 | ----- |  1 | -------- |  ----  |SINGLE|    4    | 1 |           0|
   Picked  : |             1325351 ns|             1325581 ns|RD-DATA   | F8316CD0 |  1/ 1 | -- | 00000000 |  OKAY  | ---- | ------- | - | ---------- |
             |             1325351 ns|             1325581 ns|RD-DATA   | F8316CD0 |  1/ 1 | -- | 00000000 |  OKAY  | ---- | ------- | - | ---------- |
   Picked  : |             1325616 ns|             1325621 ns|RD-NONSEQ | F8316CE0 | ----- |  1 | -------- |  ----  |SINGLE|    4    | 1 |           0|
             |             1325616 ns|             1325621 ns|RD-NONSEQ | F8316CE0 | ----- |  1 | -------- |  ----  |SINGLE|    4    | 1 |           0|
   Picked  : |             1325621 ns|             1325821 ns|RD-DATA   | F8316CE0 |  1/ 1 | -- | 00000000 |  OKAY  | ---- | ------- | - | ---------- |
             |             1325621 ns|             1325821 ns|RD-DATA   | F8316CE0 |  1/ 1 | -- | 00000000 |  OKAY  | ---- | ------- | - | ---------- |
   Picked  : |             1325856 ns|             1325861 ns|RD-NONSEQ | F8316CE4 | ----- |  1 | -------- |  ----  |SINGLE|    4    | 1 |           0|
             |             1325856 ns|             1325861 ns|RD-NONSEQ | F8316CE4 | ----- |  1 | -------- |  ----  |SINGLE|    4    | 1 |           0|
   Picked  : |             1325861 ns|             1326061 ns|RD-DATA   | F8316CE4 |  1/ 1 | -- | 00000000 |  OKAY  | ---- | ------- | - | ---------- |
             |             1325861 ns|             1326061 ns|RD-DATA   | F8316CE4 |  1/ 1 | -- | 00000000 |  OKAY  | ---- | ------- | - | ---------- |
   Picked  : |             1326096 ns|             1326101 ns|RD-NONSEQ | F8316CF4 | ----- |  1 | -------- |  ----  |SINGLE|    4    | 1 |           0|
             |             1326096 ns|             1326101 ns|RD-NONSEQ | F8316CF4 | ----- |  1 | -------- |  ----  |SINGLE|    4    | 1 |           0|
   Picked  : |             1326101 ns|             1326331 ns|RD-DATA   | F8316CF4 |  1/ 1 | -- | 00000000 |  OKAY  | ---- | ------- | - | ---------- |
             |             1326101 ns|             1326331 ns|RD-DATA   | F8316CF4 |  1/ 1 | -- | 00000000 |  OKAY  | ---- | ------- | - | ---------- |
   Picked  : |             1326366 ns|             1326371 ns|RD-NONSEQ | F8316CF8 | ----- |  1 | -------- |  ----  |SINGLE|    4    | 1 |           0|
             |             1326366 ns|             1326371 ns|RD-NONSEQ | F8316CF8 | ----- |  1 | -------- |  ----  |SINGLE|    4    | 1 |           0|
   Picked  : |             1326371 ns|             1326601 ns|RD-DATA   | F8316CF8 |  1/ 1 | -- | 00000000 |  OKAY  | ---- | ------- | - | ---------- |
             |             1326371 ns|             1326601 ns|RD-DATA   | F8316CF8 |  1/ 1 | -- | 00000000 |  OKAY  | ---- | ------- | - | ---------- |
   Picked  : |             1326636 ns|             1326641 ns|RD-NONSEQ | F8316D08 | ----- |  1 | -------- |  ----  |SINGLE|    4    | 1 |           0|
             |             1326636 ns|             1326641 ns|RD-NONSEQ | F8316D08 | ----- |  1 | -------- |  ----  |SINGLE|    4    | 1 |           0|
   Picked  : |             1326641 ns|             1326841 ns|RD-DATA   | F8316D08 |  1/ 1 | -- | 00000000 |  OKAY  | ---- | ------- | - | ---------- |
             |             1326641 ns|             1326841 ns|RD-DATA   | F8316D08 |  1/ 1 | -- | 00000000 |  OKAY  | ---- | ------- | - | ---------- |
   Picked  : |             1326876 ns|             1326881 ns|RD-NONSEQ | F8316D0C | ----- |  1 | -------- |  ----  |SINGLE|    4    | 1 |           0|
             |             1326876 ns|             1326881 ns|RD-NONSEQ | F8316D0C | ----- |  1 | -------- |  ----  |SINGLE|    4    | 1 |           0|
   Picked  : |             1326881 ns|             1327081 ns|RD-DATA   | F8316D0C |  1/ 1 | -- | 00000000 |  OKAY  | ---- | ------- | - | ---------- |
             |             1326881 ns|             1327081 ns|RD-DATA   | F8316D0C |  1/ 1 | -- | 00000000 |  OKAY  | ---- | ------- | - | ---------- |
   Picked  : |             1327116 ns|             1327121 ns|RD-NONSEQ | F8316D1C | ----- |  1 | -------- |  ----  |SINGLE|    4    | 1 |           0|
             |             1327116 ns|             1327121 ns|RD-NONSEQ | F8316D1C | ----- |  1 | -------- |  ----  |SINGLE|    4    | 1 |           0|
   Picked  : |             1327121 ns|             1327351 ns|RD-DATA   | F8316D1C |  1/ 1 | -- | 00000000 |  OKAY  | ---- | ------- | - | ---------- |
             |             1327121 ns|             1327351 ns|RD-DATA   | F8316D1C |  1/ 1 | -- | 00000000 |  OKAY  | ---- | ------- | - | ---------- |
   Picked  : |             1327386 ns|             1327391 ns|RD-NONSEQ | F8316D20 | ----- |  1 | -------- |  ----  |SINGLE|    4    | 1 |           0|
             |             1327386 ns|             1327391 ns|RD-NONSEQ | F8316D20 | ----- |  1 | -------- |  ----  |SINGLE|    4    | 1 |           0|
   Picked  : |             1327391 ns|             1327621 ns|RD-DATA   | F8316D20 |  1/ 1 | -- | 00000000 |  OKAY  | ---- | ------- | - | ---------- |
             |             1327391 ns|             1327621 ns|RD-DATA   | F8316D20 |  1/ 1 | -- | 00000000 |  OKAY  | ---- | ------- | - | ---------- |
   Picked  : |             1327656 ns|             1327661 ns|RD-NONSEQ | F8316D30 | ----- |  1 | -------- |  ----  |SINGLE|    4    | 1 |           0|
             |             1327656 ns|             1327661 ns|RD-NONSEQ | F8316D30 | ----- |  1 | -------- |  ----  |SINGLE|    4    | 1 |           0|
   Picked  : |             1327661 ns|             1327891 ns|RD-DATA   | F8316D30 |  1/ 1 | -- | 00000000 |  OKAY  | ---- | ------- | - | ---------- |
             |             1327661 ns|             1327891 ns|RD-DATA   | F8316D30 |  1/ 1 | -- | 00000000 |  OKAY  | ---- | ------- | - | ---------- |
   Picked  : |             1327926 ns|             1327931 ns|RD-NONSEQ | F8316D34 | ----- |  1 | -------- |  ----  |SINGLE|    4    | 1 |           0|
             |             1327926 ns|             1327931 ns|RD-NONSEQ | F8316D34 | ----- |  1 | -------- |  ----  |SINGLE|    4    | 1 |           0|
   Picked  : |             1327931 ns|             1328131 ns|RD-DATA   | F8316D34 |  1/ 1 | -- | 00000000 |  OKAY  | ---- | ------- | - | ---------- |
             |             1327931 ns|             1328131 ns|RD-DATA   | F8316D34 |  1/ 1 | -- | 00000000 |  OKAY  | ---- | ------- | - | ---------- |
   Picked  : |             1328166 ns|             1328171 ns|RD-NONSEQ | F8316D44 | ----- |  1 | -------- |  ----  |SINGLE|    4    | 1 |           0|
             |             1328166 ns|             1328171 ns|RD-NONSEQ | F8316D44 | ----- |  1 | -------- |  ----  |SINGLE|    4    | 1 |           0|
   Picked  : |             1328171 ns|             1328431 ns|RD-DATA   | F8316D44 |  1/ 1 | -- | 48250018 |  OKAY  | ---- | ------- | - | ---------- |
             |             1328171 ns|             1328431 ns|RD-DATA   | F8316D44 |  1/ 1 | -- | 48250018 |  OKAY  | ---- | ------- | - | ---------- |
   Picked  : |             1328466 ns|             1328471 ns|RD-NONSEQ | F8316D48 | ----- |  1 | -------- |  ----  |SINGLE|    4    | 1 |           0|
             |             1328466 ns|             1328471 ns|RD-NONSEQ | F8316D48 | ----- |  1 | -------- |  ----  |SINGLE|    4    | 1 |           0|
   Picked  : |             1328471 ns|             1328671 ns|RD-DATA   | F8316D48 |  1/ 1 | -- | 00000000 |  OKAY  | ---- | ------- | - | ---------- |
             |             1328471 ns|             1328671 ns|RD-DATA   | F8316D48 |  1/ 1 | -- | 00000000 |  OKAY  | ---- | ------- | - | ---------- |
   Picked  : |             1328706 ns|             1328711 ns|RD-NONSEQ | F8316D58 | ----- |  1 | -------- |  ----  |SINGLE|    4    | 1 |           0|
             |             1328706 ns|             1328711 ns|RD-NONSEQ | F8316D58 | ----- |  1 | -------- |  ----  |SINGLE|    4    | 1 |           0|
   Picked  : |             1328711 ns|             1328941 ns|RD-DATA   | F8316D58 |  1/ 1 | -- | 00000000 |  OKAY  | ---- | ------- | - | ---------- |
             |             1328711 ns|             1328941 ns|RD-DATA   | F8316D58 |  1/ 1 | -- | 00000000 |  OKAY  | ---- | ------- | - | ---------- |
   Picked  : |             1328976 ns|             1328981 ns|RD-NONSEQ | F8316D5C | ----- |  1 | -------- |  ----  |SINGLE|    4    | 1 |           0|
             |             1328976 ns|             1328981 ns|RD-NONSEQ | F8316D5C | ----- |  1 | -------- |  ----  |SINGLE|    4    | 1 |           0|
   Picked  : |             1328981 ns|             1329181 ns|RD-DATA   | F8316D5C |  1/ 1 | -- | 00000000 |  OKAY  | ---- | ------- | - | ---------- |
             |             1328981 ns|             1329181 ns|RD-DATA   | F8316D5C |  1/ 1 | -- | 00000000 |  OKAY  | ---- | ------- | - | ---------- |
   Picked  : |             1329216 ns|             1329221 ns|RD-NONSEQ | F8316D6C | ----- |  1 | -------- |  ----  |SINGLE|    4    | 1 |           0|
             |             1329216 ns|             1329221 ns|RD-NONSEQ | F8316D6C | ----- |  1 | -------- |  ----  |SINGLE|    4    | 1 |           0|
   Picked  : |             1329221 ns|             1329421 ns|RD-DATA   | F8316D6C |  1/ 1 | -- | 00000000 |  OKAY  | ---- | ------- | - | ---------- |
             |             1329221 ns|             1329421 ns|RD-DATA   | F8316D6C |  1/ 1 | -- | 00000000 |  OKAY  | ---- | ------- | - | ---------- |
   Picked  : |             1329456 ns|             1329461 ns|RD-NONSEQ | F8316D70 | ----- |  1 | -------- |  ----  |SINGLE|    4    | 1 |           0|
             |             1329456 ns|             1329461 ns|RD-NONSEQ | F8316D70 | ----- |  1 | -------- |  ----  |SINGLE|    4    | 1 |           0|
   Picked  : |             1329461 ns|             1329661 ns|RD-DATA   | F8316D70 |  1/ 1 | -- | 00000000 |  OKAY  | ---- | ------- | - | ---------- |
             |             1329461 ns|             1329661 ns|RD-DATA   | F8316D70 |  1/ 1 | -- | 00000000 |  OKAY  | ---- | ------- | - | ---------- |
   Picked  : |             1329696 ns|             1329701 ns|RD-NONSEQ | F8316D80 | ----- |  1 | -------- |  ----  |SINGLE|    4    | 1 |           0|
             |             1329696 ns|             1329701 ns|RD-NONSEQ | F8316D80 | ----- |  1 | -------- |  ----  |SINGLE|    4    | 1 |           0|
   Picked  : |             1329701 ns|             1329901 ns|RD-DATA   | F8316D80 |  1/ 1 | -- | F8316D80 |  OKAY  | ---- | ------- | - | ---------- |
             |             1329701 ns|             1329901 ns|RD-DATA   | F8316D80 |  1/ 1 | -- | F8316D80 |  OKAY  | ---- | ------- | - | ---------- |
   Picked  : |             1329936 ns|             1329941 ns|RD-NONSEQ | F8316D84 | ----- |  1 | -------- |  ----  |SINGLE|    4    | 1 |           0|
             |             1329936 ns|             1329941 ns|RD-NONSEQ | F8316D84 | ----- |  1 | -------- |  ----  |SINGLE|    4    | 1 |           0|
   Picked  : |             1329941 ns|             1330141 ns|RD-DATA   | F8316D84 |  1/ 1 | -- | 00000000 |  OKAY  | ---- | ------- | - | ---------- |
             |             1329941 ns|             1330141 ns|RD-DATA   | F8316D84 |  1/ 1 | -- | 00000000 |  OKAY  | ---- | ------- | - | ---------- |
   Picked  : |             1330176 ns|             1330181 ns|RD-NONSEQ | F8316D94 | ----- |  1 | -------- |  ----  |SINGLE|    4    | 1 |           0|
             |             1330176 ns|             1330181 ns|RD-NONSEQ | F8316D94 | ----- |  1 | -------- |  ----  |SINGLE|    4    | 1 |           0|
   Picked  : |             1330181 ns|             1330381 ns|RD-DATA   | F8316D94 |  1/ 1 | -- | 00000000 |  OKAY  | ---- | ------- | - | ---------- |
             |             1330181 ns|             1330381 ns|RD-DATA   | F8316D94 |  1/ 1 | -- | 00000000 |  OKAY  | ---- | ------- | - | ---------- |
   Picked  : |             1330416 ns|             1330421 ns|RD-NONSEQ | F8316D98 | ----- |  1 | -------- |  ----  |SINGLE|    4    | 1 |           0|
             |             1330416 ns|             1330421 ns|RD-NONSEQ | F8316D98 | ----- |  1 | -------- |  ----  |SINGLE|    4    | 1 |           0|
   Picked  : |             1330421 ns|             1330651 ns|RD-DATA   | F8316D98 |  1/ 1 | -- | 00000000 |  OKAY  | ---- | ------- | - | ---------- |
             |             1330421 ns|             1330651 ns|RD-DATA   | F8316D98 |  1/ 1 | -- | 00000000 |  OKAY  | ---- | ------- | - | ---------- |
   Picked  : |             1330686 ns|             1330691 ns|RD-NONSEQ | F8316DA8 | ----- |  1 | -------- |  ----  |SINGLE|    4    | 1 |           0|
             |             1330686 ns|             1330691 ns|RD-NONSEQ | F8316DA8 | ----- |  1 | -------- |  ----  |SINGLE|    4    | 1 |           0|
   Picked  : |             1330691 ns|             1330921 ns|RD-DATA   | F8316DA8 |  1/ 1 | -- | 00000000 |  OKAY  | ---- | ------- | - | ---------- |
             |             1330691 ns|             1330921 ns|RD-DATA   | F8316DA8 |  1/ 1 | -- | 00000000 |  OKAY  | ---- | ------- | - | ---------- |
   Picked  : |             1330956 ns|             1330961 ns|RD-NONSEQ | F8316DAC | ----- |  1 | -------- |  ----  |SINGLE|    4    | 1 |           0|
             |             1330956 ns|             1330961 ns|RD-NONSEQ | F8316DAC | ----- |  1 | -------- |  ----  |SINGLE|    4    | 1 |           0|
   Picked  : |             1330961 ns|             1331161 ns|RD-DATA   | F8316DAC |  1/ 1 | -- | 00000000 |  OKAY  | ---- | ------- | - | ---------- |
             |             1330961 ns|             1331161 ns|RD-DATA   | F8316DAC |  1/ 1 | -- | 00000000 |  OKAY  | ---- | ------- | - | ---------- |
   Picked  : |             1331196 ns|             1331201 ns|RD-NONSEQ | F8316DBC | ----- |  1 | -------- |  ----  |SINGLE|    4    | 1 |           0|
             |             1331196 ns|             1331201 ns|RD-NONSEQ | F8316DBC | ----- |  1 | -------- |  ----  |SINGLE|    4    | 1 |           0|
   Picked  : |             1331201 ns|             1331431 ns|RD-DATA   | F8316DBC |  1/ 1 | -- | 00000000 |  OKAY  | ---- | ------- | - | ---------- |
             |             1331201 ns|             1331431 ns|RD-DATA   | F8316DBC |  1/ 1 | -- | 00000000 |  OKAY  | ---- | ------- | - | ---------- |
   Picked  : |             1331466 ns|             1331471 ns|RD-NONSEQ | F8316DC0 | ----- |  1 | -------- |  ----  |SINGLE|    4    | 1 |           0|
             |             1331466 ns|             1331471 ns|RD-NONSEQ | F8316DC0 | ----- |  1 | -------- |  ----  |SINGLE|    4    | 1 |           0|
   Picked  : |             1331471 ns|             1331671 ns|RD-DATA   | F8316DC0 |  1/ 1 | -- | 00000000 |  OKAY  | ---- | ------- | - | ---------- |
             |             1331471 ns|             1331671 ns|RD-DATA   | F8316DC0 |  1/ 1 | -- | 00000000 |  OKAY  | ---- | ------- | - | ---------- |
   Picked  : |             1331706 ns|             1331711 ns|RD-NONSEQ | F8316DD0 | ----- |  1 | -------- |  ----  |SINGLE|    4    | 1 |           0|
             |             1331706 ns|             1331711 ns|RD-NONSEQ | F8316DD0 | ----- |  1 | -------- |  ----  |SINGLE|    4    | 1 |           0|
   Picked  : |             1331711 ns|             1331911 ns|RD-DATA   | F8316DD0 |  1/ 1 | -- | 00000000 |  OKAY  | ---- | ------- | - | ---------- |
             |             1331711 ns|             1331911 ns|RD-DATA   | F8316DD0 |  1/ 1 | -- | 00000000 |  OKAY  | ---- | ------- | - | ---------- |
   Picked  : |             1331946 ns|             1331951 ns|RD-NONSEQ | F8316DD4 | ----- |  1 | -------- |  ----  |SINGLE|    4    | 1 |           0|
             |             1331946 ns|             1331951 ns|RD-NONSEQ | F8316DD4 | ----- |  1 | -------- |  ----  |SINGLE|    4    | 1 |           0|
   Picked  : |             1331951 ns|             1332211 ns|RD-DATA   | F8316DD4 |  1/ 1 | -- | 00000000 |  OKAY  | ---- | ------- | - | ---------- |
             |             1331951 ns|             1332211 ns|RD-DATA   | F8316DD4 |  1/ 1 | -- | 00000000 |  OKAY  | ---- | ------- | - | ---------- |
   Picked  : |             1332246 ns|             1332251 ns|RD-NONSEQ | F8316DE4 | ----- |  1 | -------- |  ----  |SINGLE|    4    | 1 |           0|
             |             1332246 ns|             1332251 ns|RD-NONSEQ | F8316DE4 | ----- |  1 | -------- |  ----  |SINGLE|    4    | 1 |           0|
   Picked  : |             1332251 ns|             1332451 ns|RD-DATA   | F8316DE4 |  1/ 1 | -- | 00000000 |  OKAY  | ---- | ------- | - | ---------- |
             |             1332251 ns|             1332451 ns|RD-DATA   | F8316DE4 |  1/ 1 | -- | 00000000 |  OKAY  | ---- | ------- | - | ---------- |
   Picked  : |             1332486 ns|             1332491 ns|RD-NONSEQ | F8316DE8 | ----- |  1 | -------- |  ----  |SINGLE|    4    | 1 |           0|
             |             1332486 ns|             1332491 ns|RD-NONSEQ | F8316DE8 | ----- |  1 | -------- |  ----  |SINGLE|    4    | 1 |           0|
   Picked  : |             1332491 ns|             1332691 ns|RD-DATA   | F8316DE8 |  1/ 1 | -- | 00000000 |  OKAY  | ---- | ------- | - | ---------- |
             |             1332491 ns|             1332691 ns|RD-DATA   | F8316DE8 |  1/ 1 | -- | 00000000 |  OKAY  | ---- | ------- | - | ---------- |
   Picked  : |             1332726 ns|             1332731 ns|RD-NONSEQ | F8316DF8 | ----- |  1 | -------- |  ----  |SINGLE|    4    | 1 |           0|
             |             1332726 ns|             1332731 ns|RD-NONSEQ | F8316DF8 | ----- |  1 | -------- |  ----  |SINGLE|    4    | 1 |           0|
   Picked  : |             1332731 ns|             1332931 ns|RD-DATA   | F8316DF8 |  1/ 1 | -- | 00000000 |  OKAY  | ---- | ------- | - | ---------- |
             |             1332731 ns|             1332931 ns|RD-DATA   | F8316DF8 |  1/ 1 | -- | 00000000 |  OKAY  | ---- | ------- | - | ---------- |
   Picked  : |             1332966 ns|             1332971 ns|RD-NONSEQ | F8316DFC | ----- |  1 | -------- |  ----  |SINGLE|    4    | 1 |           0|
             |             1332966 ns|             1332971 ns|RD-NONSEQ | F8316DFC | ----- |  1 | -------- |  ----  |SINGLE|    4    | 1 |           0|
   Picked  : |             1332971 ns|             1333201 ns|RD-DATA   | F8316DFC |  1/ 1 | -- | 00000000 |  OKAY  | ---- | ------- | - | ---------- |
             |             1332971 ns|             1333201 ns|RD-DATA   | F8316DFC |  1/ 1 | -- | 00000000 |  OKAY  | ---- | ------- | - | ---------- |
   Picked  : |             1333236 ns|             1333241 ns|RD-NONSEQ | F8316E0C | ----- |  1 | -------- |  ----  |SINGLE|    4    | 1 |           0|
             |             1333236 ns|             1333241 ns|RD-NONSEQ | F8316E0C | ----- |  1 | -------- |  ----  |SINGLE|    4    | 1 |           0|
   Picked  : |             1333241 ns|             1333441 ns|RD-DATA   | F8316E0C |  1/ 1 | -- | 00000000 |  OKAY  | ---- | ------- | - | ---------- |
             |             1333241 ns|             1333441 ns|RD-DATA   | F8316E0C |  1/ 1 | -- | 00000000 |  OKAY  | ---- | ------- | - | ---------- |
   Picked  : |             1333476 ns|             1333481 ns|RD-NONSEQ | F8316E10 | ----- |  1 | -------- |  ----  |SINGLE|    4    | 1 |           0|
             |             1333476 ns|             1333481 ns|RD-NONSEQ | F8316E10 | ----- |  1 | -------- |  ----  |SINGLE|    4    | 1 |           0|
   Picked  : |             1333481 ns|             1333711 ns|RD-DATA   | F8316E10 |  1/ 1 | -- | 00000000 |  OKAY  | ---- | ------- | - | ---------- |
             |             1333481 ns|             1333711 ns|RD-DATA   | F8316E10 |  1/ 1 | -- | 00000000 |  OKAY  | ---- | ------- | - | ---------- |
   Picked  : |             1333746 ns|             1333751 ns|RD-NONSEQ | F8316E20 | ----- |  1 | -------- |  ----  |SINGLE|    4    | 1 |           0|
             |             1333746 ns|             1333751 ns|RD-NONSEQ | F8316E20 | ----- |  1 | -------- |  ----  |SINGLE|    4    | 1 |           0|
   Picked  : |             1333751 ns|             1333951 ns|RD-DATA   | F8316E20 |  1/ 1 | -- | 3FF17A2C |  OKAY  | ---- | ------- | - | ---------- |
             |             1333751 ns|             1333951 ns|RD-DATA   | F8316E20 |  1/ 1 | -- | 3FF17A2C |  OKAY  | ---- | ------- | - | ---------- |
   Picked  : |             1333986 ns|             1333991 ns|RD-NONSEQ | F8316E24 | ----- |  1 | -------- |  ----  |SINGLE|    4    | 1 |           0|
             |             1333986 ns|             1333991 ns|RD-NONSEQ | F8316E24 | ----- |  1 | -------- |  ----  |SINGLE|    4    | 1 |           0|
   Picked  : |             1333991 ns|             1334191 ns|RD-DATA   | F8316E24 |  1/ 1 | -- | 00000000 |  OKAY  | ---- | ------- | - | ---------- |
             |             1333991 ns|             1334191 ns|RD-DATA   | F8316E24 |  1/ 1 | -- | 00000000 |  OKAY  | ---- | ------- | - | ---------- |
   Picked  : |             1334226 ns|             1334231 ns|RD-NONSEQ | F8316E34 | ----- |  1 | -------- |  ----  |SINGLE|    4    | 1 |           0|
             |             1334226 ns|             1334231 ns|RD-NONSEQ | F8316E34 | ----- |  1 | -------- |  ----  |SINGLE|    4    | 1 |           0|
   Picked  : |             1334231 ns|             1334431 ns|RD-DATA   | F8316E34 |  1/ 1 | -- | 00000000 |  OKAY  | ---- | ------- | - | ---------- |
             |             1334231 ns|             1334431 ns|RD-DATA   | F8316E34 |  1/ 1 | -- | 00000000 |  OKAY  | ---- | ------- | - | ---------- |
   Picked  : |             1334466 ns|             1334471 ns|RD-NONSEQ | F8316E38 | ----- |  1 | -------- |  ----  |SINGLE|    4    | 1 |           0|
             |             1334466 ns|             1334471 ns|RD-NONSEQ | F8316E38 | ----- |  1 | -------- |  ----  |SINGLE|    4    | 1 |           0|
   Picked  : |             1334471 ns|             1334731 ns|RD-DATA   | F8316E38 |  1/ 1 | -- | 00000000 |  OKAY  | ---- | ------- | - | ---------- |
             |             1334471 ns|             1334731 ns|RD-DATA   | F8316E38 |  1/ 1 | -- | 00000000 |  OKAY  | ---- | ------- | - | ---------- |
   Picked  : |             1334766 ns|             1334771 ns|RD-NONSEQ | F8316E48 | ----- |  1 | -------- |  ----  |SINGLE|    4    | 1 |           0|
             |             1334766 ns|             1334771 ns|RD-NONSEQ | F8316E48 | ----- |  1 | -------- |  ----  |SINGLE|    4    | 1 |           0|
   Picked  : |             1334771 ns|             1335001 ns|RD-DATA   | F8316E48 |  1/ 1 | -- | 00000000 |  OKAY  | ---- | ------- | - | ---------- |
             |             1334771 ns|             1335001 ns|RD-DATA   | F8316E48 |  1/ 1 | -- | 00000000 |  OKAY  | ---- | ------- | - | ---------- |
   Picked  : |             1335036 ns|             1335041 ns|RD-NONSEQ | F8316E4C | ----- |  1 | -------- |  ----  |SINGLE|    4    | 1 |           0|
             |             1335036 ns|             1335041 ns|RD-NONSEQ | F8316E4C | ----- |  1 | -------- |  ----  |SINGLE|    4    | 1 |           0|
   Picked  : |             1335041 ns|             1335241 ns|RD-DATA   | F8316E4C |  1/ 1 | -- | 00000000 |  OKAY  | ---- | ------- | - | ---------- |
             |             1335041 ns|             1335241 ns|RD-DATA   | F8316E4C |  1/ 1 | -- | 00000000 |  OKAY  | ---- | ------- | - | ---------- |
   Picked  : |             1335276 ns|             1335281 ns|RD-NONSEQ | F8316E5C | ----- |  1 | -------- |  ----  |SINGLE|    4    | 1 |           0|
             |             1335276 ns|             1335281 ns|RD-NONSEQ | F8316E5C | ----- |  1 | -------- |  ----  |SINGLE|    4    | 1 |           0|
   Picked  : |             1335281 ns|             1335481 ns|RD-DATA   | F8316E5C |  1/ 1 | -- | 00000000 |  OKAY  | ---- | ------- | - | ---------- |
             |             1335281 ns|             1335481 ns|RD-DATA   | F8316E5C |  1/ 1 | -- | 00000000 |  OKAY  | ---- | ------- | - | ---------- |
   Picked  : |             1335516 ns|             1335521 ns|RD-NONSEQ | F8316E60 | ----- |  1 | -------- |  ----  |SINGLE|    4    | 1 |           0|
             |             1335516 ns|             1335521 ns|RD-NONSEQ | F8316E60 | ----- |  1 | -------- |  ----  |SINGLE|    4    | 1 |           0|
   Picked  : |             1335521 ns|             1335721 ns|RD-DATA   | F8316E60 |  1/ 1 | -- | 00000000 |  OKAY  | ---- | ------- | - | ---------- |
             |             1335521 ns|             1335721 ns|RD-DATA   | F8316E60 |  1/ 1 | -- | 00000000 |  OKAY  | ---- | ------- | - | ---------- |
   Picked  : |             1335756 ns|             1335761 ns|RD-NONSEQ | F8316E70 | ----- |  1 | -------- |  ----  |SINGLE|    4    | 1 |           0|
             |             1335756 ns|             1335761 ns|RD-NONSEQ | F8316E70 | ----- |  1 | -------- |  ----  |SINGLE|    4    | 1 |           0|
   Picked  : |             1335761 ns|             1335991 ns|RD-DATA   | F8316E70 |  1/ 1 | -- | 00000000 |  OKAY  | ---- | ------- | - | ---------- |
             |             1335761 ns|             1335991 ns|RD-DATA   | F8316E70 |  1/ 1 | -- | 00000000 |  OKAY  | ---- | ------- | - | ---------- |
   Picked  : |             1336026 ns|             1336031 ns|RD-NONSEQ | F8316E74 | ----- |  1 | -------- |  ----  |SINGLE|    4    | 1 |           0|
             |             1336026 ns|             1336031 ns|RD-NONSEQ | F8316E74 | ----- |  1 | -------- |  ----  |SINGLE|    4    | 1 |           0|
   Picked  : |             1336031 ns|             1336231 ns|RD-DATA   | F8316E74 |  1/ 1 | -- | 00000000 |  OKAY  | ---- | ------- | - | ---------- |
             |             1336031 ns|             1336231 ns|RD-DATA   | F8316E74 |  1/ 1 | -- | 00000000 |  OKAY  | ---- | ------- | - | ---------- |
   Picked  : |             1336266 ns|             1336271 ns|RD-NONSEQ | F8316E84 | ----- |  1 | -------- |  ----  |SINGLE|    4    | 1 |           0|
             |             1336266 ns|             1336271 ns|RD-NONSEQ | F8316E84 | ----- |  1 | -------- |  ----  |SINGLE|    4    | 1 |           0|
   Picked  : |             1336271 ns|             1336531 ns|RD-DATA   | F8316E84 |  1/ 1 | -- | 00000000 |  OKAY  | ---- | ------- | - | ---------- |
             |             1336271 ns|             1336531 ns|RD-DATA   | F8316E84 |  1/ 1 | -- | 00000000 |  OKAY  | ---- | ------- | - | ---------- |
   Picked  : |             1336566 ns|             1336571 ns|RD-NONSEQ | F8316E88 | ----- |  1 | -------- |  ----  |SINGLE|    4    | 1 |           0|
             |             1336566 ns|             1336571 ns|RD-NONSEQ | F8316E88 | ----- |  1 | -------- |  ----  |SINGLE|    4    | 1 |           0|
   Picked  : |             1336571 ns|             1336801 ns|RD-DATA   | F8316E88 |  1/ 1 | -- | 00000000 |  OKAY  | ---- | ------- | - | ---------- |
             |             1336571 ns|             1336801 ns|RD-DATA   | F8316E88 |  1/ 1 | -- | 00000000 |  OKAY  | ---- | ------- | - | ---------- |
   Picked  : |             1336836 ns|             1336841 ns|RD-NONSEQ | F8316E98 | ----- |  1 | -------- |  ----  |SINGLE|    4    | 1 |           0|
             |             1336836 ns|             1336841 ns|RD-NONSEQ | F8316E98 | ----- |  1 | -------- |  ----  |SINGLE|    4    | 1 |           0|
   Picked  : |             1336841 ns|             1337041 ns|RD-DATA   | F8316E98 |  1/ 1 | -- | 00000000 |  OKAY  | ---- | ------- | - | ---------- |
             |             1336841 ns|             1337041 ns|RD-DATA   | F8316E98 |  1/ 1 | -- | 00000000 |  OKAY  | ---- | ------- | - | ---------- |
   Picked  : |             1337076 ns|             1337081 ns|RD-NONSEQ | F8316E9C | ----- |  1 | -------- |  ----  |SINGLE|    4    | 1 |           0|
             |             1337076 ns|             1337081 ns|RD-NONSEQ | F8316E9C | ----- |  1 | -------- |  ----  |SINGLE|    4    | 1 |           0|
   Picked  : |             1337081 ns|             1337311 ns|RD-DATA   | F8316E9C |  1/ 1 | -- | 00000000 |  OKAY  | ---- | ------- | - | ---------- |
             |             1337081 ns|             1337311 ns|RD-DATA   | F8316E9C |  1/ 1 | -- | 00000000 |  OKAY  | ---- | ------- | - | ---------- |
   Picked  : |             1337346 ns|             1337351 ns|RD-NONSEQ | F8316EAC | ----- |  1 | -------- |  ----  |SINGLE|    4    | 1 |           0|
             |             1337346 ns|             1337351 ns|RD-NONSEQ | F8316EAC | ----- |  1 | -------- |  ----  |SINGLE|    4    | 1 |           0|
   Picked  : |             1337351 ns|             1337551 ns|RD-DATA   | F8316EAC |  1/ 1 | -- | 00000000 |  OKAY  | ---- | ------- | - | ---------- |
             |             1337351 ns|             1337551 ns|RD-DATA   | F8316EAC |  1/ 1 | -- | 00000000 |  OKAY  | ---- | ------- | - | ---------- |
   Picked  : |             1337586 ns|             1337591 ns|RD-NONSEQ | F8316EB0 | ----- |  1 | -------- |  ----  |SINGLE|    4    | 1 |           0|
             |             1337586 ns|             1337591 ns|RD-NONSEQ | F8316EB0 | ----- |  1 | -------- |  ----  |SINGLE|    4    | 1 |           0|
   Picked  : |             1337591 ns|             1337791 ns|RD-DATA   | F8316EB0 |  1/ 1 | -- | 00000000 |  OKAY  | ---- | ------- | - | ---------- |
             |             1337591 ns|             1337791 ns|RD-DATA   | F8316EB0 |  1/ 1 | -- | 00000000 |  OKAY  | ---- | ------- | - | ---------- |
