   Trace   : /mnt/ussjf-asic2/workarea1/lkamired/niue1z1_tmp/lkamired/wa_performance/SIM/top/ahbfab_cov.m33i_ram0/uvm_test_top.top_env_i.ahbfab_env_i.mvc_ahb_mon_8_env_i_ahb_beat.log

   Picked  : Instance: uvm_test_top.top_env_i.ahbfab_env_i.mvc_ahb_mon_8_env_i.logger_handle_ahb :: Header
             Instance: uvm_test_top.top_env_i.ahbfab_env_i.mvc_ahb_mon_8_env_i.logger_handle_ahb
   Picked  : AHB Clk Cycle = 40 ns; AHB Clk Frequency = 25.00 MHz; Data bus width = 32 bits
             AHB Clk Cycle = 40 ns; AHB Clk Frequency = 25.00 MHz; Data bus width = 32 bits
   Skipped : ------------------------------------------------------------------------------------------------------------------------------------------
   Skipped : |NONSEQ/SEQ Assert Time |  HREADY Assert Time   |  DIR     |   ADDR   | BEAT  |  L |   DATA   |  RESP  | BURST| BURST   | H |    HSEL    |
   Skipped : |                       |                       |   -      |          |  NUM  |  E |          |        | Type | Size    | P |   (SLAVE   |
   Skipped : |                       |                       | PHASE    |          |       |  N |          |        |      |= 2^HSIZE| R |    INDEX)  |
   Skipped : |                       |                       |          |          |       |    |          |        |      | bytes   | O |            |
   Skipped : |                       |                       |          |          |       |    |          |        |      |         | T |            |
   Skipped : |                       |                       |          |          |       |    |          |        |      |         |   |            |
   Skipped : ------------------------------------------------------------------------------------------------------------------------------------------
   Picked  : |              213940 ns|              213980 ns|RD-NONSEQ | F832116C | ----- |  1 | -------- |  ----  |SINGLE|    4    | 0 |           0|
             |              213940 ns|              213980 ns|RD-NONSEQ | F832116C | ----- |  1 | -------- |  ----  |SINGLE|    4    | 0 |           0|
   Picked  : |              213980 ns|              214780 ns|RD-DATA   | F832116C |  1/ 1 | -- | 00000181 |  OKAY  | ---- | ------- | - | ---------- |
             |              213980 ns|              214780 ns|RD-DATA   | F832116C |  1/ 1 | -- | 00000181 |  OKAY  | ---- | ------- | - | ---------- |
   Picked  : |              215220 ns|              215260 ns|WR-NONSEQ | F832116C | ----- |  1 | -------- |  ----  |SINGLE|    4    | 0 |           0|
             |              215220 ns|              215260 ns|WR-NONSEQ | F832116C | ----- |  1 | -------- |  ----  |SINGLE|    4    | 0 |           0|
   Picked  : |              215260 ns|              215900 ns|WR-DATA   | F832116C |  1/ 1 | -- | 00000181 |  OKAY  | ---- | ------- | - | ---------- |
             |              215260 ns|              215900 ns|WR-DATA   | F832116C |  1/ 1 | -- | 00000181 |  OKAY  | ---- | ------- | - | ---------- |
   Picked  : |              216700 ns|              216740 ns|RD-NONSEQ | F832116C | ----- |  1 | -------- |  ----  |SINGLE|    4    | 0 |           0|
             |              216700 ns|              216740 ns|RD-NONSEQ | F832116C | ----- |  1 | -------- |  ----  |SINGLE|    4    | 0 |           0|
   Picked  : |              216740 ns|              217500 ns|RD-DATA   | F832116C |  1/ 1 | -- | 00000181 |  OKAY  | ---- | ------- | - | ---------- |
             |              216740 ns|              217500 ns|RD-DATA   | F832116C |  1/ 1 | -- | 00000181 |  OKAY  | ---- | ------- | - | ---------- |
   Picked  : |              217940 ns|              217980 ns|WR-NONSEQ | F832116C | ----- |  1 | -------- |  ----  |SINGLE|    4    | 0 |           0|
             |              217940 ns|              217980 ns|WR-NONSEQ | F832116C | ----- |  1 | -------- |  ----  |SINGLE|    4    | 0 |           0|
   Picked  : |              217980 ns|              218620 ns|WR-DATA   | F832116C |  1/ 1 | -- | 00000180 |  OKAY  | ---- | ------- | - | ---------- |
             |              217980 ns|              218620 ns|WR-DATA   | F832116C |  1/ 1 | -- | 00000180 |  OKAY  | ---- | ------- | - | ---------- |
   Picked  : |              219220 ns|              219260 ns|RD-NONSEQ | F832116C | ----- |  1 | -------- |  ----  |SINGLE|    4    | 0 |           0|
             |              219220 ns|              219260 ns|RD-NONSEQ | F832116C | ----- |  1 | -------- |  ----  |SINGLE|    4    | 0 |           0|
   Picked  : |              219260 ns|              219900 ns|RD-DATA   | F832116C |  1/ 1 | -- | 00000180 |  OKAY  | ---- | ------- | - | ---------- |
             |              219260 ns|              219900 ns|RD-DATA   | F832116C |  1/ 1 | -- | 00000180 |  OKAY  | ---- | ------- | - | ---------- |
   Picked  : |              220340 ns|              220380 ns|WR-NONSEQ | F832116C | ----- |  1 | -------- |  ----  |SINGLE|    4    | 0 |           0|
             |              220340 ns|              220380 ns|WR-NONSEQ | F832116C | ----- |  1 | -------- |  ----  |SINGLE|    4    | 0 |           0|
   Picked  : |              220380 ns|              221020 ns|WR-DATA   | F832116C |  1/ 1 | -- | 00000180 |  OKAY  | ---- | ------- | - | ---------- |
             |              220380 ns|              221020 ns|WR-DATA   | F832116C |  1/ 1 | -- | 00000180 |  OKAY  | ---- | ------- | - | ---------- |
   Picked  : |              221420 ns|              221460 ns|RD-NONSEQ | F8321170 | ----- |  1 | -------- |  ----  |SINGLE|    4    | 0 |           0|
             |              221420 ns|              221460 ns|RD-NONSEQ | F8321170 | ----- |  1 | -------- |  ----  |SINGLE|    4    | 0 |           0|
   Picked  : |              221460 ns|              222220 ns|RD-DATA   | F8321170 |  1/ 1 | -- | 00000693 |  OKAY  | ---- | ------- | - | ---------- |
             |              221460 ns|              222220 ns|RD-DATA   | F8321170 |  1/ 1 | -- | 00000693 |  OKAY  | ---- | ------- | - | ---------- |
   Picked  : |              222660 ns|              222700 ns|WR-NONSEQ | F8321170 | ----- |  1 | -------- |  ----  |SINGLE|    4    | 0 |           0|
             |              222660 ns|              222700 ns|WR-NONSEQ | F8321170 | ----- |  1 | -------- |  ----  |SINGLE|    4    | 0 |           0|
   Picked  : |              222700 ns|              223420 ns|WR-DATA   | F8321170 |  1/ 1 | -- | 00000693 |  OKAY  | ---- | ------- | - | ---------- |
             |              222700 ns|              223420 ns|WR-DATA   | F8321170 |  1/ 1 | -- | 00000693 |  OKAY  | ---- | ------- | - | ---------- |
   Picked  : |              223820 ns|              223860 ns|RD-NONSEQ | F8321174 | ----- |  1 | -------- |  ----  |SINGLE|    4    | 0 |           0|
             |              223820 ns|              223860 ns|RD-NONSEQ | F8321174 | ----- |  1 | -------- |  ----  |SINGLE|    4    | 0 |           0|
   Picked  : |              223860 ns|              224620 ns|RD-DATA   | F8321174 |  1/ 1 | -- | 000000FB |  OKAY  | ---- | ------- | - | ---------- |
             |              223860 ns|              224620 ns|RD-DATA   | F8321174 |  1/ 1 | -- | 000000FB |  OKAY  | ---- | ------- | - | ---------- |
   Picked  : |              225060 ns|              225100 ns|WR-NONSEQ | F8321174 | ----- |  1 | -------- |  ----  |SINGLE|    4    | 0 |           0|
             |              225060 ns|              225100 ns|WR-NONSEQ | F8321174 | ----- |  1 | -------- |  ----  |SINGLE|    4    | 0 |           0|
   Picked  : |              225100 ns|              225740 ns|WR-DATA   | F8321174 |  1/ 1 | -- | 000000FB |  OKAY  | ---- | ------- | - | ---------- |
             |              225100 ns|              225740 ns|WR-DATA   | F8321174 |  1/ 1 | -- | 000000FB |  OKAY  | ---- | ------- | - | ---------- |
   Picked  : |              226140 ns|              226180 ns|RD-NONSEQ | F832116C | ----- |  1 | -------- |  ----  |SINGLE|    4    | 0 |           0|
             |              226140 ns|              226180 ns|RD-NONSEQ | F832116C | ----- |  1 | -------- |  ----  |SINGLE|    4    | 0 |           0|
   Picked  : |              226180 ns|              226940 ns|RD-DATA   | F832116C |  1/ 1 | -- | 00000180 |  OKAY  | ---- | ------- | - | ---------- |
             |              226180 ns|              226940 ns|RD-DATA   | F832116C |  1/ 1 | -- | 00000180 |  OKAY  | ---- | ------- | - | ---------- |
   Picked  : |              227380 ns|              227420 ns|WR-NONSEQ | F832116C | ----- |  1 | -------- |  ----  |SINGLE|    4    | 0 |           0|
             |              227380 ns|              227420 ns|WR-NONSEQ | F832116C | ----- |  1 | -------- |  ----  |SINGLE|    4    | 0 |           0|
   Picked  : |              227420 ns|              228060 ns|WR-DATA   | F832116C |  1/ 1 | -- | 00000380 |  OKAY  | ---- | ------- | - | ---------- |
             |              227420 ns|              228060 ns|WR-DATA   | F832116C |  1/ 1 | -- | 00000380 |  OKAY  | ---- | ------- | - | ---------- |
   Picked  : |              238460 ns|              238500 ns|RD-NONSEQ | F832116C | ----- |  1 | -------- |  ----  |SINGLE|    4    | 0 |           0|
             |              238460 ns|              238500 ns|RD-NONSEQ | F832116C | ----- |  1 | -------- |  ----  |SINGLE|    4    | 0 |           0|
   Picked  : |              238500 ns|              239260 ns|RD-DATA   | F832116C |  1/ 1 | -- | 00000380 |  OKAY  | ---- | ------- | - | ---------- |
             |              238500 ns|              239260 ns|RD-DATA   | F832116C |  1/ 1 | -- | 00000380 |  OKAY  | ---- | ------- | - | ---------- |
   Picked  : |              239700 ns|              239740 ns|WR-NONSEQ | F832116C | ----- |  1 | -------- |  ----  |SINGLE|    4    | 0 |           0|
             |              239700 ns|              239740 ns|WR-NONSEQ | F832116C | ----- |  1 | -------- |  ----  |SINGLE|    4    | 0 |           0|
   Picked  : |              239740 ns|              240460 ns|WR-DATA   | F832116C |  1/ 1 | -- | 00000382 |  OKAY  | ---- | ------- | - | ---------- |
             |              239740 ns|              240460 ns|WR-DATA   | F832116C |  1/ 1 | -- | 00000382 |  OKAY  | ---- | ------- | - | ---------- |
   Picked  : |              290860 ns|              290900 ns|RD-NONSEQ | F832116C | ----- |  1 | -------- |  ----  |SINGLE|    4    | 0 |           0|
             |              290860 ns|              290900 ns|RD-NONSEQ | F832116C | ----- |  1 | -------- |  ----  |SINGLE|    4    | 0 |           0|
   Picked  : |              290900 ns|              291660 ns|RD-DATA   | F832116C |  1/ 1 | -- | 00000382 |  OKAY  | ---- | ------- | - | ---------- |
             |              290900 ns|              291660 ns|RD-DATA   | F832116C |  1/ 1 | -- | 00000382 |  OKAY  | ---- | ------- | - | ---------- |
   Picked  : |              292100 ns|              292140 ns|WR-NONSEQ | F832116C | ----- |  1 | -------- |  ----  |SINGLE|    4    | 0 |           0|
             |              292100 ns|              292140 ns|WR-NONSEQ | F832116C | ----- |  1 | -------- |  ----  |SINGLE|    4    | 0 |           0|
   Picked  : |              292140 ns|              292780 ns|WR-DATA   | F832116C |  1/ 1 | -- | 00000282 |  OKAY  | ---- | ------- | - | ---------- |
             |              292140 ns|              292780 ns|WR-DATA   | F832116C |  1/ 1 | -- | 00000282 |  OKAY  | ---- | ------- | - | ---------- |
   Picked  : |              293380 ns|              293420 ns|RD-NONSEQ | F832116C | ----- |  1 | -------- |  ----  |SINGLE|    4    | 0 |           0|
             |              293380 ns|              293420 ns|RD-NONSEQ | F832116C | ----- |  1 | -------- |  ----  |SINGLE|    4    | 0 |           0|
   Picked  : |              293420 ns|              294140 ns|RD-DATA   | F832116C |  1/ 1 | -- | 00000282 |  OKAY  | ---- | ------- | - | ---------- |
             |              293420 ns|              294140 ns|RD-DATA   | F832116C |  1/ 1 | -- | 00000282 |  OKAY  | ---- | ------- | - | ---------- |
   Picked  : |              294580 ns|              294620 ns|WR-NONSEQ | F832116C | ----- |  1 | -------- |  ----  |SINGLE|    4    | 0 |           0|
             |              294580 ns|              294620 ns|WR-NONSEQ | F832116C | ----- |  1 | -------- |  ----  |SINGLE|    4    | 0 |           0|
   Picked  : |              294620 ns|              295260 ns|WR-DATA   | F832116C |  1/ 1 | -- | 00000283 |  OKAY  | ---- | ------- | - | ---------- |
             |              294620 ns|              295260 ns|WR-DATA   | F832116C |  1/ 1 | -- | 00000283 |  OKAY  | ---- | ------- | - | ---------- |
   Picked  : |              295860 ns|              295900 ns|RD-NONSEQ | F832116C | ----- |  1 | -------- |  ----  |SINGLE|    4    | 0 |           0|
             |              295860 ns|              295900 ns|RD-NONSEQ | F832116C | ----- |  1 | -------- |  ----  |SINGLE|    4    | 0 |           0|
   Picked  : |              295900 ns|              296620 ns|RD-DATA   | F832116C |  1/ 1 | -- | 00000283 |  OKAY  | ---- | ------- | - | ---------- |
             |              295900 ns|              296620 ns|RD-DATA   | F832116C |  1/ 1 | -- | 00000283 |  OKAY  | ---- | ------- | - | ---------- |
   Picked  : |              297060 ns|              297100 ns|WR-NONSEQ | F832116C | ----- |  1 | -------- |  ----  |SINGLE|    4    | 0 |           0|
             |              297060 ns|              297100 ns|WR-NONSEQ | F832116C | ----- |  1 | -------- |  ----  |SINGLE|    4    | 0 |           0|
   Picked  : |              297100 ns|              297461 ns|WR-DATA   | F832116C |  1/ 1 | -- | 00000203 |  OKAY  | ---- | ------- | - | ---------- |
             |              297100 ns|              297461 ns|WR-DATA   | F832116C |  1/ 1 | -- | 00000203 |  OKAY  | ---- | ------- | - | ---------- |
   Picked  : |              297916 ns|              297921 ns|WR-NONSEQ | F8320018 | ----- |  1 | -------- |  ----  |SINGLE|    4    | 0 |           0|
             |              297916 ns|              297921 ns|WR-NONSEQ | F8320018 | ----- |  1 | -------- |  ----  |SINGLE|    4    | 0 |           0|
   Picked  : |              297921 ns|              298141 ns|WR-DATA   | F8320018 |  1/ 1 | -- | 00000001 |  OKAY  | ---- | ------- | - | ---------- |
             |              297921 ns|              298141 ns|WR-DATA   | F8320018 |  1/ 1 | -- | 00000001 |  OKAY  | ---- | ------- | - | ---------- |
   Picked  : |              298191 ns|              298196 ns|RD-NONSEQ | F832200C | ----- |  1 | -------- |  ----  |SINGLE|    4    | 0 |           0|
             |              298191 ns|              298196 ns|RD-NONSEQ | F832200C | ----- |  1 | -------- |  ----  |SINGLE|    4    | 0 |           0|
   Picked  : |              298196 ns|              298461 ns|RD-DATA   | F832200C |  1/ 1 | -- | 00190003 |  OKAY  | ---- | ------- | - | ---------- |
             |              298196 ns|              298461 ns|RD-DATA   | F832200C |  1/ 1 | -- | 00190003 |  OKAY  | ---- | ------- | - | ---------- |
   Picked  : |              298511 ns|              298516 ns|RD-NONSEQ | F8322010 | ----- |  1 | -------- |  ----  |SINGLE|    4    | 0 |           0|
             |              298511 ns|              298516 ns|RD-NONSEQ | F8322010 | ----- |  1 | -------- |  ----  |SINGLE|    4    | 0 |           0|
   Picked  : |              298516 ns|              298741 ns|RD-DATA   | F8322010 |  1/ 1 | -- | 00000001 |  OKAY  | ---- | ------- | - | ---------- |
             |              298516 ns|              298741 ns|RD-DATA   | F8322010 |  1/ 1 | -- | 00000001 |  OKAY  | ---- | ------- | - | ---------- |
   Picked  : |              298796 ns|              298801 ns|WR-NONSEQ | F8322010 | ----- |  1 | -------- |  ----  |SINGLE|    4    | 0 |           0|
             |              298796 ns|              298801 ns|WR-NONSEQ | F8322010 | ----- |  1 | -------- |  ----  |SINGLE|    4    | 0 |           0|
   Picked  : |              298801 ns|              299031 ns|WR-DATA   | F8322010 |  1/ 1 | -- | 00000000 |  OKAY  | ---- | ------- | - | ---------- |
             |              298801 ns|              299031 ns|WR-DATA   | F8322010 |  1/ 1 | -- | 00000000 |  OKAY  | ---- | ------- | - | ---------- |
   Picked  : |              299086 ns|              299091 ns|WR-NONSEQ | F8312060 | ----- |  1 | -------- |  ----  |SINGLE|    4    | 0 |           0|
             |              299086 ns|              299091 ns|WR-NONSEQ | F8312060 | ----- |  1 | -------- |  ----  |SINGLE|    4    | 0 |           0|
   Picked  : |              299091 ns|              299341 ns|WR-DATA   | F8312060 |  1/ 1 | -- | 00000000 |  OKAY  | ---- | ------- | - | ---------- |
             |              299091 ns|              299341 ns|WR-DATA   | F8312060 |  1/ 1 | -- | 00000000 |  OKAY  | ---- | ------- | - | ---------- |
   Picked  : |              299396 ns|              299401 ns|WR-NONSEQ | 48250020 | ----- |  1 | -------- |  ----  |SINGLE|    4    | 0 |           0|
             |              299396 ns|              299401 ns|WR-NONSEQ | 48250020 | ----- |  1 | -------- |  ----  |SINGLE|    4    | 0 |           0|
   Picked  : |              299401 ns|              300351 ns|WR-DATA   | 48250020 |  1/ 1 | -- | 00000001 |  OKAY  | ---- | ------- | - | ---------- |
             |              299401 ns|              300351 ns|WR-DATA   | 48250020 |  1/ 1 | -- | 00000001 |  OKAY  | ---- | ------- | - | ---------- |
   Picked  : |              300401 ns|              300406 ns|RD-NONSEQ | 4826017C | ----- |  1 | -------- |  ----  |SINGLE|    4    | 0 |           0|
             |              300401 ns|              300406 ns|RD-NONSEQ | 4826017C | ----- |  1 | -------- |  ----  |SINGLE|    4    | 0 |           0|
   Picked  : |              300406 ns|              301271 ns|RD-DATA   | 4826017C |  1/ 1 | -- | 20801E01 |  OKAY  | ---- | ------- | - | ---------- |
             |              300406 ns|              301271 ns|RD-DATA   | 4826017C |  1/ 1 | -- | 20801E01 |  OKAY  | ---- | ------- | - | ---------- |
   Picked  : |              301326 ns|              301331 ns|WR-NONSEQ | 4826017C | ----- |  1 | -------- |  ----  |SINGLE|    4    | 0 |           0|
             |              301326 ns|              301331 ns|WR-NONSEQ | 4826017C | ----- |  1 | -------- |  ----  |SINGLE|    4    | 0 |           0|
   Picked  : |              301331 ns|              302231 ns|WR-DATA   | 4826017C |  1/ 1 | -- | 20801E41 |  OKAY  | ---- | ------- | - | ---------- |
             |              301331 ns|              302231 ns|WR-DATA   | 4826017C |  1/ 1 | -- | 20801E41 |  OKAY  | ---- | ------- | - | ---------- |
   Picked  : |              302681 ns|              302686 ns|RD-NONSEQ | 4826017C | ----- |  1 | -------- |  ----  |SINGLE|    4    | 0 |           0|
             |              302681 ns|              302686 ns|RD-NONSEQ | 4826017C | ----- |  1 | -------- |  ----  |SINGLE|    4    | 0 |           0|
   Picked  : |              302686 ns|              303551 ns|RD-DATA   | 4826017C |  1/ 1 | -- | 20801E41 |  OKAY  | ---- | ------- | - | ---------- |
             |              302686 ns|              303551 ns|RD-DATA   | 4826017C |  1/ 1 | -- | 20801E41 |  OKAY  | ---- | ------- | - | ---------- |
   Picked  : |              303606 ns|              303611 ns|WR-NONSEQ | 4826017C | ----- |  1 | -------- |  ----  |SINGLE|    4    | 0 |           0|
             |              303606 ns|              303611 ns|WR-NONSEQ | 4826017C | ----- |  1 | -------- |  ----  |SINGLE|    4    | 0 |           0|
   Picked  : |              303611 ns|              304511 ns|WR-DATA   | 4826017C |  1/ 1 | -- | 20801E40 |  OKAY  | ---- | ------- | - | ---------- |
             |              303611 ns|              304511 ns|WR-DATA   | 4826017C |  1/ 1 | -- | 20801E40 |  OKAY  | ---- | ------- | - | ---------- |
   Picked  : |              304761 ns|              304766 ns|RD-NONSEQ | 4826017C | ----- |  1 | -------- |  ----  |SINGLE|    4    | 0 |           0|
             |              304761 ns|              304766 ns|RD-NONSEQ | 4826017C | ----- |  1 | -------- |  ----  |SINGLE|    4    | 0 |           0|
   Picked  : |              304766 ns|              305631 ns|RD-DATA   | 4826017C |  1/ 1 | -- | 20801E40 |  OKAY  | ---- | ------- | - | ---------- |
             |              304766 ns|              305631 ns|RD-DATA   | 4826017C |  1/ 1 | -- | 20801E40 |  OKAY  | ---- | ------- | - | ---------- |
   Picked  : |              305686 ns|              305691 ns|WR-NONSEQ | 4826017C | ----- |  1 | -------- |  ----  |SINGLE|    4    | 0 |           0|
             |              305686 ns|              305691 ns|WR-NONSEQ | 4826017C | ----- |  1 | -------- |  ----  |SINGLE|    4    | 0 |           0|
   Picked  : |              305691 ns|              306631 ns|WR-DATA   | 4826017C |  1/ 1 | -- | 20801E40 |  OKAY  | ---- | ------- | - | ---------- |
             |              305691 ns|              306631 ns|WR-DATA   | 4826017C |  1/ 1 | -- | 20801E40 |  OKAY  | ---- | ------- | - | ---------- |
   Picked  : |              307186 ns|              307191 ns|WR-NONSEQ | 4826017C | ----- |  1 | -------- |  ----  |SINGLE|    4    | 0 |           0|
             |              307186 ns|              307191 ns|WR-NONSEQ | 4826017C | ----- |  1 | -------- |  ----  |SINGLE|    4    | 0 |           0|
   Picked  : |              307191 ns|              308111 ns|WR-DATA   | 4826017C |  1/ 1 | -- | 20801E40 |  OKAY  | ---- | ------- | - | ---------- |
             |              307191 ns|              308111 ns|WR-DATA   | 4826017C |  1/ 1 | -- | 20801E40 |  OKAY  | ---- | ------- | - | ---------- |
   Picked  : |              308166 ns|              308171 ns|WR-NONSEQ | 4826017C | ----- |  1 | -------- |  ----  |SINGLE|    4    | 0 |           0|
             |              308166 ns|              308171 ns|WR-NONSEQ | 4826017C | ----- |  1 | -------- |  ----  |SINGLE|    4    | 0 |           0|
   Picked  : |              308171 ns|              309111 ns|WR-DATA   | 4826017C |  1/ 1 | -- | 84002E40 |  OKAY  | ---- | ------- | - | ---------- |
             |              308171 ns|              309111 ns|WR-DATA   | 4826017C |  1/ 1 | -- | 84002E40 |  OKAY  | ---- | ------- | - | ---------- |
   Picked  : |              309166 ns|              309171 ns|WR-NONSEQ | 4826017C | ----- |  1 | -------- |  ----  |SINGLE|    4    | 0 |           0|
             |              309166 ns|              309171 ns|WR-NONSEQ | 4826017C | ----- |  1 | -------- |  ----  |SINGLE|    4    | 0 |           0|
   Picked  : |              309171 ns|              310071 ns|WR-DATA   | 4826017C |  1/ 1 | -- | 84002240 |  OKAY  | ---- | ------- | - | ---------- |
             |              309171 ns|              310071 ns|WR-DATA   | 4826017C |  1/ 1 | -- | 84002240 |  OKAY  | ---- | ------- | - | ---------- |
   Picked  : |              320126 ns|              320131 ns|WR-NONSEQ | 4826017C | ----- |  1 | -------- |  ----  |SINGLE|    4    | 0 |           0|
             |              320126 ns|              320131 ns|WR-NONSEQ | 4826017C | ----- |  1 | -------- |  ----  |SINGLE|    4    | 0 |           0|
   Picked  : |              320131 ns|              321031 ns|WR-DATA   | 4826017C |  1/ 1 | -- | 84002040 |  OKAY  | ---- | ------- | - | ---------- |
             |              320131 ns|              321031 ns|WR-DATA   | 4826017C |  1/ 1 | -- | 84002040 |  OKAY  | ---- | ------- | - | ---------- |
   Picked  : |              321581 ns|              321586 ns|RD-NONSEQ | 48260190 | ----- |  1 | -------- |  ----  |SINGLE|    4    | 0 |           0|
             |              321581 ns|              321586 ns|RD-NONSEQ | 48260190 | ----- |  1 | -------- |  ----  |SINGLE|    4    | 0 |           0|
   Picked  : |              321586 ns|              322511 ns|RD-DATA   | 48260190 |  1/ 1 | -- | 00000000 |  OKAY  | ---- | ------- | - | ---------- |
             |              321586 ns|              322511 ns|RD-DATA   | 48260190 |  1/ 1 | -- | 00000000 |  OKAY  | ---- | ------- | - | ---------- |
   Picked  : |              323061 ns|              323066 ns|RD-NONSEQ | 48260190 | ----- |  1 | -------- |  ----  |SINGLE|    4    | 0 |           0|
             |              323061 ns|              323066 ns|RD-NONSEQ | 48260190 | ----- |  1 | -------- |  ----  |SINGLE|    4    | 0 |           0|
   Picked  : |              323066 ns|              323951 ns|RD-DATA   | 48260190 |  1/ 1 | -- | 00000000 |  OKAY  | ---- | ------- | - | ---------- |
             |              323066 ns|              323951 ns|RD-DATA   | 48260190 |  1/ 1 | -- | 00000000 |  OKAY  | ---- | ------- | - | ---------- |
   Picked  : |              324501 ns|              324506 ns|RD-NONSEQ | 48260190 | ----- |  1 | -------- |  ----  |SINGLE|    4    | 0 |           0|
             |              324501 ns|              324506 ns|RD-NONSEQ | 48260190 | ----- |  1 | -------- |  ----  |SINGLE|    4    | 0 |           0|
   Picked  : |              324506 ns|              325431 ns|RD-DATA   | 48260190 |  1/ 1 | -- | 00000000 |  OKAY  | ---- | ------- | - | ---------- |
             |              324506 ns|              325431 ns|RD-DATA   | 48260190 |  1/ 1 | -- | 00000000 |  OKAY  | ---- | ------- | - | ---------- |
   Picked  : |              325981 ns|              325986 ns|RD-NONSEQ | 48260190 | ----- |  1 | -------- |  ----  |SINGLE|    4    | 0 |           0|
             |              325981 ns|              325986 ns|RD-NONSEQ | 48260190 | ----- |  1 | -------- |  ----  |SINGLE|    4    | 0 |           0|
   Picked  : |              325986 ns|              326911 ns|RD-DATA   | 48260190 |  1/ 1 | -- | 00000000 |  OKAY  | ---- | ------- | - | ---------- |
             |              325986 ns|              326911 ns|RD-DATA   | 48260190 |  1/ 1 | -- | 00000000 |  OKAY  | ---- | ------- | - | ---------- |
   Picked  : |              327461 ns|              327466 ns|RD-NONSEQ | 48260190 | ----- |  1 | -------- |  ----  |SINGLE|    4    | 0 |           0|
             |              327461 ns|              327466 ns|RD-NONSEQ | 48260190 | ----- |  1 | -------- |  ----  |SINGLE|    4    | 0 |           0|
   Picked  : |              327466 ns|              328351 ns|RD-DATA   | 48260190 |  1/ 1 | -- | 00000000 |  OKAY  | ---- | ------- | - | ---------- |
             |              327466 ns|              328351 ns|RD-DATA   | 48260190 |  1/ 1 | -- | 00000000 |  OKAY  | ---- | ------- | - | ---------- |
   Picked  : |              328901 ns|              328906 ns|RD-NONSEQ | 48260190 | ----- |  1 | -------- |  ----  |SINGLE|    4    | 0 |           0|
             |              328901 ns|              328906 ns|RD-NONSEQ | 48260190 | ----- |  1 | -------- |  ----  |SINGLE|    4    | 0 |           0|
   Picked  : |              328906 ns|              329791 ns|RD-DATA   | 48260190 |  1/ 1 | -- | 00000000 |  OKAY  | ---- | ------- | - | ---------- |
             |              328906 ns|              329791 ns|RD-DATA   | 48260190 |  1/ 1 | -- | 00000000 |  OKAY  | ---- | ------- | - | ---------- |
   Picked  : |              330341 ns|              330346 ns|RD-NONSEQ | 48260190 | ----- |  1 | -------- |  ----  |SINGLE|    4    | 0 |           0|
             |              330341 ns|              330346 ns|RD-NONSEQ | 48260190 | ----- |  1 | -------- |  ----  |SINGLE|    4    | 0 |           0|
   Picked  : |              330346 ns|              331231 ns|RD-DATA   | 48260190 |  1/ 1 | -- | 00000000 |  OKAY  | ---- | ------- | - | ---------- |
             |              330346 ns|              331231 ns|RD-DATA   | 48260190 |  1/ 1 | -- | 00000000 |  OKAY  | ---- | ------- | - | ---------- |
   Picked  : |              331781 ns|              331786 ns|RD-NONSEQ | 48260190 | ----- |  1 | -------- |  ----  |SINGLE|    4    | 0 |           0|
             |              331781 ns|              331786 ns|RD-NONSEQ | 48260190 | ----- |  1 | -------- |  ----  |SINGLE|    4    | 0 |           0|
   Picked  : |              331786 ns|              332671 ns|RD-DATA   | 48260190 |  1/ 1 | -- | 00000000 |  OKAY  | ---- | ------- | - | ---------- |
             |              331786 ns|              332671 ns|RD-DATA   | 48260190 |  1/ 1 | -- | 00000000 |  OKAY  | ---- | ------- | - | ---------- |
   Picked  : |              333221 ns|              333226 ns|RD-NONSEQ | 48260190 | ----- |  1 | -------- |  ----  |SINGLE|    4    | 0 |           0|
             |              333221 ns|              333226 ns|RD-NONSEQ | 48260190 | ----- |  1 | -------- |  ----  |SINGLE|    4    | 0 |           0|
   Picked  : |              333226 ns|              334151 ns|RD-DATA   | 48260190 |  1/ 1 | -- | 00000000 |  OKAY  | ---- | ------- | - | ---------- |
             |              333226 ns|              334151 ns|RD-DATA   | 48260190 |  1/ 1 | -- | 00000000 |  OKAY  | ---- | ------- | - | ---------- |
   Picked  : |              334701 ns|              334706 ns|RD-NONSEQ | 48260190 | ----- |  1 | -------- |  ----  |SINGLE|    4    | 0 |           0|
             |              334701 ns|              334706 ns|RD-NONSEQ | 48260190 | ----- |  1 | -------- |  ----  |SINGLE|    4    | 0 |           0|
   Picked  : |              334706 ns|              335591 ns|RD-DATA   | 48260190 |  1/ 1 | -- | 00000001 |  OKAY  | ---- | ------- | - | ---------- |
             |              334706 ns|              335591 ns|RD-DATA   | 48260190 |  1/ 1 | -- | 00000001 |  OKAY  | ---- | ------- | - | ---------- |
   Picked  : |              335641 ns|              335646 ns|RD-NONSEQ | 4826018C | ----- |  1 | -------- |  ----  |SINGLE|    4    | 0 |           0|
             |              335641 ns|              335646 ns|RD-NONSEQ | 4826018C | ----- |  1 | -------- |  ----  |SINGLE|    4    | 0 |           0|
   Picked  : |              335646 ns|              336551 ns|RD-DATA   | 4826018C |  1/ 1 | -- | 0000623F |  OKAY  | ---- | ------- | - | ---------- |
             |              335646 ns|              336551 ns|RD-DATA   | 4826018C |  1/ 1 | -- | 0000623F |  OKAY  | ---- | ------- | - | ---------- |
   Picked  : |              336606 ns|              336611 ns|WR-NONSEQ | 4826018C | ----- |  1 | -------- |  ----  |SINGLE|    4    | 0 |           0|
             |              336606 ns|              336611 ns|WR-NONSEQ | 4826018C | ----- |  1 | -------- |  ----  |SINGLE|    4    | 0 |           0|
   Picked  : |              336611 ns|              337591 ns|WR-DATA   | 4826018C |  1/ 1 | -- | 0000623E |  OKAY  | ---- | ------- | - | ---------- |
             |              336611 ns|              337591 ns|WR-DATA   | 4826018C |  1/ 1 | -- | 0000623E |  OKAY  | ---- | ------- | - | ---------- |
   Picked  : |              337641 ns|              337646 ns|RD-NONSEQ | 4826017C | ----- |  1 | -------- |  ----  |SINGLE|    4    | 0 |           0|
             |              337641 ns|              337646 ns|RD-NONSEQ | 4826017C | ----- |  1 | -------- |  ----  |SINGLE|    4    | 0 |           0|
   Picked  : |              337646 ns|              338511 ns|RD-DATA   | 4826017C |  1/ 1 | -- | 84002040 |  OKAY  | ---- | ------- | - | ---------- |
             |              337646 ns|              338511 ns|RD-DATA   | 4826017C |  1/ 1 | -- | 84002040 |  OKAY  | ---- | ------- | - | ---------- |
   Picked  : |              338566 ns|              338571 ns|WR-NONSEQ | 4826017C | ----- |  1 | -------- |  ----  |SINGLE|    4    | 0 |           0|
             |              338566 ns|              338571 ns|WR-NONSEQ | 4826017C | ----- |  1 | -------- |  ----  |SINGLE|    4    | 0 |           0|
   Picked  : |              338571 ns|              339471 ns|WR-DATA   | 4826017C |  1/ 1 | -- | 84002041 |  OKAY  | ---- | ------- | - | ---------- |
             |              338571 ns|              339471 ns|WR-DATA   | 4826017C |  1/ 1 | -- | 84002041 |  OKAY  | ---- | ------- | - | ---------- |
   Picked  : |              339726 ns|              339731 ns|WR-NONSEQ | 4826017C | ----- |  1 | -------- |  ----  |SINGLE|    4    | 0 |           0|
             |              339726 ns|              339731 ns|WR-NONSEQ | 4826017C | ----- |  1 | -------- |  ----  |SINGLE|    4    | 0 |           0|
   Picked  : |              339731 ns|              340671 ns|WR-DATA   | 4826017C |  1/ 1 | -- | 84002001 |  OKAY  | ---- | ------- | - | ---------- |
             |              339731 ns|              340671 ns|WR-DATA   | 4826017C |  1/ 1 | -- | 84002001 |  OKAY  | ---- | ------- | - | ---------- |
   Picked  : |              341121 ns|              341126 ns|RD-NONSEQ | 482601B4 | ----- |  1 | -------- |  ----  |SINGLE|    4    | 0 |           0|
             |              341121 ns|              341126 ns|RD-NONSEQ | 482601B4 | ----- |  1 | -------- |  ----  |SINGLE|    4    | 0 |           0|
   Picked  : |              341126 ns|              341991 ns|RD-DATA   | 482601B4 |  1/ 1 | -- | 000001CB |  OKAY  | ---- | ------- | - | ---------- |
             |              341126 ns|              341991 ns|RD-DATA   | 482601B4 |  1/ 1 | -- | 000001CB |  OKAY  | ---- | ------- | - | ---------- |
   Picked  : |              342046 ns|              342051 ns|WR-NONSEQ | 482601B4 | ----- |  1 | -------- |  ----  |SINGLE|    4    | 0 |           0|
             |              342046 ns|              342051 ns|WR-NONSEQ | 482601B4 | ----- |  1 | -------- |  ----  |SINGLE|    4    | 0 |           0|
   Picked  : |              342051 ns|              342836 ns|WR-DATA   | 482601B4 |  1/ 1 | -- | 0000014B |  OKAY  | ---- | ------- | - | ---------- |
             |              342051 ns|              342836 ns|WR-DATA   | 482601B4 |  1/ 1 | -- | 0000014B |  OKAY  | ---- | ------- | - | ---------- |
   Picked  : |              342886 ns|              342891 ns|RD-NONSEQ | 482601C0 | ----- |  1 | -------- |  ----  |SINGLE|    4    | 0 |           0|
             |              342886 ns|              342891 ns|RD-NONSEQ | 482601C0 | ----- |  1 | -------- |  ----  |SINGLE|    4    | 0 |           0|
   Picked  : |              342891 ns|              343596 ns|RD-DATA   | 482601C0 |  1/ 1 | -- | 000007CB |  OKAY  | ---- | ------- | - | ---------- |
             |              342891 ns|              343596 ns|RD-DATA   | 482601C0 |  1/ 1 | -- | 000007CB |  OKAY  | ---- | ------- | - | ---------- |
   Picked  : |              343651 ns|              343656 ns|WR-NONSEQ | 482601C0 | ----- |  1 | -------- |  ----  |SINGLE|    4    | 0 |           0|
             |              343651 ns|              343656 ns|WR-NONSEQ | 482601C0 | ----- |  1 | -------- |  ----  |SINGLE|    4    | 0 |           0|
   Picked  : |              343656 ns|              344176 ns|WR-DATA   | 482601C0 |  1/ 1 | -- | 0000074B |  OKAY  | ---- | ------- | - | ---------- |
             |              343656 ns|              344176 ns|WR-DATA   | 482601C0 |  1/ 1 | -- | 0000074B |  OKAY  | ---- | ------- | - | ---------- |
   Picked  : |              344226 ns|              344231 ns|RD-NONSEQ | 48260194 | ----- |  1 | -------- |  ----  |SINGLE|    4    | 0 |           0|
             |              344226 ns|              344231 ns|RD-NONSEQ | 48260194 | ----- |  1 | -------- |  ----  |SINGLE|    4    | 0 |           0|
   Picked  : |              344231 ns|              344576 ns|RD-DATA   | 48260194 |  1/ 1 | -- | 43002E00 |  OKAY  | ---- | ------- | - | ---------- |
             |              344231 ns|              344576 ns|RD-DATA   | 48260194 |  1/ 1 | -- | 43002E00 |  OKAY  | ---- | ------- | - | ---------- |
   Picked  : |              344626 ns|              344631 ns|RD-NONSEQ | 48260164 | ----- |  1 | -------- |  ----  |SINGLE|    4    | 0 |           0|
             |              344626 ns|              344631 ns|RD-NONSEQ | 48260164 | ----- |  1 | -------- |  ----  |SINGLE|    4    | 0 |           0|
   Picked  : |              344631 ns|              344976 ns|RD-DATA   | 48260164 |  1/ 1 | -- | 20B01E01 |  OKAY  | ---- | ------- | - | ---------- |
             |              344631 ns|              344976 ns|RD-DATA   | 48260164 |  1/ 1 | -- | 20B01E01 |  OKAY  | ---- | ------- | - | ---------- |
   Picked  : |              345031 ns|              345036 ns|WR-NONSEQ | 48260194 | ----- |  1 | -------- |  ----  |SINGLE|    4    | 0 |           0|
             |              345031 ns|              345036 ns|WR-NONSEQ | 48260194 | ----- |  1 | -------- |  ----  |SINGLE|    4    | 0 |           0|
   Picked  : |              345036 ns|              345336 ns|WR-DATA   | 48260194 |  1/ 1 | -- | 43002E40 |  OKAY  | ---- | ------- | - | ---------- |
             |              345036 ns|              345336 ns|WR-DATA   | 48260194 |  1/ 1 | -- | 43002E40 |  OKAY  | ---- | ------- | - | ---------- |
   Picked  : |              345391 ns|              345396 ns|WR-NONSEQ | 48260164 | ----- |  1 | -------- |  ----  |SINGLE|    4    | 0 |           0|
             |              345391 ns|              345396 ns|WR-NONSEQ | 48260164 | ----- |  1 | -------- |  ----  |SINGLE|    4    | 0 |           0|
   Picked  : |              345396 ns|              345706 ns|WR-DATA   | 48260164 |  1/ 1 | -- | 20B01E41 |  OKAY  | ---- | ------- | - | ---------- |
             |              345396 ns|              345706 ns|WR-DATA   | 48260164 |  1/ 1 | -- | 20B01E41 |  OKAY  | ---- | ------- | - | ---------- |
   Picked  : |              345786 ns|              345791 ns|RD-NONSEQ | 48260194 | ----- |  1 | -------- |  ----  |SINGLE|    4    | 0 |           0|
             |              345786 ns|              345791 ns|RD-NONSEQ | 48260194 | ----- |  1 | -------- |  ----  |SINGLE|    4    | 0 |           0|
   Picked  : |              345791 ns|              346136 ns|RD-DATA   | 48260194 |  1/ 1 | -- | 43002E40 |  OKAY  | ---- | ------- | - | ---------- |
             |              345791 ns|              346136 ns|RD-DATA   | 48260194 |  1/ 1 | -- | 43002E40 |  OKAY  | ---- | ------- | - | ---------- |
   Picked  : |              346186 ns|              346191 ns|RD-NONSEQ | 48260164 | ----- |  1 | -------- |  ----  |SINGLE|    4    | 0 |           0|
             |              346186 ns|              346191 ns|RD-NONSEQ | 48260164 | ----- |  1 | -------- |  ----  |SINGLE|    4    | 0 |           0|
   Picked  : |              346191 ns|              346496 ns|RD-DATA   | 48260164 |  1/ 1 | -- | 20B01E41 |  OKAY  | ---- | ------- | - | ---------- |
             |              346191 ns|              346496 ns|RD-DATA   | 48260164 |  1/ 1 | -- | 20B01E41 |  OKAY  | ---- | ------- | - | ---------- |
   Picked  : |              346551 ns|              346556 ns|WR-NONSEQ | 48260194 | ----- |  1 | -------- |  ----  |SINGLE|    4    | 0 |           0|
             |              346551 ns|              346556 ns|WR-NONSEQ | 48260194 | ----- |  1 | -------- |  ----  |SINGLE|    4    | 0 |           0|
   Picked  : |              346556 ns|              346856 ns|WR-DATA   | 48260194 |  1/ 1 | -- | 43002E40 |  OKAY  | ---- | ------- | - | ---------- |
             |              346556 ns|              346856 ns|WR-DATA   | 48260194 |  1/ 1 | -- | 43002E40 |  OKAY  | ---- | ------- | - | ---------- |
   Picked  : |              346911 ns|              346916 ns|WR-NONSEQ | 48260164 | ----- |  1 | -------- |  ----  |SINGLE|    4    | 0 |           0|
             |              346911 ns|              346916 ns|WR-NONSEQ | 48260164 | ----- |  1 | -------- |  ----  |SINGLE|    4    | 0 |           0|
   Picked  : |              346916 ns|              347256 ns|WR-DATA   | 48260164 |  1/ 1 | -- | 20B01E40 |  OKAY  | ---- | ------- | - | ---------- |
             |              346916 ns|              347256 ns|WR-DATA   | 48260164 |  1/ 1 | -- | 20B01E40 |  OKAY  | ---- | ------- | - | ---------- |
   Picked  : |              347306 ns|              347311 ns|RD-NONSEQ | 48260194 | ----- |  1 | -------- |  ----  |SINGLE|    4    | 0 |           0|
             |              347306 ns|              347311 ns|RD-NONSEQ | 48260194 | ----- |  1 | -------- |  ----  |SINGLE|    4    | 0 |           0|
   Picked  : |              347311 ns|              347656 ns|RD-DATA   | 48260194 |  1/ 1 | -- | 43002E40 |  OKAY  | ---- | ------- | - | ---------- |
             |              347311 ns|              347656 ns|RD-DATA   | 48260194 |  1/ 1 | -- | 43002E40 |  OKAY  | ---- | ------- | - | ---------- |
   Picked  : |              347706 ns|              347711 ns|RD-NONSEQ | 48260164 | ----- |  1 | -------- |  ----  |SINGLE|    4    | 0 |           0|
             |              347706 ns|              347711 ns|RD-NONSEQ | 48260164 | ----- |  1 | -------- |  ----  |SINGLE|    4    | 0 |           0|
   Picked  : |              347711 ns|              348056 ns|RD-DATA   | 48260164 |  1/ 1 | -- | 20B01E40 |  OKAY  | ---- | ------- | - | ---------- |
             |              347711 ns|              348056 ns|RD-DATA   | 48260164 |  1/ 1 | -- | 20B01E40 |  OKAY  | ---- | ------- | - | ---------- |
   Picked  : |              348111 ns|              348116 ns|WR-NONSEQ | 48260194 | ----- |  1 | -------- |  ----  |SINGLE|    4    | 0 |           0|
             |              348111 ns|              348116 ns|WR-NONSEQ | 48260194 | ----- |  1 | -------- |  ----  |SINGLE|    4    | 0 |           0|
   Picked  : |              348116 ns|              348456 ns|WR-DATA   | 48260194 |  1/ 1 | -- | 43002E40 |  OKAY  | ---- | ------- | - | ---------- |
             |              348116 ns|              348456 ns|WR-DATA   | 48260194 |  1/ 1 | -- | 43002E40 |  OKAY  | ---- | ------- | - | ---------- |
   Picked  : |              348511 ns|              348516 ns|WR-NONSEQ | 48260164 | ----- |  1 | -------- |  ----  |SINGLE|    4    | 0 |           0|
             |              348511 ns|              348516 ns|WR-NONSEQ | 48260164 | ----- |  1 | -------- |  ----  |SINGLE|    4    | 0 |           0|
   Picked  : |              348516 ns|              348816 ns|WR-DATA   | 48260164 |  1/ 1 | -- | 20B01E40 |  OKAY  | ---- | ------- | - | ---------- |
             |              348516 ns|              348816 ns|WR-DATA   | 48260164 |  1/ 1 | -- | 20B01E40 |  OKAY  | ---- | ------- | - | ---------- |
   Picked  : |              349011 ns|              349016 ns|WR-NONSEQ | 48260194 | ----- |  1 | -------- |  ----  |SINGLE|    4    | 0 |           0|
             |              349011 ns|              349016 ns|WR-NONSEQ | 48260194 | ----- |  1 | -------- |  ----  |SINGLE|    4    | 0 |           0|
   Picked  : |              349016 ns|              349376 ns|WR-DATA   | 48260194 |  1/ 1 | -- | 43002E40 |  OKAY  | ---- | ------- | - | ---------- |
             |              349016 ns|              349376 ns|WR-DATA   | 48260194 |  1/ 1 | -- | 43002E40 |  OKAY  | ---- | ------- | - | ---------- |
   Picked  : |              349431 ns|              349436 ns|WR-NONSEQ | 48260164 | ----- |  1 | -------- |  ----  |SINGLE|    4    | 0 |           0|
             |              349431 ns|              349436 ns|WR-NONSEQ | 48260164 | ----- |  1 | -------- |  ----  |SINGLE|    4    | 0 |           0|
   Picked  : |              349436 ns|              349746 ns|WR-DATA   | 48260164 |  1/ 1 | -- | 20B01E40 |  OKAY  | ---- | ------- | - | ---------- |
             |              349436 ns|              349746 ns|WR-DATA   | 48260164 |  1/ 1 | -- | 20B01E40 |  OKAY  | ---- | ------- | - | ---------- |
   Picked  : |              349801 ns|              349806 ns|WR-NONSEQ | 48260194 | ----- |  1 | -------- |  ----  |SINGLE|    4    | 0 |           0|
             |              349801 ns|              349806 ns|WR-NONSEQ | 48260194 | ----- |  1 | -------- |  ----  |SINGLE|    4    | 0 |           0|
   Picked  : |              349806 ns|              350136 ns|WR-DATA   | 48260194 |  1/ 1 | -- | 83002E40 |  OKAY  | ---- | ------- | - | ---------- |
             |              349806 ns|              350136 ns|WR-DATA   | 48260194 |  1/ 1 | -- | 83002E40 |  OKAY  | ---- | ------- | - | ---------- |
   Picked  : |              350191 ns|              350196 ns|WR-NONSEQ | 48260164 | ----- |  1 | -------- |  ----  |SINGLE|    4    | 0 |           0|
             |              350191 ns|              350196 ns|WR-NONSEQ | 48260164 | ----- |  1 | -------- |  ----  |SINGLE|    4    | 0 |           0|
   Picked  : |              350196 ns|              350536 ns|WR-DATA   | 48260164 |  1/ 1 | -- | 42C02E40 |  OKAY  | ---- | ------- | - | ---------- |
             |              350196 ns|              350536 ns|WR-DATA   | 48260164 |  1/ 1 | -- | 42C02E40 |  OKAY  | ---- | ------- | - | ---------- |
   Picked  : |              350591 ns|              350596 ns|WR-NONSEQ | 48260194 | ----- |  1 | -------- |  ----  |SINGLE|    4    | 0 |           0|
             |              350591 ns|              350596 ns|WR-NONSEQ | 48260194 | ----- |  1 | -------- |  ----  |SINGLE|    4    | 0 |           0|
   Picked  : |              350596 ns|              350936 ns|WR-DATA   | 48260194 |  1/ 1 | -- | 83002240 |  OKAY  | ---- | ------- | - | ---------- |
             |              350596 ns|              350936 ns|WR-DATA   | 48260194 |  1/ 1 | -- | 83002240 |  OKAY  | ---- | ------- | - | ---------- |
   Picked  : |              350991 ns|              350996 ns|WR-NONSEQ | 48260164 | ----- |  1 | -------- |  ----  |SINGLE|    4    | 0 |           0|
             |              350991 ns|              350996 ns|WR-NONSEQ | 48260164 | ----- |  1 | -------- |  ----  |SINGLE|    4    | 0 |           0|
   Picked  : |              350996 ns|              351296 ns|WR-DATA   | 48260164 |  1/ 1 | -- | 42C02240 |  OKAY  | ---- | ------- | - | ---------- |
             |              350996 ns|              351296 ns|WR-DATA   | 48260164 |  1/ 1 | -- | 42C02240 |  OKAY  | ---- | ------- | - | ---------- |
   Picked  : |              360991 ns|              360996 ns|WR-NONSEQ | 48260194 | ----- |  1 | -------- |  ----  |SINGLE|    4    | 0 |           0|
             |              360991 ns|              360996 ns|WR-NONSEQ | 48260194 | ----- |  1 | -------- |  ----  |SINGLE|    4    | 0 |           0|
   Picked  : |              360996 ns|              361296 ns|WR-DATA   | 48260194 |  1/ 1 | -- | 83002040 |  OKAY  | ---- | ------- | - | ---------- |
             |              360996 ns|              361296 ns|WR-DATA   | 48260194 |  1/ 1 | -- | 83002040 |  OKAY  | ---- | ------- | - | ---------- |
   Picked  : |              361351 ns|              361356 ns|WR-NONSEQ | 48260164 | ----- |  1 | -------- |  ----  |SINGLE|    4    | 0 |           0|
             |              361351 ns|              361356 ns|WR-NONSEQ | 48260164 | ----- |  1 | -------- |  ----  |SINGLE|    4    | 0 |           0|
   Picked  : |              361356 ns|              361666 ns|WR-DATA   | 48260164 |  1/ 1 | -- | 42C02040 |  OKAY  | ---- | ------- | - | ---------- |
             |              361356 ns|              361666 ns|WR-DATA   | 48260164 |  1/ 1 | -- | 42C02040 |  OKAY  | ---- | ------- | - | ---------- |
   Picked  : |              361846 ns|              361851 ns|RD-NONSEQ | 482601A8 | ----- |  1 | -------- |  ----  |SINGLE|    4    | 0 |           0|
             |              361846 ns|              361851 ns|RD-NONSEQ | 482601A8 | ----- |  1 | -------- |  ----  |SINGLE|    4    | 0 |           0|
   Picked  : |              361851 ns|              362176 ns|RD-DATA   | 482601A8 |  1/ 1 | -- | 00000000 |  OKAY  | ---- | ------- | - | ---------- |
             |              361851 ns|              362176 ns|RD-DATA   | 482601A8 |  1/ 1 | -- | 00000000 |  OKAY  | ---- | ------- | - | ---------- |
   Picked  : |              362226 ns|              362231 ns|RD-NONSEQ | 48260178 | ----- |  1 | -------- |  ----  |SINGLE|    4    | 0 |           0|
             |              362226 ns|              362231 ns|RD-NONSEQ | 48260178 | ----- |  1 | -------- |  ----  |SINGLE|    4    | 0 |           0|
   Picked  : |              362231 ns|              362576 ns|RD-DATA   | 48260178 |  1/ 1 | -- | 00000000 |  OKAY  | ---- | ------- | - | ---------- |
             |              362231 ns|              362576 ns|RD-DATA   | 48260178 |  1/ 1 | -- | 00000000 |  OKAY  | ---- | ------- | - | ---------- |
   Picked  : |              362726 ns|              362731 ns|RD-NONSEQ | 482601A8 | ----- |  1 | -------- |  ----  |SINGLE|    4    | 0 |           0|
             |              362726 ns|              362731 ns|RD-NONSEQ | 482601A8 | ----- |  1 | -------- |  ----  |SINGLE|    4    | 0 |           0|
   Picked  : |              362731 ns|              363056 ns|RD-DATA   | 482601A8 |  1/ 1 | -- | 00000000 |  OKAY  | ---- | ------- | - | ---------- |
             |              362731 ns|              363056 ns|RD-DATA   | 482601A8 |  1/ 1 | -- | 00000000 |  OKAY  | ---- | ------- | - | ---------- |
   Picked  : |              363126 ns|              363131 ns|RD-NONSEQ | 48260178 | ----- |  1 | -------- |  ----  |SINGLE|    4    | 0 |           0|
             |              363126 ns|              363131 ns|RD-NONSEQ | 48260178 | ----- |  1 | -------- |  ----  |SINGLE|    4    | 0 |           0|
   Picked  : |              363131 ns|              363466 ns|RD-DATA   | 48260178 |  1/ 1 | -- | 00000000 |  OKAY  | ---- | ------- | - | ---------- |
             |              363131 ns|              363466 ns|RD-DATA   | 48260178 |  1/ 1 | -- | 00000000 |  OKAY  | ---- | ------- | - | ---------- |
   Picked  : |              363606 ns|              363611 ns|RD-NONSEQ | 482601A8 | ----- |  1 | -------- |  ----  |SINGLE|    4    | 0 |           0|
             |              363606 ns|              363611 ns|RD-NONSEQ | 482601A8 | ----- |  1 | -------- |  ----  |SINGLE|    4    | 0 |           0|
   Picked  : |              363611 ns|              363946 ns|RD-DATA   | 482601A8 |  1/ 1 | -- | 00000000 |  OKAY  | ---- | ------- | - | ---------- |
             |              363611 ns|              363946 ns|RD-DATA   | 482601A8 |  1/ 1 | -- | 00000000 |  OKAY  | ---- | ------- | - | ---------- |
   Picked  : |              364016 ns|              364021 ns|RD-NONSEQ | 48260178 | ----- |  1 | -------- |  ----  |SINGLE|    4    | 0 |           0|
             |              364016 ns|              364021 ns|RD-NONSEQ | 48260178 | ----- |  1 | -------- |  ----  |SINGLE|    4    | 0 |           0|
   Picked  : |              364021 ns|              364346 ns|RD-DATA   | 48260178 |  1/ 1 | -- | 00000000 |  OKAY  | ---- | ------- | - | ---------- |
             |              364021 ns|              364346 ns|RD-DATA   | 48260178 |  1/ 1 | -- | 00000000 |  OKAY  | ---- | ------- | - | ---------- |
   Picked  : |              364496 ns|              364501 ns|RD-NONSEQ | 482601A8 | ----- |  1 | -------- |  ----  |SINGLE|    4    | 0 |           0|
             |              364496 ns|              364501 ns|RD-NONSEQ | 482601A8 | ----- |  1 | -------- |  ----  |SINGLE|    4    | 0 |           0|
   Picked  : |              364501 ns|              364856 ns|RD-DATA   | 482601A8 |  1/ 1 | -- | 00000000 |  OKAY  | ---- | ------- | - | ---------- |
             |              364501 ns|              364856 ns|RD-DATA   | 482601A8 |  1/ 1 | -- | 00000000 |  OKAY  | ---- | ------- | - | ---------- |
   Picked  : |              364906 ns|              364911 ns|RD-NONSEQ | 48260178 | ----- |  1 | -------- |  ----  |SINGLE|    4    | 0 |           0|
             |              364906 ns|              364911 ns|RD-NONSEQ | 48260178 | ----- |  1 | -------- |  ----  |SINGLE|    4    | 0 |           0|
   Picked  : |              364911 ns|              365216 ns|RD-DATA   | 48260178 |  1/ 1 | -- | 00000000 |  OKAY  | ---- | ------- | - | ---------- |
             |              364911 ns|              365216 ns|RD-DATA   | 48260178 |  1/ 1 | -- | 00000000 |  OKAY  | ---- | ------- | - | ---------- |
   Picked  : |              365406 ns|              365411 ns|RD-NONSEQ | 482601A8 | ----- |  1 | -------- |  ----  |SINGLE|    4    | 0 |           0|
             |              365406 ns|              365411 ns|RD-NONSEQ | 482601A8 | ----- |  1 | -------- |  ----  |SINGLE|    4    | 0 |           0|
   Picked  : |              365411 ns|              365776 ns|RD-DATA   | 482601A8 |  1/ 1 | -- | 00000000 |  OKAY  | ---- | ------- | - | ---------- |
             |              365411 ns|              365776 ns|RD-DATA   | 482601A8 |  1/ 1 | -- | 00000000 |  OKAY  | ---- | ------- | - | ---------- |
   Picked  : |              365826 ns|              365831 ns|RD-NONSEQ | 48260178 | ----- |  1 | -------- |  ----  |SINGLE|    4    | 0 |           0|
             |              365826 ns|              365831 ns|RD-NONSEQ | 48260178 | ----- |  1 | -------- |  ----  |SINGLE|    4    | 0 |           0|
   Picked  : |              365831 ns|              366146 ns|RD-DATA   | 48260178 |  1/ 1 | -- | 00000000 |  OKAY  | ---- | ------- | - | ---------- |
             |              365831 ns|              366146 ns|RD-DATA   | 48260178 |  1/ 1 | -- | 00000000 |  OKAY  | ---- | ------- | - | ---------- |
   Picked  : |              366326 ns|              366331 ns|RD-NONSEQ | 482601A8 | ----- |  1 | -------- |  ----  |SINGLE|    4    | 0 |           0|
             |              366326 ns|              366331 ns|RD-NONSEQ | 482601A8 | ----- |  1 | -------- |  ----  |SINGLE|    4    | 0 |           0|
   Picked  : |              366331 ns|              366666 ns|RD-DATA   | 482601A8 |  1/ 1 | -- | 00000000 |  OKAY  | ---- | ------- | - | ---------- |
             |              366331 ns|              366666 ns|RD-DATA   | 482601A8 |  1/ 1 | -- | 00000000 |  OKAY  | ---- | ------- | - | ---------- |
   Picked  : |              366716 ns|              366721 ns|RD-NONSEQ | 48260178 | ----- |  1 | -------- |  ----  |SINGLE|    4    | 0 |           0|
             |              366716 ns|              366721 ns|RD-NONSEQ | 48260178 | ----- |  1 | -------- |  ----  |SINGLE|    4    | 0 |           0|
   Picked  : |              366721 ns|              367016 ns|RD-DATA   | 48260178 |  1/ 1 | -- | 00000000 |  OKAY  | ---- | ------- | - | ---------- |
             |              366721 ns|              367016 ns|RD-DATA   | 48260178 |  1/ 1 | -- | 00000000 |  OKAY  | ---- | ------- | - | ---------- |
   Picked  : |              367216 ns|              367221 ns|RD-NONSEQ | 482601A8 | ----- |  1 | -------- |  ----  |SINGLE|    4    | 0 |           0|
             |              367216 ns|              367221 ns|RD-NONSEQ | 482601A8 | ----- |  1 | -------- |  ----  |SINGLE|    4    | 0 |           0|
   Picked  : |              367221 ns|              367536 ns|RD-DATA   | 482601A8 |  1/ 1 | -- | 00000000 |  OKAY  | ---- | ------- | - | ---------- |
             |              367221 ns|              367536 ns|RD-DATA   | 482601A8 |  1/ 1 | -- | 00000000 |  OKAY  | ---- | ------- | - | ---------- |
   Picked  : |              367586 ns|              367591 ns|RD-NONSEQ | 48260178 | ----- |  1 | -------- |  ----  |SINGLE|    4    | 0 |           0|
             |              367586 ns|              367591 ns|RD-NONSEQ | 48260178 | ----- |  1 | -------- |  ----  |SINGLE|    4    | 0 |           0|
   Picked  : |              367591 ns|              367896 ns|RD-DATA   | 48260178 |  1/ 1 | -- | 00000000 |  OKAY  | ---- | ------- | - | ---------- |
             |              367591 ns|              367896 ns|RD-DATA   | 48260178 |  1/ 1 | -- | 00000000 |  OKAY  | ---- | ------- | - | ---------- |
   Picked  : |              368086 ns|              368091 ns|RD-NONSEQ | 482601A8 | ----- |  1 | -------- |  ----  |SINGLE|    4    | 0 |           0|
             |              368086 ns|              368091 ns|RD-NONSEQ | 482601A8 | ----- |  1 | -------- |  ----  |SINGLE|    4    | 0 |           0|
   Picked  : |              368091 ns|              368416 ns|RD-DATA   | 482601A8 |  1/ 1 | -- | 00000000 |  OKAY  | ---- | ------- | - | ---------- |
             |              368091 ns|              368416 ns|RD-DATA   | 482601A8 |  1/ 1 | -- | 00000000 |  OKAY  | ---- | ------- | - | ---------- |
   Picked  : |              368466 ns|              368471 ns|RD-NONSEQ | 48260178 | ----- |  1 | -------- |  ----  |SINGLE|    4    | 0 |           0|
             |              368466 ns|              368471 ns|RD-NONSEQ | 48260178 | ----- |  1 | -------- |  ----  |SINGLE|    4    | 0 |           0|
   Picked  : |              368471 ns|              368776 ns|RD-DATA   | 48260178 |  1/ 1 | -- | 00000000 |  OKAY  | ---- | ------- | - | ---------- |
             |              368471 ns|              368776 ns|RD-DATA   | 48260178 |  1/ 1 | -- | 00000000 |  OKAY  | ---- | ------- | - | ---------- |
   Picked  : |              368966 ns|              368971 ns|RD-NONSEQ | 482601A8 | ----- |  1 | -------- |  ----  |SINGLE|    4    | 0 |           0|
             |              368966 ns|              368971 ns|RD-NONSEQ | 482601A8 | ----- |  1 | -------- |  ----  |SINGLE|    4    | 0 |           0|
   Picked  : |              368971 ns|              369296 ns|RD-DATA   | 482601A8 |  1/ 1 | -- | 00000000 |  OKAY  | ---- | ------- | - | ---------- |
             |              368971 ns|              369296 ns|RD-DATA   | 482601A8 |  1/ 1 | -- | 00000000 |  OKAY  | ---- | ------- | - | ---------- |
   Picked  : |              369346 ns|              369351 ns|RD-NONSEQ | 48260178 | ----- |  1 | -------- |  ----  |SINGLE|    4    | 0 |           0|
             |              369346 ns|              369351 ns|RD-NONSEQ | 48260178 | ----- |  1 | -------- |  ----  |SINGLE|    4    | 0 |           0|
   Picked  : |              369351 ns|              369666 ns|RD-DATA   | 48260178 |  1/ 1 | -- | 00000000 |  OKAY  | ---- | ------- | - | ---------- |
             |              369351 ns|              369666 ns|RD-DATA   | 48260178 |  1/ 1 | -- | 00000000 |  OKAY  | ---- | ------- | - | ---------- |
   Picked  : |              369846 ns|              369851 ns|RD-NONSEQ | 482601A8 | ----- |  1 | -------- |  ----  |SINGLE|    4    | 0 |           0|
             |              369846 ns|              369851 ns|RD-NONSEQ | 482601A8 | ----- |  1 | -------- |  ----  |SINGLE|    4    | 0 |           0|
   Picked  : |              369851 ns|              370186 ns|RD-DATA   | 482601A8 |  1/ 1 | -- | 00000000 |  OKAY  | ---- | ------- | - | ---------- |
             |              369851 ns|              370186 ns|RD-DATA   | 482601A8 |  1/ 1 | -- | 00000000 |  OKAY  | ---- | ------- | - | ---------- |
   Picked  : |              370236 ns|              370241 ns|RD-NONSEQ | 48260178 | ----- |  1 | -------- |  ----  |SINGLE|    4    | 0 |           0|
             |              370236 ns|              370241 ns|RD-NONSEQ | 48260178 | ----- |  1 | -------- |  ----  |SINGLE|    4    | 0 |           0|
   Picked  : |              370241 ns|              370546 ns|RD-DATA   | 48260178 |  1/ 1 | -- | 00000000 |  OKAY  | ---- | ------- | - | ---------- |
             |              370241 ns|              370546 ns|RD-DATA   | 48260178 |  1/ 1 | -- | 00000000 |  OKAY  | ---- | ------- | - | ---------- |
   Picked  : |              370736 ns|              370741 ns|RD-NONSEQ | 482601A8 | ----- |  1 | -------- |  ----  |SINGLE|    4    | 0 |           0|
             |              370736 ns|              370741 ns|RD-NONSEQ | 482601A8 | ----- |  1 | -------- |  ----  |SINGLE|    4    | 0 |           0|
   Picked  : |              370741 ns|              371056 ns|RD-DATA   | 482601A8 |  1/ 1 | -- | 00000000 |  OKAY  | ---- | ------- | - | ---------- |
             |              370741 ns|              371056 ns|RD-DATA   | 482601A8 |  1/ 1 | -- | 00000000 |  OKAY  | ---- | ------- | - | ---------- |
   Picked  : |              371106 ns|              371111 ns|RD-NONSEQ | 48260178 | ----- |  1 | -------- |  ----  |SINGLE|    4    | 0 |           0|
             |              371106 ns|              371111 ns|RD-NONSEQ | 48260178 | ----- |  1 | -------- |  ----  |SINGLE|    4    | 0 |           0|
   Picked  : |              371111 ns|              371426 ns|RD-DATA   | 48260178 |  1/ 1 | -- | 00000000 |  OKAY  | ---- | ------- | - | ---------- |
             |              371111 ns|              371426 ns|RD-DATA   | 48260178 |  1/ 1 | -- | 00000000 |  OKAY  | ---- | ------- | - | ---------- |
   Picked  : |              371606 ns|              371611 ns|RD-NONSEQ | 482601A8 | ----- |  1 | -------- |  ----  |SINGLE|    4    | 0 |           0|
             |              371606 ns|              371611 ns|RD-NONSEQ | 482601A8 | ----- |  1 | -------- |  ----  |SINGLE|    4    | 0 |           0|
   Picked  : |              371611 ns|              371936 ns|RD-DATA   | 482601A8 |  1/ 1 | -- | 00000000 |  OKAY  | ---- | ------- | - | ---------- |
             |              371611 ns|              371936 ns|RD-DATA   | 482601A8 |  1/ 1 | -- | 00000000 |  OKAY  | ---- | ------- | - | ---------- |
   Picked  : |              371986 ns|              371991 ns|RD-NONSEQ | 48260178 | ----- |  1 | -------- |  ----  |SINGLE|    4    | 0 |           0|
             |              371986 ns|              371991 ns|RD-NONSEQ | 48260178 | ----- |  1 | -------- |  ----  |SINGLE|    4    | 0 |           0|
   Picked  : |              371991 ns|              372296 ns|RD-DATA   | 48260178 |  1/ 1 | -- | 00000000 |  OKAY  | ---- | ------- | - | ---------- |
             |              371991 ns|              372296 ns|RD-DATA   | 48260178 |  1/ 1 | -- | 00000000 |  OKAY  | ---- | ------- | - | ---------- |
   Picked  : |              372486 ns|              372491 ns|RD-NONSEQ | 482601A8 | ----- |  1 | -------- |  ----  |SINGLE|    4    | 0 |           0|
             |              372486 ns|              372491 ns|RD-NONSEQ | 482601A8 | ----- |  1 | -------- |  ----  |SINGLE|    4    | 0 |           0|
   Picked  : |              372491 ns|              372816 ns|RD-DATA   | 482601A8 |  1/ 1 | -- | 00000000 |  OKAY  | ---- | ------- | - | ---------- |
             |              372491 ns|              372816 ns|RD-DATA   | 482601A8 |  1/ 1 | -- | 00000000 |  OKAY  | ---- | ------- | - | ---------- |
   Picked  : |              372866 ns|              372871 ns|RD-NONSEQ | 48260178 | ----- |  1 | -------- |  ----  |SINGLE|    4    | 0 |           0|
             |              372866 ns|              372871 ns|RD-NONSEQ | 48260178 | ----- |  1 | -------- |  ----  |SINGLE|    4    | 0 |           0|
   Picked  : |              372871 ns|              373186 ns|RD-DATA   | 48260178 |  1/ 1 | -- | 00000000 |  OKAY  | ---- | ------- | - | ---------- |
             |              372871 ns|              373186 ns|RD-DATA   | 48260178 |  1/ 1 | -- | 00000000 |  OKAY  | ---- | ------- | - | ---------- |
   Picked  : |              373366 ns|              373371 ns|RD-NONSEQ | 482601A8 | ----- |  1 | -------- |  ----  |SINGLE|    4    | 0 |           0|
             |              373366 ns|              373371 ns|RD-NONSEQ | 482601A8 | ----- |  1 | -------- |  ----  |SINGLE|    4    | 0 |           0|
   Picked  : |              373371 ns|              373696 ns|RD-DATA   | 482601A8 |  1/ 1 | -- | 00000000 |  OKAY  | ---- | ------- | - | ---------- |
             |              373371 ns|              373696 ns|RD-DATA   | 482601A8 |  1/ 1 | -- | 00000000 |  OKAY  | ---- | ------- | - | ---------- |
   Picked  : |              373746 ns|              373751 ns|RD-NONSEQ | 48260178 | ----- |  1 | -------- |  ----  |SINGLE|    4    | 0 |           0|
             |              373746 ns|              373751 ns|RD-NONSEQ | 48260178 | ----- |  1 | -------- |  ----  |SINGLE|    4    | 0 |           0|
   Picked  : |              373751 ns|              374056 ns|RD-DATA   | 48260178 |  1/ 1 | -- | 00000000 |  OKAY  | ---- | ------- | - | ---------- |
             |              373751 ns|              374056 ns|RD-DATA   | 48260178 |  1/ 1 | -- | 00000000 |  OKAY  | ---- | ------- | - | ---------- |
   Picked  : |              374246 ns|              374251 ns|RD-NONSEQ | 482601A8 | ----- |  1 | -------- |  ----  |SINGLE|    4    | 0 |           0|
             |              374246 ns|              374251 ns|RD-NONSEQ | 482601A8 | ----- |  1 | -------- |  ----  |SINGLE|    4    | 0 |           0|
   Picked  : |              374251 ns|              374576 ns|RD-DATA   | 482601A8 |  1/ 1 | -- | 00000000 |  OKAY  | ---- | ------- | - | ---------- |
             |              374251 ns|              374576 ns|RD-DATA   | 482601A8 |  1/ 1 | -- | 00000000 |  OKAY  | ---- | ------- | - | ---------- |
   Picked  : |              374626 ns|              374631 ns|RD-NONSEQ | 48260178 | ----- |  1 | -------- |  ----  |SINGLE|    4    | 0 |           0|
             |              374626 ns|              374631 ns|RD-NONSEQ | 48260178 | ----- |  1 | -------- |  ----  |SINGLE|    4    | 0 |           0|
   Picked  : |              374631 ns|              374936 ns|RD-DATA   | 48260178 |  1/ 1 | -- | 00000000 |  OKAY  | ---- | ------- | - | ---------- |
             |              374631 ns|              374936 ns|RD-DATA   | 48260178 |  1/ 1 | -- | 00000000 |  OKAY  | ---- | ------- | - | ---------- |
   Picked  : |              375126 ns|              375131 ns|RD-NONSEQ | 482601A8 | ----- |  1 | -------- |  ----  |SINGLE|    4    | 0 |           0|
             |              375126 ns|              375131 ns|RD-NONSEQ | 482601A8 | ----- |  1 | -------- |  ----  |SINGLE|    4    | 0 |           0|
   Picked  : |              375131 ns|              375456 ns|RD-DATA   | 482601A8 |  1/ 1 | -- | 00000001 |  OKAY  | ---- | ------- | - | ---------- |
             |              375131 ns|              375456 ns|RD-DATA   | 482601A8 |  1/ 1 | -- | 00000001 |  OKAY  | ---- | ------- | - | ---------- |
   Picked  : |              375506 ns|              375511 ns|RD-NONSEQ | 48260178 | ----- |  1 | -------- |  ----  |SINGLE|    4    | 0 |           0|
             |              375506 ns|              375511 ns|RD-NONSEQ | 48260178 | ----- |  1 | -------- |  ----  |SINGLE|    4    | 0 |           0|
   Picked  : |              375511 ns|              375816 ns|RD-DATA   | 48260178 |  1/ 1 | -- | 00000001 |  OKAY  | ---- | ------- | - | ---------- |
             |              375511 ns|              375816 ns|RD-DATA   | 48260178 |  1/ 1 | -- | 00000001 |  OKAY  | ---- | ------- | - | ---------- |
   Picked  : |              375866 ns|              375871 ns|RD-NONSEQ | 482601A4 | ----- |  1 | -------- |  ----  |SINGLE|    4    | 0 |           0|
             |              375866 ns|              375871 ns|RD-NONSEQ | 482601A4 | ----- |  1 | -------- |  ----  |SINGLE|    4    | 0 |           0|
   Picked  : |              375871 ns|              376176 ns|RD-DATA   | 482601A4 |  1/ 1 | -- | 0000623F |  OKAY  | ---- | ------- | - | ---------- |
             |              375871 ns|              376176 ns|RD-DATA   | 482601A4 |  1/ 1 | -- | 0000623F |  OKAY  | ---- | ------- | - | ---------- |
   Picked  : |              376226 ns|              376231 ns|RD-NONSEQ | 48260174 | ----- |  1 | -------- |  ----  |SINGLE|    4    | 0 |           0|
             |              376226 ns|              376231 ns|RD-NONSEQ | 48260174 | ----- |  1 | -------- |  ----  |SINGLE|    4    | 0 |           0|
   Picked  : |              376231 ns|              376536 ns|RD-DATA   | 48260174 |  1/ 1 | -- | 0000623F |  OKAY  | ---- | ------- | - | ---------- |
             |              376231 ns|              376536 ns|RD-DATA   | 48260174 |  1/ 1 | -- | 0000623F |  OKAY  | ---- | ------- | - | ---------- |
   Picked  : |              376591 ns|              376596 ns|WR-NONSEQ | 482601A4 | ----- |  1 | -------- |  ----  |SINGLE|    4    | 0 |           0|
             |              376591 ns|              376596 ns|WR-NONSEQ | 482601A4 | ----- |  1 | -------- |  ----  |SINGLE|    4    | 0 |           0|
   Picked  : |              376596 ns|              376896 ns|WR-DATA   | 482601A4 |  1/ 1 | -- | 0000623E |  OKAY  | ---- | ------- | - | ---------- |
             |              376596 ns|              376896 ns|WR-DATA   | 482601A4 |  1/ 1 | -- | 0000623E |  OKAY  | ---- | ------- | - | ---------- |
   Picked  : |              376951 ns|              376956 ns|WR-NONSEQ | 48260174 | ----- |  1 | -------- |  ----  |SINGLE|    4    | 0 |           0|
             |              376951 ns|              376956 ns|WR-NONSEQ | 48260174 | ----- |  1 | -------- |  ----  |SINGLE|    4    | 0 |           0|
   Picked  : |              376956 ns|              377256 ns|WR-DATA   | 48260174 |  1/ 1 | -- | 0000623E |  OKAY  | ---- | ------- | - | ---------- |
             |              376956 ns|              377256 ns|WR-DATA   | 48260174 |  1/ 1 | -- | 0000623E |  OKAY  | ---- | ------- | - | ---------- |
   Picked  : |              377306 ns|              377311 ns|RD-NONSEQ | 48260194 | ----- |  1 | -------- |  ----  |SINGLE|    4    | 0 |           0|
             |              377306 ns|              377311 ns|RD-NONSEQ | 48260194 | ----- |  1 | -------- |  ----  |SINGLE|    4    | 0 |           0|
   Picked  : |              377311 ns|              377616 ns|RD-DATA   | 48260194 |  1/ 1 | -- | 83002040 |  OKAY  | ---- | ------- | - | ---------- |
             |              377311 ns|              377616 ns|RD-DATA   | 48260194 |  1/ 1 | -- | 83002040 |  OKAY  | ---- | ------- | - | ---------- |
   Picked  : |              377666 ns|              377671 ns|RD-NONSEQ | 48260164 | ----- |  1 | -------- |  ----  |SINGLE|    4    | 0 |           0|
             |              377666 ns|              377671 ns|RD-NONSEQ | 48260164 | ----- |  1 | -------- |  ----  |SINGLE|    4    | 0 |           0|
   Picked  : |              377671 ns|              377986 ns|RD-DATA   | 48260164 |  1/ 1 | -- | 42C02040 |  OKAY  | ---- | ------- | - | ---------- |
             |              377671 ns|              377986 ns|RD-DATA   | 48260164 |  1/ 1 | -- | 42C02040 |  OKAY  | ---- | ------- | - | ---------- |
   Picked  : |              378041 ns|              378046 ns|WR-NONSEQ | 48260194 | ----- |  1 | -------- |  ----  |SINGLE|    4    | 0 |           0|
             |              378041 ns|              378046 ns|WR-NONSEQ | 48260194 | ----- |  1 | -------- |  ----  |SINGLE|    4    | 0 |           0|
   Picked  : |              378046 ns|              378386 ns|WR-DATA   | 48260194 |  1/ 1 | -- | 83002041 |  OKAY  | ---- | ------- | - | ---------- |
             |              378046 ns|              378386 ns|WR-DATA   | 48260194 |  1/ 1 | -- | 83002041 |  OKAY  | ---- | ------- | - | ---------- |
   Picked  : |              378441 ns|              378446 ns|WR-NONSEQ | 48260164 | ----- |  1 | -------- |  ----  |SINGLE|    4    | 0 |           0|
             |              378441 ns|              378446 ns|WR-NONSEQ | 48260164 | ----- |  1 | -------- |  ----  |SINGLE|    4    | 0 |           0|
   Picked  : |              378446 ns|              378776 ns|WR-DATA   | 48260164 |  1/ 1 | -- | 42C02041 |  OKAY  | ---- | ------- | - | ---------- |
             |              378446 ns|              378776 ns|WR-DATA   | 48260164 |  1/ 1 | -- | 42C02041 |  OKAY  | ---- | ------- | - | ---------- |
   Picked  : |              378831 ns|              378836 ns|WR-NONSEQ | 48260194 | ----- |  1 | -------- |  ----  |SINGLE|    4    | 0 |           0|
             |              378831 ns|              378836 ns|WR-NONSEQ | 48260194 | ----- |  1 | -------- |  ----  |SINGLE|    4    | 0 |           0|
   Picked  : |              378836 ns|              379176 ns|WR-DATA   | 48260194 |  1/ 1 | -- | 83002001 |  OKAY  | ---- | ------- | - | ---------- |
             |              378836 ns|              379176 ns|WR-DATA   | 48260194 |  1/ 1 | -- | 83002001 |  OKAY  | ---- | ------- | - | ---------- |
   Picked  : |              379231 ns|              379236 ns|WR-NONSEQ | 48260164 | ----- |  1 | -------- |  ----  |SINGLE|    4    | 0 |           0|
             |              379231 ns|              379236 ns|WR-NONSEQ | 48260164 | ----- |  1 | -------- |  ----  |SINGLE|    4    | 0 |           0|
   Picked  : |              379236 ns|              379536 ns|WR-DATA   | 48260164 |  1/ 1 | -- | 42C02001 |  OKAY  | ---- | ------- | - | ---------- |
             |              379236 ns|              379536 ns|WR-DATA   | 48260164 |  1/ 1 | -- | 42C02001 |  OKAY  | ---- | ------- | - | ---------- |
   Picked  : |              379986 ns|              379991 ns|RD-NONSEQ | 482601AC | ----- |  1 | -------- |  ----  |SINGLE|    4    | 0 |           0|
             |              379986 ns|              379991 ns|RD-NONSEQ | 482601AC | ----- |  1 | -------- |  ----  |SINGLE|    4    | 0 |           0|
   Picked  : |              379991 ns|              380346 ns|RD-DATA   | 482601AC |  1/ 1 | -- | 000000CD |  OKAY  | ---- | ------- | - | ---------- |
             |              379991 ns|              380346 ns|RD-DATA   | 482601AC |  1/ 1 | -- | 000000CD |  OKAY  | ---- | ------- | - | ---------- |
   Picked  : |              380401 ns|              380406 ns|WR-NONSEQ | 482601AC | ----- |  1 | -------- |  ----  |SINGLE|    4    | 0 |           0|
             |              380401 ns|              380406 ns|WR-NONSEQ | 482601AC | ----- |  1 | -------- |  ----  |SINGLE|    4    | 0 |           0|
   Picked  : |              380406 ns|              380746 ns|WR-DATA   | 482601AC |  1/ 1 | -- | 0000004D |  OKAY  | ---- | ------- | - | ---------- |
             |              380406 ns|              380746 ns|WR-DATA   | 482601AC |  1/ 1 | -- | 0000004D |  OKAY  | ---- | ------- | - | ---------- |
   Picked  : |              380801 ns|              380806 ns|WR-NONSEQ | 482601C8 | ----- |  1 | -------- |  ----  |SINGLE|    4    | 0 |           0|
             |              380801 ns|              380806 ns|WR-NONSEQ | 482601C8 | ----- |  1 | -------- |  ----  |SINGLE|    4    | 0 |           0|
   Picked  : |              380806 ns|              381136 ns|WR-DATA   | 482601C8 |  1/ 1 | -- | FFFFFFFF |  OKAY  | ---- | ------- | - | ---------- |
             |              380806 ns|              381136 ns|WR-DATA   | 482601C8 |  1/ 1 | -- | FFFFFFFF |  OKAY  | ---- | ------- | - | ---------- |
   Picked  : |              381191 ns|              381196 ns|WR-NONSEQ | 482601C4 | ----- |  1 | -------- |  ----  |SINGLE|    4    | 0 |           0|
             |              381191 ns|              381196 ns|WR-NONSEQ | 482601C4 | ----- |  1 | -------- |  ----  |SINGLE|    4    | 0 |           0|
   Picked  : |              381196 ns|              381496 ns|WR-DATA   | 482601C4 |  1/ 1 | -- | FFFFFFFF |  OKAY  | ---- | ------- | - | ---------- |
             |              381196 ns|              381496 ns|WR-DATA   | 482601C4 |  1/ 1 | -- | FFFFFFFF |  OKAY  | ---- | ------- | - | ---------- |
   Picked  : |              381546 ns|              381551 ns|RD-NONSEQ | 482601B8 | ----- |  1 | -------- |  ----  |SINGLE|    4    | 0 |           0|
             |              381546 ns|              381551 ns|RD-NONSEQ | 482601B8 | ----- |  1 | -------- |  ----  |SINGLE|    4    | 0 |           0|
   Picked  : |              381551 ns|              381866 ns|RD-DATA   | 482601B8 |  1/ 1 | -- | 0000000A |  OKAY  | ---- | ------- | - | ---------- |
             |              381551 ns|              381866 ns|RD-DATA   | 482601B8 |  1/ 1 | -- | 0000000A |  OKAY  | ---- | ------- | - | ---------- |
   Picked  : |              381921 ns|              381926 ns|WR-NONSEQ | 482601B8 | ----- |  1 | -------- |  ----  |SINGLE|    4    | 0 |           0|
             |              381921 ns|              381926 ns|WR-NONSEQ | 482601B8 | ----- |  1 | -------- |  ----  |SINGLE|    4    | 0 |           0|
   Picked  : |              381926 ns|              382256 ns|WR-DATA   | 482601B8 |  1/ 1 | -- | 0000004A |  OKAY  | ---- | ------- | - | ---------- |
             |              381926 ns|              382256 ns|WR-DATA   | 482601B8 |  1/ 1 | -- | 0000004A |  OKAY  | ---- | ------- | - | ---------- |
   Picked  : |              382311 ns|              382316 ns|WR-NONSEQ | 482601B8 | ----- |  1 | -------- |  ----  |SINGLE|    4    | 0 |           0|
             |              382311 ns|              382316 ns|WR-NONSEQ | 482601B8 | ----- |  1 | -------- |  ----  |SINGLE|    4    | 0 |           0|
   Picked  : |              382316 ns|              382616 ns|WR-DATA   | 482601B8 |  1/ 1 | -- | 0000004B |  OKAY  | ---- | ------- | - | ---------- |
             |              382316 ns|              382616 ns|WR-DATA   | 482601B8 |  1/ 1 | -- | 0000004B |  OKAY  | ---- | ------- | - | ---------- |
   Picked  : |              382666 ns|              382671 ns|RD-NONSEQ | 482601B8 | ----- |  1 | -------- |  ----  |SINGLE|    4    | 0 |           0|
             |              382666 ns|              382671 ns|RD-NONSEQ | 482601B8 | ----- |  1 | -------- |  ----  |SINGLE|    4    | 0 |           0|
   Picked  : |              382671 ns|              383016 ns|RD-DATA   | 482601B8 |  1/ 1 | -- | 0000004B |  OKAY  | ---- | ------- | - | ---------- |
             |              382671 ns|              383016 ns|RD-DATA   | 482601B8 |  1/ 1 | -- | 0000004B |  OKAY  | ---- | ------- | - | ---------- |
   Picked  : |              383116 ns|              383121 ns|RD-NONSEQ | 482601B0 | ----- |  1 | -------- |  ----  |SINGLE|    4    | 0 |           0|
             |              383116 ns|              383121 ns|RD-NONSEQ | 482601B0 | ----- |  1 | -------- |  ----  |SINGLE|    4    | 0 |           0|
   Picked  : |              383121 ns|              383456 ns|RD-DATA   | 482601B0 |  1/ 1 | -- | 00000008 |  OKAY  | ---- | ------- | - | ---------- |
             |              383121 ns|              383456 ns|RD-DATA   | 482601B0 |  1/ 1 | -- | 00000008 |  OKAY  | ---- | ------- | - | ---------- |
   Picked  : |              383511 ns|              383516 ns|WR-NONSEQ | 482601B0 | ----- |  1 | -------- |  ----  |SINGLE|    4    | 0 |           0|
             |              383511 ns|              383516 ns|WR-NONSEQ | 482601B0 | ----- |  1 | -------- |  ----  |SINGLE|    4    | 0 |           0|
   Picked  : |              383516 ns|              383816 ns|WR-DATA   | 482601B0 |  1/ 1 | -- | 00000048 |  OKAY  | ---- | ------- | - | ---------- |
             |              383516 ns|              383816 ns|WR-DATA   | 482601B0 |  1/ 1 | -- | 00000048 |  OKAY  | ---- | ------- | - | ---------- |
   Picked  : |              383871 ns|              383876 ns|WR-NONSEQ | 482601B0 | ----- |  1 | -------- |  ----  |SINGLE|    4    | 0 |           0|
             |              383871 ns|              383876 ns|WR-NONSEQ | 482601B0 | ----- |  1 | -------- |  ----  |SINGLE|    4    | 0 |           0|
   Picked  : |              383876 ns|              384186 ns|WR-DATA   | 482601B0 |  1/ 1 | -- | 00000049 |  OKAY  | ---- | ------- | - | ---------- |
             |              383876 ns|              384186 ns|WR-DATA   | 482601B0 |  1/ 1 | -- | 00000049 |  OKAY  | ---- | ------- | - | ---------- |
   Picked  : |              384236 ns|              384241 ns|RD-NONSEQ | 482601B0 | ----- |  1 | -------- |  ----  |SINGLE|    4    | 0 |           0|
             |              384236 ns|              384241 ns|RD-NONSEQ | 482601B0 | ----- |  1 | -------- |  ----  |SINGLE|    4    | 0 |           0|
   Picked  : |              384241 ns|              384536 ns|RD-DATA   | 482601B0 |  1/ 1 | -- | 00000049 |  OKAY  | ---- | ------- | - | ---------- |
             |              384241 ns|              384536 ns|RD-DATA   | 482601B0 |  1/ 1 | -- | 00000049 |  OKAY  | ---- | ------- | - | ---------- |
   Picked  : |              384636 ns|              384641 ns|RD-NONSEQ | 482601B8 | ----- |  1 | -------- |  ----  |SINGLE|    4    | 0 |           0|
             |              384636 ns|              384641 ns|RD-NONSEQ | 482601B8 | ----- |  1 | -------- |  ----  |SINGLE|    4    | 0 |           0|
   Picked  : |              384641 ns|              384936 ns|RD-DATA   | 482601B8 |  1/ 1 | -- | 0000004B |  OKAY  | ---- | ------- | - | ---------- |
             |              384641 ns|              384936 ns|RD-DATA   | 482601B8 |  1/ 1 | -- | 0000004B |  OKAY  | ---- | ------- | - | ---------- |
   Picked  : |              384991 ns|              384996 ns|WR-NONSEQ | 482601B8 | ----- |  1 | -------- |  ----  |SINGLE|    4    | 0 |           0|
             |              384991 ns|              384996 ns|WR-NONSEQ | 482601B8 | ----- |  1 | -------- |  ----  |SINGLE|    4    | 0 |           0|
   Picked  : |              384996 ns|              385306 ns|WR-DATA   | 482601B8 |  1/ 1 | -- | 0000004B |  OKAY  | ---- | ------- | - | ---------- |
             |              384996 ns|              385306 ns|WR-DATA   | 482601B8 |  1/ 1 | -- | 0000004B |  OKAY  | ---- | ------- | - | ---------- |
   Picked  : |              385361 ns|              385366 ns|WR-NONSEQ | 482601B8 | ----- |  1 | -------- |  ----  |SINGLE|    4    | 0 |           0|
             |              385361 ns|              385366 ns|WR-NONSEQ | 482601B8 | ----- |  1 | -------- |  ----  |SINGLE|    4    | 0 |           0|
   Picked  : |              385366 ns|              385706 ns|WR-DATA   | 482601B8 |  1/ 1 | -- | 0000004B |  OKAY  | ---- | ------- | - | ---------- |
             |              385366 ns|              385706 ns|WR-DATA   | 482601B8 |  1/ 1 | -- | 0000004B |  OKAY  | ---- | ------- | - | ---------- |
   Picked  : |              385756 ns|              385761 ns|RD-NONSEQ | 482601B8 | ----- |  1 | -------- |  ----  |SINGLE|    4    | 0 |           0|
             |              385756 ns|              385761 ns|RD-NONSEQ | 482601B8 | ----- |  1 | -------- |  ----  |SINGLE|    4    | 0 |           0|
   Picked  : |              385761 ns|              386056 ns|RD-DATA   | 482601B8 |  1/ 1 | -- | 0000004B |  OKAY  | ---- | ------- | - | ---------- |
             |              385761 ns|              386056 ns|RD-DATA   | 482601B8 |  1/ 1 | -- | 0000004B |  OKAY  | ---- | ------- | - | ---------- |
   Picked  : |              386156 ns|              386161 ns|RD-NONSEQ | 482601BC | ----- |  1 | -------- |  ----  |SINGLE|    4    | 0 |           0|
             |              386156 ns|              386161 ns|RD-NONSEQ | 482601BC | ----- |  1 | -------- |  ----  |SINGLE|    4    | 0 |           0|
   Picked  : |              386161 ns|              386456 ns|RD-DATA   | 482601BC |  1/ 1 | -- | 00000000 |  OKAY  | ---- | ------- | - | ---------- |
             |              386161 ns|              386456 ns|RD-DATA   | 482601BC |  1/ 1 | -- | 00000000 |  OKAY  | ---- | ------- | - | ---------- |
   Picked  : |              386511 ns|              386516 ns|WR-NONSEQ | 482601BC | ----- |  1 | -------- |  ----  |SINGLE|    4    | 0 |           0|
             |              386511 ns|              386516 ns|WR-NONSEQ | 482601BC | ----- |  1 | -------- |  ----  |SINGLE|    4    | 0 |           0|
   Picked  : |              386516 ns|              386816 ns|WR-DATA   | 482601BC |  1/ 1 | -- | 00000040 |  OKAY  | ---- | ------- | - | ---------- |
             |              386516 ns|              386816 ns|WR-DATA   | 482601BC |  1/ 1 | -- | 00000040 |  OKAY  | ---- | ------- | - | ---------- |
   Picked  : |              386871 ns|              386876 ns|WR-NONSEQ | 482601BC | ----- |  1 | -------- |  ----  |SINGLE|    4    | 0 |           0|
             |              386871 ns|              386876 ns|WR-NONSEQ | 482601BC | ----- |  1 | -------- |  ----  |SINGLE|    4    | 0 |           0|
   Picked  : |              386876 ns|              387186 ns|WR-DATA   | 482601BC |  1/ 1 | -- | 00000041 |  OKAY  | ---- | ------- | - | ---------- |
             |              386876 ns|              387186 ns|WR-DATA   | 482601BC |  1/ 1 | -- | 00000041 |  OKAY  | ---- | ------- | - | ---------- |
   Picked  : |              387236 ns|              387241 ns|RD-NONSEQ | 482601BC | ----- |  1 | -------- |  ----  |SINGLE|    4    | 0 |           0|
             |              387236 ns|              387241 ns|RD-NONSEQ | 482601BC | ----- |  1 | -------- |  ----  |SINGLE|    4    | 0 |           0|
   Picked  : |              387241 ns|              387536 ns|RD-DATA   | 482601BC |  1/ 1 | -- | 00000041 |  OKAY  | ---- | ------- | - | ---------- |
             |              387241 ns|              387536 ns|RD-DATA   | 482601BC |  1/ 1 | -- | 00000041 |  OKAY  | ---- | ------- | - | ---------- |
   Picked  : |              387636 ns|              387641 ns|RD-NONSEQ | F832117C | ----- |  1 | -------- |  ----  |SINGLE|    4    | 0 |           0|
             |              387636 ns|              387641 ns|RD-NONSEQ | F832117C | ----- |  1 | -------- |  ----  |SINGLE|    4    | 0 |           0|
   Picked  : |              387641 ns|              387871 ns|RD-DATA   | F832117C |  1/ 1 | -- | 00000180 |  OKAY  | ---- | ------- | - | ---------- |
             |              387641 ns|              387871 ns|RD-DATA   | F832117C |  1/ 1 | -- | 00000180 |  OKAY  | ---- | ------- | - | ---------- |
   Picked  : |              387926 ns|              387931 ns|WR-NONSEQ | F832117C | ----- |  1 | -------- |  ----  |SINGLE|    4    | 0 |           0|
             |              387926 ns|              387931 ns|WR-NONSEQ | F832117C | ----- |  1 | -------- |  ----  |SINGLE|    4    | 0 |           0|
   Picked  : |              387931 ns|              388181 ns|WR-DATA   | F832117C |  1/ 1 | -- | 00000180 |  OKAY  | ---- | ------- | - | ---------- |
             |              387931 ns|              388181 ns|WR-DATA   | F832117C |  1/ 1 | -- | 00000180 |  OKAY  | ---- | ------- | - | ---------- |
   Picked  : |              388631 ns|              388636 ns|RD-NONSEQ | F832117C | ----- |  1 | -------- |  ----  |SINGLE|    4    | 0 |           0|
             |              388631 ns|              388636 ns|RD-NONSEQ | F832117C | ----- |  1 | -------- |  ----  |SINGLE|    4    | 0 |           0|
   Picked  : |              388636 ns|              388911 ns|RD-DATA   | F832117C |  1/ 1 | -- | 00000180 |  OKAY  | ---- | ------- | - | ---------- |
             |              388636 ns|              388911 ns|RD-DATA   | F832117C |  1/ 1 | -- | 00000180 |  OKAY  | ---- | ------- | - | ---------- |
   Picked  : |              388966 ns|              388971 ns|WR-NONSEQ | F832117C | ----- |  1 | -------- |  ----  |SINGLE|    4    | 0 |           0|
             |              388966 ns|              388971 ns|WR-NONSEQ | F832117C | ----- |  1 | -------- |  ----  |SINGLE|    4    | 0 |           0|
   Picked  : |              388971 ns|              389231 ns|WR-DATA   | F832117C |  1/ 1 | -- | 00000180 |  OKAY  | ---- | ------- | - | ---------- |
             |              388971 ns|              389231 ns|WR-DATA   | F832117C |  1/ 1 | -- | 00000180 |  OKAY  | ---- | ------- | - | ---------- |
   Picked  : |              389481 ns|              389486 ns|RD-NONSEQ | F832117C | ----- |  1 | -------- |  ----  |SINGLE|    4    | 0 |           0|
             |              389481 ns|              389486 ns|RD-NONSEQ | F832117C | ----- |  1 | -------- |  ----  |SINGLE|    4    | 0 |           0|
   Picked  : |              389486 ns|              389741 ns|RD-DATA   | F832117C |  1/ 1 | -- | 00000180 |  OKAY  | ---- | ------- | - | ---------- |
             |              389486 ns|              389741 ns|RD-DATA   | F832117C |  1/ 1 | -- | 00000180 |  OKAY  | ---- | ------- | - | ---------- |
   Picked  : |              389796 ns|              389801 ns|WR-NONSEQ | F832117C | ----- |  1 | -------- |  ----  |SINGLE|    4    | 0 |           0|
             |              389796 ns|              389801 ns|WR-NONSEQ | F832117C | ----- |  1 | -------- |  ----  |SINGLE|    4    | 0 |           0|
   Picked  : |              389801 ns|              390031 ns|WR-DATA   | F832117C |  1/ 1 | -- | 00000180 |  OKAY  | ---- | ------- | - | ---------- |
             |              389801 ns|              390031 ns|WR-DATA   | F832117C |  1/ 1 | -- | 00000180 |  OKAY  | ---- | ------- | - | ---------- |
   Picked  : |              390081 ns|              390086 ns|RD-NONSEQ | F8321180 | ----- |  1 | -------- |  ----  |SINGLE|    4    | 0 |           0|
             |              390081 ns|              390086 ns|RD-NONSEQ | F8321180 | ----- |  1 | -------- |  ----  |SINGLE|    4    | 0 |           0|
   Picked  : |              390086 ns|              390341 ns|RD-DATA   | F8321180 |  1/ 1 | -- | 00000692 |  OKAY  | ---- | ------- | - | ---------- |
             |              390086 ns|              390341 ns|RD-DATA   | F8321180 |  1/ 1 | -- | 00000692 |  OKAY  | ---- | ------- | - | ---------- |
   Picked  : |              390396 ns|              390401 ns|WR-NONSEQ | F8321180 | ----- |  1 | -------- |  ----  |SINGLE|    4    | 0 |           0|
             |              390396 ns|              390401 ns|WR-NONSEQ | F8321180 | ----- |  1 | -------- |  ----  |SINGLE|    4    | 0 |           0|
   Picked  : |              390401 ns|              390671 ns|WR-DATA   | F8321180 |  1/ 1 | -- | 00000692 |  OKAY  | ---- | ------- | - | ---------- |
             |              390401 ns|              390671 ns|WR-DATA   | F8321180 |  1/ 1 | -- | 00000692 |  OKAY  | ---- | ------- | - | ---------- |
   Picked  : |              390721 ns|              390726 ns|RD-NONSEQ | F8321184 | ----- |  1 | -------- |  ----  |SINGLE|    4    | 0 |           0|
             |              390721 ns|              390726 ns|RD-NONSEQ | F8321184 | ----- |  1 | -------- |  ----  |SINGLE|    4    | 0 |           0|
   Picked  : |              390726 ns|              390981 ns|RD-DATA   | F8321184 |  1/ 1 | -- | 1322B573 |  OKAY  | ---- | ------- | - | ---------- |
             |              390726 ns|              390981 ns|RD-DATA   | F8321184 |  1/ 1 | -- | 1322B573 |  OKAY  | ---- | ------- | - | ---------- |
   Picked  : |              391036 ns|              391041 ns|WR-NONSEQ | F8321184 | ----- |  1 | -------- |  ----  |SINGLE|    4    | 0 |           0|
             |              391036 ns|              391041 ns|WR-NONSEQ | F8321184 | ----- |  1 | -------- |  ----  |SINGLE|    4    | 0 |           0|
   Picked  : |              391041 ns|              391301 ns|WR-DATA   | F8321184 |  1/ 1 | -- | 1322B573 |  OKAY  | ---- | ------- | - | ---------- |
             |              391041 ns|              391301 ns|WR-DATA   | F8321184 |  1/ 1 | -- | 1322B573 |  OKAY  | ---- | ------- | - | ---------- |
   Picked  : |              391351 ns|              391356 ns|RD-NONSEQ | F832117C | ----- |  1 | -------- |  ----  |SINGLE|    4    | 0 |           0|
             |              391351 ns|              391356 ns|RD-NONSEQ | F832117C | ----- |  1 | -------- |  ----  |SINGLE|    4    | 0 |           0|
   Picked  : |              391356 ns|              391581 ns|RD-DATA   | F832117C |  1/ 1 | -- | 00000180 |  OKAY  | ---- | ------- | - | ---------- |
             |              391356 ns|              391581 ns|RD-DATA   | F832117C |  1/ 1 | -- | 00000180 |  OKAY  | ---- | ------- | - | ---------- |
   Picked  : |              391636 ns|              391641 ns|WR-NONSEQ | F832117C | ----- |  1 | -------- |  ----  |SINGLE|    4    | 0 |           0|
             |              391636 ns|              391641 ns|WR-NONSEQ | F832117C | ----- |  1 | -------- |  ----  |SINGLE|    4    | 0 |           0|
   Picked  : |              391641 ns|              391861 ns|WR-DATA   | F832117C |  1/ 1 | -- | 00000380 |  OKAY  | ---- | ------- | - | ---------- |
             |              391641 ns|              391861 ns|WR-DATA   | F832117C |  1/ 1 | -- | 00000380 |  OKAY  | ---- | ------- | - | ---------- |
   Picked  : |              401911 ns|              401916 ns|RD-NONSEQ | F832117C | ----- |  1 | -------- |  ----  |SINGLE|    4    | 0 |           0|
             |              401911 ns|              401916 ns|RD-NONSEQ | F832117C | ----- |  1 | -------- |  ----  |SINGLE|    4    | 0 |           0|
   Picked  : |              401916 ns|              402151 ns|RD-DATA   | F832117C |  1/ 1 | -- | 00000380 |  OKAY  | ---- | ------- | - | ---------- |
             |              401916 ns|              402151 ns|RD-DATA   | F832117C |  1/ 1 | -- | 00000380 |  OKAY  | ---- | ------- | - | ---------- |
   Picked  : |              402206 ns|              402211 ns|WR-NONSEQ | F832117C | ----- |  1 | -------- |  ----  |SINGLE|    4    | 0 |           0|
             |              402206 ns|              402211 ns|WR-NONSEQ | F832117C | ----- |  1 | -------- |  ----  |SINGLE|    4    | 0 |           0|
   Picked  : |              402211 ns|              402501 ns|WR-DATA   | F832117C |  1/ 1 | -- | 00000382 |  OKAY  | ---- | ------- | - | ---------- |
             |              402211 ns|              402501 ns|WR-DATA   | F832117C |  1/ 1 | -- | 00000382 |  OKAY  | ---- | ------- | - | ---------- |
   Picked  : |              452551 ns|              452556 ns|RD-NONSEQ | F832117C | ----- |  1 | -------- |  ----  |SINGLE|    4    | 0 |           0|
             |              452551 ns|              452556 ns|RD-NONSEQ | F832117C | ----- |  1 | -------- |  ----  |SINGLE|    4    | 0 |           0|
   Picked  : |              452556 ns|              452821 ns|RD-DATA   | F832117C |  1/ 1 | -- | 00000382 |  OKAY  | ---- | ------- | - | ---------- |
             |              452556 ns|              452821 ns|RD-DATA   | F832117C |  1/ 1 | -- | 00000382 |  OKAY  | ---- | ------- | - | ---------- |
   Picked  : |              452876 ns|              452881 ns|WR-NONSEQ | F832117C | ----- |  1 | -------- |  ----  |SINGLE|    4    | 0 |           0|
             |              452876 ns|              452881 ns|WR-NONSEQ | F832117C | ----- |  1 | -------- |  ----  |SINGLE|    4    | 0 |           0|
   Picked  : |              452881 ns|              453141 ns|WR-DATA   | F832117C |  1/ 1 | -- | 00000282 |  OKAY  | ---- | ------- | - | ---------- |
             |              452881 ns|              453141 ns|WR-DATA   | F832117C |  1/ 1 | -- | 00000282 |  OKAY  | ---- | ------- | - | ---------- |
   Picked  : |              453391 ns|              453396 ns|RD-NONSEQ | F832117C | ----- |  1 | -------- |  ----  |SINGLE|    4    | 0 |           0|
             |              453391 ns|              453396 ns|RD-NONSEQ | F832117C | ----- |  1 | -------- |  ----  |SINGLE|    4    | 0 |           0|
   Picked  : |              453396 ns|              453661 ns|RD-DATA   | F832117C |  1/ 1 | -- | 00000282 |  OKAY  | ---- | ------- | - | ---------- |
             |              453396 ns|              453661 ns|RD-DATA   | F832117C |  1/ 1 | -- | 00000282 |  OKAY  | ---- | ------- | - | ---------- |
   Picked  : |              453716 ns|              453721 ns|WR-NONSEQ | F832117C | ----- |  1 | -------- |  ----  |SINGLE|    4    | 0 |           0|
             |              453716 ns|              453721 ns|WR-NONSEQ | F832117C | ----- |  1 | -------- |  ----  |SINGLE|    4    | 0 |           0|
   Picked  : |              453721 ns|              453941 ns|WR-DATA   | F832117C |  1/ 1 | -- | 00000283 |  OKAY  | ---- | ------- | - | ---------- |
             |              453721 ns|              453941 ns|WR-DATA   | F832117C |  1/ 1 | -- | 00000283 |  OKAY  | ---- | ------- | - | ---------- |
   Picked  : |              454191 ns|              454196 ns|RD-NONSEQ | F832117C | ----- |  1 | -------- |  ----  |SINGLE|    4    | 0 |           0|
             |              454191 ns|              454196 ns|RD-NONSEQ | F832117C | ----- |  1 | -------- |  ----  |SINGLE|    4    | 0 |           0|
   Picked  : |              454196 ns|              454431 ns|RD-DATA   | F832117C |  1/ 1 | -- | 00000283 |  OKAY  | ---- | ------- | - | ---------- |
             |              454196 ns|              454431 ns|RD-DATA   | F832117C |  1/ 1 | -- | 00000283 |  OKAY  | ---- | ------- | - | ---------- |
   Picked  : |              454486 ns|              454491 ns|WR-NONSEQ | F832117C | ----- |  1 | -------- |  ----  |SINGLE|    4    | 0 |           0|
             |              454486 ns|              454491 ns|WR-NONSEQ | F832117C | ----- |  1 | -------- |  ----  |SINGLE|    4    | 0 |           0|
   Picked  : |              454491 ns|              454741 ns|WR-DATA   | F832117C |  1/ 1 | -- | 00000203 |  OKAY  | ---- | ------- | - | ---------- |
             |              454491 ns|              454741 ns|WR-DATA   | F832117C |  1/ 1 | -- | 00000203 |  OKAY  | ---- | ------- | - | ---------- |
   Picked  : |              455196 ns|              455201 ns|WR-NONSEQ | 482601C4 | ----- |  1 | -------- |  ----  |SINGLE|    4    | 0 |           0|
             |              455196 ns|              455201 ns|WR-NONSEQ | 482601C4 | ----- |  1 | -------- |  ----  |SINGLE|    4    | 0 |           0|
   Picked  : |              455201 ns|              455536 ns|WR-DATA   | 482601C4 |  1/ 1 | -- | FFFFFFFF |  OKAY  | ---- | ------- | - | ---------- |
             |              455201 ns|              455536 ns|WR-DATA   | 482601C4 |  1/ 1 | -- | FFFFFFFF |  OKAY  | ---- | ------- | - | ---------- |
   Picked  : |              455591 ns|              455596 ns|WR-NONSEQ | 482601C8 | ----- |  1 | -------- |  ----  |SINGLE|    4    | 0 |           0|
             |              455591 ns|              455596 ns|WR-NONSEQ | 482601C8 | ----- |  1 | -------- |  ----  |SINGLE|    4    | 0 |           0|
   Picked  : |              455596 ns|              455906 ns|WR-DATA   | 482601C8 |  1/ 1 | -- | FFFFFFFF |  OKAY  | ---- | ------- | - | ---------- |
             |              455596 ns|              455906 ns|WR-DATA   | 482601C8 |  1/ 1 | -- | FFFFFFFF |  OKAY  | ---- | ------- | - | ---------- |
   Picked  : |              455961 ns|              455966 ns|WR-NONSEQ | F83212A0 | ----- |  1 | -------- |  ----  |SINGLE|    4    | 0 |           0|
             |              455961 ns|              455966 ns|WR-NONSEQ | F83212A0 | ----- |  1 | -------- |  ----  |SINGLE|    4    | 0 |           0|
   Picked  : |              455966 ns|              456221 ns|WR-DATA   | F83212A0 |  1/ 1 | -- | FFFFFFFF |  OKAY  | ---- | ------- | - | ---------- |
             |              455966 ns|              456221 ns|WR-DATA   | F83212A0 |  1/ 1 | -- | FFFFFFFF |  OKAY  | ---- | ------- | - | ---------- |
   Picked  : |              456271 ns|              456276 ns|RD-NONSEQ | F8321278 | ----- |  1 | -------- |  ----  |SINGLE|    4    | 0 |           0|
             |              456271 ns|              456276 ns|RD-NONSEQ | F8321278 | ----- |  1 | -------- |  ----  |SINGLE|    4    | 0 |           0|
   Picked  : |              456276 ns|              456511 ns|RD-DATA   | F8321278 |  1/ 1 | -- | 00040B46 |  OKAY  | ---- | ------- | - | ---------- |
             |              456276 ns|              456511 ns|RD-DATA   | F8321278 |  1/ 1 | -- | 00040B46 |  OKAY  | ---- | ------- | - | ---------- |
   Picked  : |              456566 ns|              456571 ns|WR-NONSEQ | F8321278 | ----- |  1 | -------- |  ----  |SINGLE|    4    | 0 |           0|
             |              456566 ns|              456571 ns|WR-NONSEQ | F8321278 | ----- |  1 | -------- |  ----  |SINGLE|    4    | 0 |           0|
