 ... HEADER decoding
     line ::     0 :: Instance: uvm_test_top.top_env_i.ahbfab_env_i.mvc_ahb_mon_8_env_i.logger_handle_ahb
     line ::     1 :: AHB Clk Cycle = 40 ns; AHB Clk Frequency = 25.00 MHz; Data bus width = 32 bits
     line ::     2 :: ------------------------------------------------------------------------------------------------------------------------------------------
     line ::     3 :: |NONSEQ/SEQ Assert Time |  HREADY Assert Time   |  DIR     |   ADDR   | BEAT  |  L |   DATA   |  RESP  | BURST| BURST   | H |    HSEL    |
     line ::     4 :: |                       |                       |   -      |          |  NUM  |  E |          |        | Type | Size    | P |   (SLAVE   |
     line ::     5 :: |                       |                       | PHASE    |          |       |  N |          |        |      |= 2^HSIZE| R |    INDEX)  |
     line ::     6 :: |                       |                       |          |          |       |    |          |        |      | bytes   | O |            |
     line ::     7 :: |                       |                       |          |          |       |    |          |        |      |         | T |            |
     line ::     8 :: |                       |                       |          |          |       |    |          |        |      |         |   |            |
     line ::     9 :: ------------------------------------------------------------------------------------------------------------------------------------------
 ... HEADER decoding done
 ... TABLE  decoding ... 
     line ::    10 :: |              213940 ns|              213980 ns|RD-NONSEQ | F832116C | ----- |  1 | -------- |  ----  |SINGLE|    4    | 0 |           0|
                      0 :: first command
     line ::    11 :: |              213980 ns|              214780 ns|RD-DATA   | F832116C |  1/ 1 | -- | 00000181 |  OKAY  | ---- | ------- | - | ---------- |
                      ::             AHB address transfer phase detected
                      :: sequential  AHB data    transfer phase detected FIRST
                         DATA transfer assertion time :   213980 ns
                         ADDR transfer assertion time :   213940 ns
     line ::    12 :: |              215220 ns|              215260 ns|WR-NONSEQ | F832116C | ----- |  1 | -------- |  ----  |SINGLE|    4    | 0 |           0|
                      0 :: first command
     line ::    13 :: |              215260 ns|              215900 ns|WR-DATA   | F832116C |  1/ 1 | -- | 00000181 |  OKAY  | ---- | ------- | - | ---------- |
                      ::             AHB address transfer phase detected
                      :: sequential  AHB data    transfer phase detected FIRST
                         DATA transfer assertion time :   215260 ns
                         ADDR transfer assertion time :   215220 ns
     line ::    14 :: |              216700 ns|              216740 ns|RD-NONSEQ | F832116C | ----- |  1 | -------- |  ----  |SINGLE|    4    | 0 |           0|
                      0 :: first command
     line ::    15 :: |              216740 ns|              217500 ns|RD-DATA   | F832116C |  1/ 1 | -- | 00000181 |  OKAY  | ---- | ------- | - | ---------- |
                      ::             AHB address transfer phase detected
                      :: sequential  AHB data    transfer phase detected FIRST
                         DATA transfer assertion time :   216740 ns
                         ADDR transfer assertion time :   216700 ns
     line ::    16 :: |              217940 ns|              217980 ns|WR-NONSEQ | F832116C | ----- |  1 | -------- |  ----  |SINGLE|    4    | 0 |           0|
                      0 :: first command
     line ::    17 :: |              217980 ns|              218620 ns|WR-DATA   | F832116C |  1/ 1 | -- | 00000180 |  OKAY  | ---- | ------- | - | ---------- |
                      ::             AHB address transfer phase detected
                      :: sequential  AHB data    transfer phase detected FIRST
                         DATA transfer assertion time :   217980 ns
                         ADDR transfer assertion time :   217940 ns
     line ::    18 :: |              219220 ns|              219260 ns|RD-NONSEQ | F832116C | ----- |  1 | -------- |  ----  |SINGLE|    4    | 0 |           0|
                      0 :: first command
     line ::    19 :: |              219260 ns|              219900 ns|RD-DATA   | F832116C |  1/ 1 | -- | 00000180 |  OKAY  | ---- | ------- | - | ---------- |
                      ::             AHB address transfer phase detected
                      :: sequential  AHB data    transfer phase detected FIRST
                         DATA transfer assertion time :   219260 ns
                         ADDR transfer assertion time :   219220 ns
     line ::    20 :: |              220340 ns|              220380 ns|WR-NONSEQ | F832116C | ----- |  1 | -------- |  ----  |SINGLE|    4    | 0 |           0|
                      0 :: first command
     line ::    21 :: |              220380 ns|              221020 ns|WR-DATA   | F832116C |  1/ 1 | -- | 00000180 |  OKAY  | ---- | ------- | - | ---------- |
                      ::             AHB address transfer phase detected
                      :: sequential  AHB data    transfer phase detected FIRST
                         DATA transfer assertion time :   220380 ns
                         ADDR transfer assertion time :   220340 ns
     line ::    22 :: |              221420 ns|              221460 ns|RD-NONSEQ | F8321170 | ----- |  1 | -------- |  ----  |SINGLE|    4    | 0 |           0|
                      0 :: first command
     line ::    23 :: |              221460 ns|              222220 ns|RD-DATA   | F8321170 |  1/ 1 | -- | 00000693 |  OKAY  | ---- | ------- | - | ---------- |
                      ::             AHB address transfer phase detected
                      :: sequential  AHB data    transfer phase detected FIRST
                         DATA transfer assertion time :   221460 ns
                         ADDR transfer assertion time :   221420 ns
     line ::    24 :: |              222660 ns|              222700 ns|WR-NONSEQ | F8321170 | ----- |  1 | -------- |  ----  |SINGLE|    4    | 0 |           0|
                      0 :: first command
     line ::    25 :: |              222700 ns|              223420 ns|WR-DATA   | F8321170 |  1/ 1 | -- | 00000693 |  OKAY  | ---- | ------- | - | ---------- |
                      ::             AHB address transfer phase detected
                      :: sequential  AHB data    transfer phase detected FIRST
                         DATA transfer assertion time :   222700 ns
                         ADDR transfer assertion time :   222660 ns
     line ::    26 :: |              223820 ns|              223860 ns|RD-NONSEQ | F8321174 | ----- |  1 | -------- |  ----  |SINGLE|    4    | 0 |           0|
                      0 :: first command
     line ::    27 :: |              223860 ns|              224620 ns|RD-DATA   | F8321174 |  1/ 1 | -- | 000000FB |  OKAY  | ---- | ------- | - | ---------- |
                      ::             AHB address transfer phase detected
                      :: sequential  AHB data    transfer phase detected FIRST
                         DATA transfer assertion time :   223860 ns
                         ADDR transfer assertion time :   223820 ns
     line ::    28 :: |              225060 ns|              225100 ns|WR-NONSEQ | F8321174 | ----- |  1 | -------- |  ----  |SINGLE|    4    | 0 |           0|
                      0 :: first command
     line ::    29 :: |              225100 ns|              225740 ns|WR-DATA   | F8321174 |  1/ 1 | -- | 000000FB |  OKAY  | ---- | ------- | - | ---------- |
                      ::             AHB address transfer phase detected
                      :: sequential  AHB data    transfer phase detected FIRST
                         DATA transfer assertion time :   225100 ns
                         ADDR transfer assertion time :   225060 ns
     line ::    30 :: |              226140 ns|              226180 ns|RD-NONSEQ | F832116C | ----- |  1 | -------- |  ----  |SINGLE|    4    | 0 |           0|
                      0 :: first command
     line ::    31 :: |              226180 ns|              226940 ns|RD-DATA   | F832116C |  1/ 1 | -- | 00000180 |  OKAY  | ---- | ------- | - | ---------- |
                      ::             AHB address transfer phase detected
                      :: sequential  AHB data    transfer phase detected FIRST
                         DATA transfer assertion time :   226180 ns
                         ADDR transfer assertion time :   226140 ns
     line ::    32 :: |              227380 ns|              227420 ns|WR-NONSEQ | F832116C | ----- |  1 | -------- |  ----  |SINGLE|    4    | 0 |           0|
                      0 :: first command
     line ::    33 :: |              227420 ns|              228060 ns|WR-DATA   | F832116C |  1/ 1 | -- | 00000380 |  OKAY  | ---- | ------- | - | ---------- |
                      ::             AHB address transfer phase detected
                      :: sequential  AHB data    transfer phase detected FIRST
                         DATA transfer assertion time :   227420 ns
                         ADDR transfer assertion time :   227380 ns
     line ::    34 :: |              238460 ns|              238500 ns|RD-NONSEQ | F832116C | ----- |  1 | -------- |  ----  |SINGLE|    4    | 0 |           0|
                      0 :: first command
     line ::    35 :: |              238500 ns|              239260 ns|RD-DATA   | F832116C |  1/ 1 | -- | 00000380 |  OKAY  | ---- | ------- | - | ---------- |
                      ::             AHB address transfer phase detected
                      :: sequential  AHB data    transfer phase detected FIRST
                         DATA transfer assertion time :   238500 ns
                         ADDR transfer assertion time :   238460 ns
     line ::    36 :: |              239700 ns|              239740 ns|WR-NONSEQ | F832116C | ----- |  1 | -------- |  ----  |SINGLE|    4    | 0 |           0|
                      0 :: first command
     line ::    37 :: |              239740 ns|              240460 ns|WR-DATA   | F832116C |  1/ 1 | -- | 00000382 |  OKAY  | ---- | ------- | - | ---------- |
                      ::             AHB address transfer phase detected
                      :: sequential  AHB data    transfer phase detected FIRST
                         DATA transfer assertion time :   239740 ns
                         ADDR transfer assertion time :   239700 ns
     line ::    38 :: |              290860 ns|              290900 ns|RD-NONSEQ | F832116C | ----- |  1 | -------- |  ----  |SINGLE|    4    | 0 |           0|
                      0 :: first command
     line ::    39 :: |              290900 ns|              291660 ns|RD-DATA   | F832116C |  1/ 1 | -- | 00000382 |  OKAY  | ---- | ------- | - | ---------- |
                      ::             AHB address transfer phase detected
                      :: sequential  AHB data    transfer phase detected FIRST
                         DATA transfer assertion time :   290900 ns
                         ADDR transfer assertion time :   290860 ns
     line ::    40 :: |              292100 ns|              292140 ns|WR-NONSEQ | F832116C | ----- |  1 | -------- |  ----  |SINGLE|    4    | 0 |           0|
                      0 :: first command
     line ::    41 :: |              292140 ns|              292780 ns|WR-DATA   | F832116C |  1/ 1 | -- | 00000282 |  OKAY  | ---- | ------- | - | ---------- |
                      ::             AHB address transfer phase detected
                      :: sequential  AHB data    transfer phase detected FIRST
                         DATA transfer assertion time :   292140 ns
                         ADDR transfer assertion time :   292100 ns
     line ::    42 :: |              293380 ns|              293420 ns|RD-NONSEQ | F832116C | ----- |  1 | -------- |  ----  |SINGLE|    4    | 0 |           0|
                      0 :: first command
     line ::    43 :: |              293420 ns|              294140 ns|RD-DATA   | F832116C |  1/ 1 | -- | 00000282 |  OKAY  | ---- | ------- | - | ---------- |
                      ::             AHB address transfer phase detected
                      :: sequential  AHB data    transfer phase detected FIRST
                         DATA transfer assertion time :   293420 ns
                         ADDR transfer assertion time :   293380 ns
     line ::    44 :: |              294580 ns|              294620 ns|WR-NONSEQ | F832116C | ----- |  1 | -------- |  ----  |SINGLE|    4    | 0 |           0|
                      0 :: first command
     line ::    45 :: |              294620 ns|              295260 ns|WR-DATA   | F832116C |  1/ 1 | -- | 00000283 |  OKAY  | ---- | ------- | - | ---------- |
                      ::             AHB address transfer phase detected
                      :: sequential  AHB data    transfer phase detected FIRST
                         DATA transfer assertion time :   294620 ns
                         ADDR transfer assertion time :   294580 ns
     line ::    46 :: |              295860 ns|              295900 ns|RD-NONSEQ | F832116C | ----- |  1 | -------- |  ----  |SINGLE|    4    | 0 |           0|
                      0 :: first command
     line ::    47 :: |              295900 ns|              296620 ns|RD-DATA   | F832116C |  1/ 1 | -- | 00000283 |  OKAY  | ---- | ------- | - | ---------- |
                      ::             AHB address transfer phase detected
                      :: sequential  AHB data    transfer phase detected FIRST
                         DATA transfer assertion time :   295900 ns
                         ADDR transfer assertion time :   295860 ns
     line ::    48 :: |              297060 ns|              297100 ns|WR-NONSEQ | F832116C | ----- |  1 | -------- |  ----  |SINGLE|    4    | 0 |           0|
                      0 :: first command
     line ::    49 :: |              297100 ns|              297461 ns|WR-DATA   | F832116C |  1/ 1 | -- | 00000203 |  OKAY  | ---- | ------- | - | ---------- |
                      ::             AHB address transfer phase detected
                      :: sequential  AHB data    transfer phase detected FIRST
                         DATA transfer assertion time :   297100 ns
                         ADDR transfer assertion time :   297060 ns
     line ::    50 :: |              297916 ns|              297921 ns|WR-NONSEQ | F8320018 | ----- |  1 | -------- |  ----  |SINGLE|    4    | 0 |           0|
                      0 :: first command
     line ::    51 :: |              297921 ns|              298141 ns|WR-DATA   | F8320018 |  1/ 1 | -- | 00000001 |  OKAY  | ---- | ------- | - | ---------- |
                      ::             AHB address transfer phase detected
                      :: sequential  AHB data    transfer phase detected FIRST
                         DATA transfer assertion time :   297921 ns
                         ADDR transfer assertion time :   297916 ns
     line ::    52 :: |              298191 ns|              298196 ns|RD-NONSEQ | F832200C | ----- |  1 | -------- |  ----  |SINGLE|    4    | 0 |           0|
                      0 :: first command
     line ::    53 :: |              298196 ns|              298461 ns|RD-DATA   | F832200C |  1/ 1 | -- | 00190003 |  OKAY  | ---- | ------- | - | ---------- |
                      ::             AHB address transfer phase detected
                      :: sequential  AHB data    transfer phase detected FIRST
                         DATA transfer assertion time :   298196 ns
                         ADDR transfer assertion time :   298191 ns
     line ::    54 :: |              298511 ns|              298516 ns|RD-NONSEQ | F8322010 | ----- |  1 | -------- |  ----  |SINGLE|    4    | 0 |           0|
                      0 :: first command
     line ::    55 :: |              298516 ns|              298741 ns|RD-DATA   | F8322010 |  1/ 1 | -- | 00000001 |  OKAY  | ---- | ------- | - | ---------- |
                      ::             AHB address transfer phase detected
                      :: sequential  AHB data    transfer phase detected FIRST
                         DATA transfer assertion time :   298516 ns
                         ADDR transfer assertion time :   298511 ns
     line ::    56 :: |              298796 ns|              298801 ns|WR-NONSEQ | F8322010 | ----- |  1 | -------- |  ----  |SINGLE|    4    | 0 |           0|
                      0 :: first command
     line ::    57 :: |              298801 ns|              299031 ns|WR-DATA   | F8322010 |  1/ 1 | -- | 00000000 |  OKAY  | ---- | ------- | - | ---------- |
                      ::             AHB address transfer phase detected
                      :: sequential  AHB data    transfer phase detected FIRST
                         DATA transfer assertion time :   298801 ns
                         ADDR transfer assertion time :   298796 ns
     line ::    58 :: |              299086 ns|              299091 ns|WR-NONSEQ | F8312060 | ----- |  1 | -------- |  ----  |SINGLE|    4    | 0 |           0|
                      0 :: first command
     line ::    59 :: |              299091 ns|              299341 ns|WR-DATA   | F8312060 |  1/ 1 | -- | 00000000 |  OKAY  | ---- | ------- | - | ---------- |
                      ::             AHB address transfer phase detected
                      :: sequential  AHB data    transfer phase detected FIRST
                         DATA transfer assertion time :   299091 ns
                         ADDR transfer assertion time :   299086 ns
     line ::    60 :: |              299396 ns|              299401 ns|WR-NONSEQ | 48250020 | ----- |  1 | -------- |  ----  |SINGLE|    4    | 0 |           0|
                      0 :: first command
     line ::    61 :: |              299401 ns|              300351 ns|WR-DATA   | 48250020 |  1/ 1 | -- | 00000001 |  OKAY  | ---- | ------- | - | ---------- |
                      ::             AHB address transfer phase detected
                      :: sequential  AHB data    transfer phase detected FIRST
                         DATA transfer assertion time :   299401 ns
                         ADDR transfer assertion time :   299396 ns
     line ::    62 :: |              300401 ns|              300406 ns|RD-NONSEQ | 4826017C | ----- |  1 | -------- |  ----  |SINGLE|    4    | 0 |           0|
                      0 :: first command
     line ::    63 :: |              300406 ns|              301271 ns|RD-DATA   | 4826017C |  1/ 1 | -- | 20801E01 |  OKAY  | ---- | ------- | - | ---------- |
                      ::             AHB address transfer phase detected
                      :: sequential  AHB data    transfer phase detected FIRST
                         DATA transfer assertion time :   300406 ns
                         ADDR transfer assertion time :   300401 ns
     line ::    64 :: |              301326 ns|              301331 ns|WR-NONSEQ | 4826017C | ----- |  1 | -------- |  ----  |SINGLE|    4    | 0 |           0|
                      0 :: first command
     line ::    65 :: |              301331 ns|              302231 ns|WR-DATA   | 4826017C |  1/ 1 | -- | 20801E41 |  OKAY  | ---- | ------- | - | ---------- |
                      ::             AHB address transfer phase detected
                      :: sequential  AHB data    transfer phase detected FIRST
                         DATA transfer assertion time :   301331 ns
                         ADDR transfer assertion time :   301326 ns
     line ::    66 :: |              302681 ns|              302686 ns|RD-NONSEQ | 4826017C | ----- |  1 | -------- |  ----  |SINGLE|    4    | 0 |           0|
                      0 :: first command
     line ::    67 :: |              302686 ns|              303551 ns|RD-DATA   | 4826017C |  1/ 1 | -- | 20801E41 |  OKAY  | ---- | ------- | - | ---------- |
                      ::             AHB address transfer phase detected
                      :: sequential  AHB data    transfer phase detected FIRST
                         DATA transfer assertion time :   302686 ns
                         ADDR transfer assertion time :   302681 ns
     line ::    68 :: |              303606 ns|              303611 ns|WR-NONSEQ | 4826017C | ----- |  1 | -------- |  ----  |SINGLE|    4    | 0 |           0|
                      0 :: first command
     line ::    69 :: |              303611 ns|              304511 ns|WR-DATA   | 4826017C |  1/ 1 | -- | 20801E40 |  OKAY  | ---- | ------- | - | ---------- |
                      ::             AHB address transfer phase detected
                      :: sequential  AHB data    transfer phase detected FIRST
                         DATA transfer assertion time :   303611 ns
                         ADDR transfer assertion time :   303606 ns
     line ::    70 :: |              304761 ns|              304766 ns|RD-NONSEQ | 4826017C | ----- |  1 | -------- |  ----  |SINGLE|    4    | 0 |           0|
                      0 :: first command
     line ::    71 :: |              304766 ns|              305631 ns|RD-DATA   | 4826017C |  1/ 1 | -- | 20801E40 |  OKAY  | ---- | ------- | - | ---------- |
                      ::             AHB address transfer phase detected
                      :: sequential  AHB data    transfer phase detected FIRST
                         DATA transfer assertion time :   304766 ns
                         ADDR transfer assertion time :   304761 ns
     line ::    72 :: |              305686 ns|              305691 ns|WR-NONSEQ | 4826017C | ----- |  1 | -------- |  ----  |SINGLE|    4    | 0 |           0|
                      0 :: first command
     line ::    73 :: |              305691 ns|              306631 ns|WR-DATA   | 4826017C |  1/ 1 | -- | 20801E40 |  OKAY  | ---- | ------- | - | ---------- |
                      ::             AHB address transfer phase detected
                      :: sequential  AHB data    transfer phase detected FIRST
                         DATA transfer assertion time :   305691 ns
                         ADDR transfer assertion time :   305686 ns
     line ::    74 :: |              307186 ns|              307191 ns|WR-NONSEQ | 4826017C | ----- |  1 | -------- |  ----  |SINGLE|    4    | 0 |           0|
                      0 :: first command
     line ::    75 :: |              307191 ns|              308111 ns|WR-DATA   | 4826017C |  1/ 1 | -- | 20801E40 |  OKAY  | ---- | ------- | - | ---------- |
                      ::             AHB address transfer phase detected
                      :: sequential  AHB data    transfer phase detected FIRST
                         DATA transfer assertion time :   307191 ns
                         ADDR transfer assertion time :   307186 ns
     line ::    76 :: |              308166 ns|              308171 ns|WR-NONSEQ | 4826017C | ----- |  1 | -------- |  ----  |SINGLE|    4    | 0 |           0|
                      0 :: first command
     line ::    77 :: |              308171 ns|              309111 ns|WR-DATA   | 4826017C |  1/ 1 | -- | 84002E40 |  OKAY  | ---- | ------- | - | ---------- |
                      ::             AHB address transfer phase detected
                      :: sequential  AHB data    transfer phase detected FIRST
                         DATA transfer assertion time :   308171 ns
                         ADDR transfer assertion time :   308166 ns
     line ::    78 :: |              309166 ns|              309171 ns|WR-NONSEQ | 4826017C | ----- |  1 | -------- |  ----  |SINGLE|    4    | 0 |           0|
                      0 :: first command
     line ::    79 :: |              309171 ns|              310071 ns|WR-DATA   | 4826017C |  1/ 1 | -- | 84002240 |  OKAY  | ---- | ------- | - | ---------- |
                      ::             AHB address transfer phase detected
                      :: sequential  AHB data    transfer phase detected FIRST
                         DATA transfer assertion time :   309171 ns
                         ADDR transfer assertion time :   309166 ns
     line ::    80 :: |              320126 ns|              320131 ns|WR-NONSEQ | 4826017C | ----- |  1 | -------- |  ----  |SINGLE|    4    | 0 |           0|
                      0 :: first command
     line ::    81 :: |              320131 ns|              321031 ns|WR-DATA   | 4826017C |  1/ 1 | -- | 84002040 |  OKAY  | ---- | ------- | - | ---------- |
                      ::             AHB address transfer phase detected
                      :: sequential  AHB data    transfer phase detected FIRST
                         DATA transfer assertion time :   320131 ns
                         ADDR transfer assertion time :   320126 ns
     line ::    82 :: |              321581 ns|              321586 ns|RD-NONSEQ | 48260190 | ----- |  1 | -------- |  ----  |SINGLE|    4    | 0 |           0|
                      0 :: first command
     line ::    83 :: |              321586 ns|              322511 ns|RD-DATA   | 48260190 |  1/ 1 | -- | 00000000 |  OKAY  | ---- | ------- | - | ---------- |
                      ::             AHB address transfer phase detected
                      :: sequential  AHB data    transfer phase detected FIRST
                         DATA transfer assertion time :   321586 ns
                         ADDR transfer assertion time :   321581 ns
     line ::    84 :: |              323061 ns|              323066 ns|RD-NONSEQ | 48260190 | ----- |  1 | -------- |  ----  |SINGLE|    4    | 0 |           0|
                      0 :: first command
     line ::    85 :: |              323066 ns|              323951 ns|RD-DATA   | 48260190 |  1/ 1 | -- | 00000000 |  OKAY  | ---- | ------- | - | ---------- |
                      ::             AHB address transfer phase detected
                      :: sequential  AHB data    transfer phase detected FIRST
                         DATA transfer assertion time :   323066 ns
                         ADDR transfer assertion time :   323061 ns
     line ::    86 :: |              324501 ns|              324506 ns|RD-NONSEQ | 48260190 | ----- |  1 | -------- |  ----  |SINGLE|    4    | 0 |           0|
                      0 :: first command
     line ::    87 :: |              324506 ns|              325431 ns|RD-DATA   | 48260190 |  1/ 1 | -- | 00000000 |  OKAY  | ---- | ------- | - | ---------- |
                      ::             AHB address transfer phase detected
                      :: sequential  AHB data    transfer phase detected FIRST
                         DATA transfer assertion time :   324506 ns
                         ADDR transfer assertion time :   324501 ns
     line ::    88 :: |              325981 ns|              325986 ns|RD-NONSEQ | 48260190 | ----- |  1 | -------- |  ----  |SINGLE|    4    | 0 |           0|
                      0 :: first command
     line ::    89 :: |              325986 ns|              326911 ns|RD-DATA   | 48260190 |  1/ 1 | -- | 00000000 |  OKAY  | ---- | ------- | - | ---------- |
                      ::             AHB address transfer phase detected
                      :: sequential  AHB data    transfer phase detected FIRST
                         DATA transfer assertion time :   325986 ns
                         ADDR transfer assertion time :   325981 ns
     line ::    90 :: |              327461 ns|              327466 ns|RD-NONSEQ | 48260190 | ----- |  1 | -------- |  ----  |SINGLE|    4    | 0 |           0|
                      0 :: first command
     line ::    91 :: |              327466 ns|              328351 ns|RD-DATA   | 48260190 |  1/ 1 | -- | 00000000 |  OKAY  | ---- | ------- | - | ---------- |
                      ::             AHB address transfer phase detected
                      :: sequential  AHB data    transfer phase detected FIRST
                         DATA transfer assertion time :   327466 ns
                         ADDR transfer assertion time :   327461 ns
     line ::    92 :: |              328901 ns|              328906 ns|RD-NONSEQ | 48260190 | ----- |  1 | -------- |  ----  |SINGLE|    4    | 0 |           0|
                      0 :: first command
     line ::    93 :: |              328906 ns|              329791 ns|RD-DATA   | 48260190 |  1/ 1 | -- | 00000000 |  OKAY  | ---- | ------- | - | ---------- |
                      ::             AHB address transfer phase detected
                      :: sequential  AHB data    transfer phase detected FIRST
                         DATA transfer assertion time :   328906 ns
                         ADDR transfer assertion time :   328901 ns
     line ::    94 :: |              330341 ns|              330346 ns|RD-NONSEQ | 48260190 | ----- |  1 | -------- |  ----  |SINGLE|    4    | 0 |           0|
                      0 :: first command
     line ::    95 :: |              330346 ns|              331231 ns|RD-DATA   | 48260190 |  1/ 1 | -- | 00000000 |  OKAY  | ---- | ------- | - | ---------- |
                      ::             AHB address transfer phase detected
                      :: sequential  AHB data    transfer phase detected FIRST
                         DATA transfer assertion time :   330346 ns
                         ADDR transfer assertion time :   330341 ns
     line ::    96 :: |              331781 ns|              331786 ns|RD-NONSEQ | 48260190 | ----- |  1 | -------- |  ----  |SINGLE|    4    | 0 |           0|
                      0 :: first command
     line ::    97 :: |              331786 ns|              332671 ns|RD-DATA   | 48260190 |  1/ 1 | -- | 00000000 |  OKAY  | ---- | ------- | - | ---------- |
                      ::             AHB address transfer phase detected
                      :: sequential  AHB data    transfer phase detected FIRST
                         DATA transfer assertion time :   331786 ns
                         ADDR transfer assertion time :   331781 ns
     line ::    98 :: |              333221 ns|              333226 ns|RD-NONSEQ | 48260190 | ----- |  1 | -------- |  ----  |SINGLE|    4    | 0 |           0|
                      0 :: first command
     line ::    99 :: |              333226 ns|              334151 ns|RD-DATA   | 48260190 |  1/ 1 | -- | 00000000 |  OKAY  | ---- | ------- | - | ---------- |
                      ::             AHB address transfer phase detected
                      :: sequential  AHB data    transfer phase detected FIRST
                         DATA transfer assertion time :   333226 ns
                         ADDR transfer assertion time :   333221 ns
     line ::   100 :: |              334701 ns|              334706 ns|RD-NONSEQ | 48260190 | ----- |  1 | -------- |  ----  |SINGLE|    4    | 0 |           0|
                      0 :: first command
     line ::   101 :: |              334706 ns|              335591 ns|RD-DATA   | 48260190 |  1/ 1 | -- | 00000001 |  OKAY  | ---- | ------- | - | ---------- |
                      ::             AHB address transfer phase detected
                      :: sequential  AHB data    transfer phase detected FIRST
                         DATA transfer assertion time :   334706 ns
                         ADDR transfer assertion time :   334701 ns
     line ::   102 :: |              335641 ns|              335646 ns|RD-NONSEQ | 4826018C | ----- |  1 | -------- |  ----  |SINGLE|    4    | 0 |           0|
                      0 :: first command
     line ::   103 :: |              335646 ns|              336551 ns|RD-DATA   | 4826018C |  1/ 1 | -- | 0000623F |  OKAY  | ---- | ------- | - | ---------- |
                      ::             AHB address transfer phase detected
                      :: sequential  AHB data    transfer phase detected FIRST
                         DATA transfer assertion time :   335646 ns
                         ADDR transfer assertion time :   335641 ns
     line ::   104 :: |              336606 ns|              336611 ns|WR-NONSEQ | 4826018C | ----- |  1 | -------- |  ----  |SINGLE|    4    | 0 |           0|
                      0 :: first command
     line ::   105 :: |              336611 ns|              337591 ns|WR-DATA   | 4826018C |  1/ 1 | -- | 0000623E |  OKAY  | ---- | ------- | - | ---------- |
                      ::             AHB address transfer phase detected
                      :: sequential  AHB data    transfer phase detected FIRST
                         DATA transfer assertion time :   336611 ns
                         ADDR transfer assertion time :   336606 ns
     line ::   106 :: |              337641 ns|              337646 ns|RD-NONSEQ | 4826017C | ----- |  1 | -------- |  ----  |SINGLE|    4    | 0 |           0|
                      0 :: first command
     line ::   107 :: |              337646 ns|              338511 ns|RD-DATA   | 4826017C |  1/ 1 | -- | 84002040 |  OKAY  | ---- | ------- | - | ---------- |
                      ::             AHB address transfer phase detected
                      :: sequential  AHB data    transfer phase detected FIRST
                         DATA transfer assertion time :   337646 ns
                         ADDR transfer assertion time :   337641 ns
     line ::   108 :: |              338566 ns|              338571 ns|WR-NONSEQ | 4826017C | ----- |  1 | -------- |  ----  |SINGLE|    4    | 0 |           0|
                      0 :: first command
     line ::   109 :: |              338571 ns|              339471 ns|WR-DATA   | 4826017C |  1/ 1 | -- | 84002041 |  OKAY  | ---- | ------- | - | ---------- |
                      ::             AHB address transfer phase detected
                      :: sequential  AHB data    transfer phase detected FIRST
                         DATA transfer assertion time :   338571 ns
                         ADDR transfer assertion time :   338566 ns
     line ::   110 :: |              339726 ns|              339731 ns|WR-NONSEQ | 4826017C | ----- |  1 | -------- |  ----  |SINGLE|    4    | 0 |           0|
                      0 :: first command
     line ::   111 :: |              339731 ns|              340671 ns|WR-DATA   | 4826017C |  1/ 1 | -- | 84002001 |  OKAY  | ---- | ------- | - | ---------- |
                      ::             AHB address transfer phase detected
                      :: sequential  AHB data    transfer phase detected FIRST
                         DATA transfer assertion time :   339731 ns
                         ADDR transfer assertion time :   339726 ns
     line ::   112 :: |              341121 ns|              341126 ns|RD-NONSEQ | 482601B4 | ----- |  1 | -------- |  ----  |SINGLE|    4    | 0 |           0|
                      0 :: first command
     line ::   113 :: |              341126 ns|              341991 ns|RD-DATA   | 482601B4 |  1/ 1 | -- | 000001CB |  OKAY  | ---- | ------- | - | ---------- |
                      ::             AHB address transfer phase detected
                      :: sequential  AHB data    transfer phase detected FIRST
                         DATA transfer assertion time :   341126 ns
                         ADDR transfer assertion time :   341121 ns
     line ::   114 :: |              342046 ns|              342051 ns|WR-NONSEQ | 482601B4 | ----- |  1 | -------- |  ----  |SINGLE|    4    | 0 |           0|
                      0 :: first command
     line ::   115 :: |              342051 ns|              342836 ns|WR-DATA   | 482601B4 |  1/ 1 | -- | 0000014B |  OKAY  | ---- | ------- | - | ---------- |
                      ::             AHB address transfer phase detected
                      :: sequential  AHB data    transfer phase detected FIRST
                         DATA transfer assertion time :   342051 ns
                         ADDR transfer assertion time :   342046 ns
     line ::   116 :: |              342886 ns|              342891 ns|RD-NONSEQ | 482601C0 | ----- |  1 | -------- |  ----  |SINGLE|    4    | 0 |           0|
                      0 :: first command
     line ::   117 :: |              342891 ns|              343596 ns|RD-DATA   | 482601C0 |  1/ 1 | -- | 000007CB |  OKAY  | ---- | ------- | - | ---------- |
                      ::             AHB address transfer phase detected
                      :: sequential  AHB data    transfer phase detected FIRST
                         DATA transfer assertion time :   342891 ns
                         ADDR transfer assertion time :   342886 ns
     line ::   118 :: |              343651 ns|              343656 ns|WR-NONSEQ | 482601C0 | ----- |  1 | -------- |  ----  |SINGLE|    4    | 0 |           0|
                      0 :: first command
     line ::   119 :: |              343656 ns|              344176 ns|WR-DATA   | 482601C0 |  1/ 1 | -- | 0000074B |  OKAY  | ---- | ------- | - | ---------- |
                      ::             AHB address transfer phase detected
                      :: sequential  AHB data    transfer phase detected FIRST
                         DATA transfer assertion time :   343656 ns
                         ADDR transfer assertion time :   343651 ns
     line ::   120 :: |              344226 ns|              344231 ns|RD-NONSEQ | 48260194 | ----- |  1 | -------- |  ----  |SINGLE|    4    | 0 |           0|
                      0 :: first command
     line ::   121 :: |              344231 ns|              344576 ns|RD-DATA   | 48260194 |  1/ 1 | -- | 43002E00 |  OKAY  | ---- | ------- | - | ---------- |
                      ::             AHB address transfer phase detected
                      :: sequential  AHB data    transfer phase detected FIRST
                         DATA transfer assertion time :   344231 ns
                         ADDR transfer assertion time :   344226 ns
     line ::   122 :: |              344626 ns|              344631 ns|RD-NONSEQ | 48260164 | ----- |  1 | -------- |  ----  |SINGLE|    4    | 0 |           0|
                      0 :: first command
     line ::   123 :: |              344631 ns|              344976 ns|RD-DATA   | 48260164 |  1/ 1 | -- | 20B01E01 |  OKAY  | ---- | ------- | - | ---------- |
                      ::             AHB address transfer phase detected
                      :: sequential  AHB data    transfer phase detected FIRST
                         DATA transfer assertion time :   344631 ns
                         ADDR transfer assertion time :   344626 ns
     line ::   124 :: |              345031 ns|              345036 ns|WR-NONSEQ | 48260194 | ----- |  1 | -------- |  ----  |SINGLE|    4    | 0 |           0|
                      0 :: first command
     line ::   125 :: |              345036 ns|              345336 ns|WR-DATA   | 48260194 |  1/ 1 | -- | 43002E40 |  OKAY  | ---- | ------- | - | ---------- |
                      ::             AHB address transfer phase detected
                      :: sequential  AHB data    transfer phase detected FIRST
                         DATA transfer assertion time :   345036 ns
                         ADDR transfer assertion time :   345031 ns
     line ::   126 :: |              345391 ns|              345396 ns|WR-NONSEQ | 48260164 | ----- |  1 | -------- |  ----  |SINGLE|    4    | 0 |           0|
                      0 :: first command
     line ::   127 :: |              345396 ns|              345706 ns|WR-DATA   | 48260164 |  1/ 1 | -- | 20B01E41 |  OKAY  | ---- | ------- | - | ---------- |
                      ::             AHB address transfer phase detected
                      :: sequential  AHB data    transfer phase detected FIRST
                         DATA transfer assertion time :   345396 ns
                         ADDR transfer assertion time :   345391 ns
     line ::   128 :: |              345786 ns|              345791 ns|RD-NONSEQ | 48260194 | ----- |  1 | -------- |  ----  |SINGLE|    4    | 0 |           0|
                      0 :: first command
     line ::   129 :: |              345791 ns|              346136 ns|RD-DATA   | 48260194 |  1/ 1 | -- | 43002E40 |  OKAY  | ---- | ------- | - | ---------- |
                      ::             AHB address transfer phase detected
                      :: sequential  AHB data    transfer phase detected FIRST
                         DATA transfer assertion time :   345791 ns
                         ADDR transfer assertion time :   345786 ns
     line ::   130 :: |              346186 ns|              346191 ns|RD-NONSEQ | 48260164 | ----- |  1 | -------- |  ----  |SINGLE|    4    | 0 |           0|
                      0 :: first command
     line ::   131 :: |              346191 ns|              346496 ns|RD-DATA   | 48260164 |  1/ 1 | -- | 20B01E41 |  OKAY  | ---- | ------- | - | ---------- |
                      ::             AHB address transfer phase detected
                      :: sequential  AHB data    transfer phase detected FIRST
                         DATA transfer assertion time :   346191 ns
                         ADDR transfer assertion time :   346186 ns
     line ::   132 :: |              346551 ns|              346556 ns|WR-NONSEQ | 48260194 | ----- |  1 | -------- |  ----  |SINGLE|    4    | 0 |           0|
                      0 :: first command
     line ::   133 :: |              346556 ns|              346856 ns|WR-DATA   | 48260194 |  1/ 1 | -- | 43002E40 |  OKAY  | ---- | ------- | - | ---------- |
                      ::             AHB address transfer phase detected
                      :: sequential  AHB data    transfer phase detected FIRST
                         DATA transfer assertion time :   346556 ns
                         ADDR transfer assertion time :   346551 ns
     line ::   134 :: |              346911 ns|              346916 ns|WR-NONSEQ | 48260164 | ----- |  1 | -------- |  ----  |SINGLE|    4    | 0 |           0|
                      0 :: first command
     line ::   135 :: |              346916 ns|              347256 ns|WR-DATA   | 48260164 |  1/ 1 | -- | 20B01E40 |  OKAY  | ---- | ------- | - | ---------- |
                      ::             AHB address transfer phase detected
                      :: sequential  AHB data    transfer phase detected FIRST
                         DATA transfer assertion time :   346916 ns
                         ADDR transfer assertion time :   346911 ns
     line ::   136 :: |              347306 ns|              347311 ns|RD-NONSEQ | 48260194 | ----- |  1 | -------- |  ----  |SINGLE|    4    | 0 |           0|
                      0 :: first command
     line ::   137 :: |              347311 ns|              347656 ns|RD-DATA   | 48260194 |  1/ 1 | -- | 43002E40 |  OKAY  | ---- | ------- | - | ---------- |
                      ::             AHB address transfer phase detected
                      :: sequential  AHB data    transfer phase detected FIRST
                         DATA transfer assertion time :   347311 ns
                         ADDR transfer assertion time :   347306 ns
     line ::   138 :: |              347706 ns|              347711 ns|RD-NONSEQ | 48260164 | ----- |  1 | -------- |  ----  |SINGLE|    4    | 0 |           0|
                      0 :: first command
     line ::   139 :: |              347711 ns|              348056 ns|RD-DATA   | 48260164 |  1/ 1 | -- | 20B01E40 |  OKAY  | ---- | ------- | - | ---------- |
                      ::             AHB address transfer phase detected
                      :: sequential  AHB data    transfer phase detected FIRST
                         DATA transfer assertion time :   347711 ns
                         ADDR transfer assertion time :   347706 ns
     line ::   140 :: |              348111 ns|              348116 ns|WR-NONSEQ | 48260194 | ----- |  1 | -------- |  ----  |SINGLE|    4    | 0 |           0|
                      0 :: first command
     line ::   141 :: |              348116 ns|              348456 ns|WR-DATA   | 48260194 |  1/ 1 | -- | 43002E40 |  OKAY  | ---- | ------- | - | ---------- |
                      ::             AHB address transfer phase detected
                      :: sequential  AHB data    transfer phase detected FIRST
                         DATA transfer assertion time :   348116 ns
                         ADDR transfer assertion time :   348111 ns
     line ::   142 :: |              348511 ns|              348516 ns|WR-NONSEQ | 48260164 | ----- |  1 | -------- |  ----  |SINGLE|    4    | 0 |           0|
                      0 :: first command
     line ::   143 :: |              348516 ns|              348816 ns|WR-DATA   | 48260164 |  1/ 1 | -- | 20B01E40 |  OKAY  | ---- | ------- | - | ---------- |
                      ::             AHB address transfer phase detected
                      :: sequential  AHB data    transfer phase detected FIRST
                         DATA transfer assertion time :   348516 ns
                         ADDR transfer assertion time :   348511 ns
     line ::   144 :: |              349011 ns|              349016 ns|WR-NONSEQ | 48260194 | ----- |  1 | -------- |  ----  |SINGLE|    4    | 0 |           0|
                      0 :: first command
     line ::   145 :: |              349016 ns|              349376 ns|WR-DATA   | 48260194 |  1/ 1 | -- | 43002E40 |  OKAY  | ---- | ------- | - | ---------- |
                      ::             AHB address transfer phase detected
                      :: sequential  AHB data    transfer phase detected FIRST
                         DATA transfer assertion time :   349016 ns
                         ADDR transfer assertion time :   349011 ns
     line ::   146 :: |              349431 ns|              349436 ns|WR-NONSEQ | 48260164 | ----- |  1 | -------- |  ----  |SINGLE|    4    | 0 |           0|
                      0 :: first command
     line ::   147 :: |              349436 ns|              349746 ns|WR-DATA   | 48260164 |  1/ 1 | -- | 20B01E40 |  OKAY  | ---- | ------- | - | ---------- |
                      ::             AHB address transfer phase detected
                      :: sequential  AHB data    transfer phase detected FIRST
                         DATA transfer assertion time :   349436 ns
                         ADDR transfer assertion time :   349431 ns
     line ::   148 :: |              349801 ns|              349806 ns|WR-NONSEQ | 48260194 | ----- |  1 | -------- |  ----  |SINGLE|    4    | 0 |           0|
                      0 :: first command
     line ::   149 :: |              349806 ns|              350136 ns|WR-DATA   | 48260194 |  1/ 1 | -- | 83002E40 |  OKAY  | ---- | ------- | - | ---------- |
                      ::             AHB address transfer phase detected
                      :: sequential  AHB data    transfer phase detected FIRST
                         DATA transfer assertion time :   349806 ns
                         ADDR transfer assertion time :   349801 ns
     line ::   150 :: |              350191 ns|              350196 ns|WR-NONSEQ | 48260164 | ----- |  1 | -------- |  ----  |SINGLE|    4    | 0 |           0|
                      0 :: first command
     line ::   151 :: |              350196 ns|              350536 ns|WR-DATA   | 48260164 |  1/ 1 | -- | 42C02E40 |  OKAY  | ---- | ------- | - | ---------- |
                      ::             AHB address transfer phase detected
                      :: sequential  AHB data    transfer phase detected FIRST
                         DATA transfer assertion time :   350196 ns
                         ADDR transfer assertion time :   350191 ns
     line ::   152 :: |              350591 ns|              350596 ns|WR-NONSEQ | 48260194 | ----- |  1 | -------- |  ----  |SINGLE|    4    | 0 |           0|
                      0 :: first command
     line ::   153 :: |              350596 ns|              350936 ns|WR-DATA   | 48260194 |  1/ 1 | -- | 83002240 |  OKAY  | ---- | ------- | - | ---------- |
                      ::             AHB address transfer phase detected
                      :: sequential  AHB data    transfer phase detected FIRST
                         DATA transfer assertion time :   350596 ns
                         ADDR transfer assertion time :   350591 ns
     line ::   154 :: |              350991 ns|              350996 ns|WR-NONSEQ | 48260164 | ----- |  1 | -------- |  ----  |SINGLE|    4    | 0 |           0|
                      0 :: first command
     line ::   155 :: |              350996 ns|              351296 ns|WR-DATA   | 48260164 |  1/ 1 | -- | 42C02240 |  OKAY  | ---- | ------- | - | ---------- |
                      ::             AHB address transfer phase detected
                      :: sequential  AHB data    transfer phase detected FIRST
                         DATA transfer assertion time :   350996 ns
                         ADDR transfer assertion time :   350991 ns
     line ::   156 :: |              360991 ns|              360996 ns|WR-NONSEQ | 48260194 | ----- |  1 | -------- |  ----  |SINGLE|    4    | 0 |           0|
                      0 :: first command
     line ::   157 :: |              360996 ns|              361296 ns|WR-DATA   | 48260194 |  1/ 1 | -- | 83002040 |  OKAY  | ---- | ------- | - | ---------- |
                      ::             AHB address transfer phase detected
                      :: sequential  AHB data    transfer phase detected FIRST
                         DATA transfer assertion time :   360996 ns
                         ADDR transfer assertion time :   360991 ns
     line ::   158 :: |              361351 ns|              361356 ns|WR-NONSEQ | 48260164 | ----- |  1 | -------- |  ----  |SINGLE|    4    | 0 |           0|
                      0 :: first command
     line ::   159 :: |              361356 ns|              361666 ns|WR-DATA   | 48260164 |  1/ 1 | -- | 42C02040 |  OKAY  | ---- | ------- | - | ---------- |
                      ::             AHB address transfer phase detected
                      :: sequential  AHB data    transfer phase detected FIRST
                         DATA transfer assertion time :   361356 ns
                         ADDR transfer assertion time :   361351 ns
     line ::   160 :: |              361846 ns|              361851 ns|RD-NONSEQ | 482601A8 | ----- |  1 | -------- |  ----  |SINGLE|    4    | 0 |           0|
                      0 :: first command
     line ::   161 :: |              361851 ns|              362176 ns|RD-DATA   | 482601A8 |  1/ 1 | -- | 00000000 |  OKAY  | ---- | ------- | - | ---------- |
                      ::             AHB address transfer phase detected
                      :: sequential  AHB data    transfer phase detected FIRST
                         DATA transfer assertion time :   361851 ns
                         ADDR transfer assertion time :   361846 ns
     line ::   162 :: |              362226 ns|              362231 ns|RD-NONSEQ | 48260178 | ----- |  1 | -------- |  ----  |SINGLE|    4    | 0 |           0|
                      0 :: first command
     line ::   163 :: |              362231 ns|              362576 ns|RD-DATA   | 48260178 |  1/ 1 | -- | 00000000 |  OKAY  | ---- | ------- | - | ---------- |
                      ::             AHB address transfer phase detected
                      :: sequential  AHB data    transfer phase detected FIRST
                         DATA transfer assertion time :   362231 ns
                         ADDR transfer assertion time :   362226 ns
     line ::   164 :: |              362726 ns|              362731 ns|RD-NONSEQ | 482601A8 | ----- |  1 | -------- |  ----  |SINGLE|    4    | 0 |           0|
                      0 :: first command
     line ::   165 :: |              362731 ns|              363056 ns|RD-DATA   | 482601A8 |  1/ 1 | -- | 00000000 |  OKAY  | ---- | ------- | - | ---------- |
                      ::             AHB address transfer phase detected
                      :: sequential  AHB data    transfer phase detected FIRST
                         DATA transfer assertion time :   362731 ns
                         ADDR transfer assertion time :   362726 ns
     line ::   166 :: |              363126 ns|              363131 ns|RD-NONSEQ | 48260178 | ----- |  1 | -------- |  ----  |SINGLE|    4    | 0 |           0|
                      0 :: first command
     line ::   167 :: |              363131 ns|              363466 ns|RD-DATA   | 48260178 |  1/ 1 | -- | 00000000 |  OKAY  | ---- | ------- | - | ---------- |
                      ::             AHB address transfer phase detected
                      :: sequential  AHB data    transfer phase detected FIRST
                         DATA transfer assertion time :   363131 ns
                         ADDR transfer assertion time :   363126 ns
     line ::   168 :: |              363606 ns|              363611 ns|RD-NONSEQ | 482601A8 | ----- |  1 | -------- |  ----  |SINGLE|    4    | 0 |           0|
                      0 :: first command
     line ::   169 :: |              363611 ns|              363946 ns|RD-DATA   | 482601A8 |  1/ 1 | -- | 00000000 |  OKAY  | ---- | ------- | - | ---------- |
                      ::             AHB address transfer phase detected
                      :: sequential  AHB data    transfer phase detected FIRST
                         DATA transfer assertion time :   363611 ns
                         ADDR transfer assertion time :   363606 ns
     line ::   170 :: |              364016 ns|              364021 ns|RD-NONSEQ | 48260178 | ----- |  1 | -------- |  ----  |SINGLE|    4    | 0 |           0|
                      0 :: first command
     line ::   171 :: |              364021 ns|              364346 ns|RD-DATA   | 48260178 |  1/ 1 | -- | 00000000 |  OKAY  | ---- | ------- | - | ---------- |
                      ::             AHB address transfer phase detected
                      :: sequential  AHB data    transfer phase detected FIRST
                         DATA transfer assertion time :   364021 ns
                         ADDR transfer assertion time :   364016 ns
     line ::   172 :: |              364496 ns|              364501 ns|RD-NONSEQ | 482601A8 | ----- |  1 | -------- |  ----  |SINGLE|    4    | 0 |           0|
                      0 :: first command
     line ::   173 :: |              364501 ns|              364856 ns|RD-DATA   | 482601A8 |  1/ 1 | -- | 00000000 |  OKAY  | ---- | ------- | - | ---------- |
                      ::             AHB address transfer phase detected
                      :: sequential  AHB data    transfer phase detected FIRST
                         DATA transfer assertion time :   364501 ns
                         ADDR transfer assertion time :   364496 ns
     line ::   174 :: |              364906 ns|              364911 ns|RD-NONSEQ | 48260178 | ----- |  1 | -------- |  ----  |SINGLE|    4    | 0 |           0|
                      0 :: first command
     line ::   175 :: |              364911 ns|              365216 ns|RD-DATA   | 48260178 |  1/ 1 | -- | 00000000 |  OKAY  | ---- | ------- | - | ---------- |
                      ::             AHB address transfer phase detected
                      :: sequential  AHB data    transfer phase detected FIRST
                         DATA transfer assertion time :   364911 ns
                         ADDR transfer assertion time :   364906 ns
     line ::   176 :: |              365406 ns|              365411 ns|RD-NONSEQ | 482601A8 | ----- |  1 | -------- |  ----  |SINGLE|    4    | 0 |           0|
                      0 :: first command
     line ::   177 :: |              365411 ns|              365776 ns|RD-DATA   | 482601A8 |  1/ 1 | -- | 00000000 |  OKAY  | ---- | ------- | - | ---------- |
                      ::             AHB address transfer phase detected
                      :: sequential  AHB data    transfer phase detected FIRST
                         DATA transfer assertion time :   365411 ns
                         ADDR transfer assertion time :   365406 ns
     line ::   178 :: |              365826 ns|              365831 ns|RD-NONSEQ | 48260178 | ----- |  1 | -------- |  ----  |SINGLE|    4    | 0 |           0|
                      0 :: first command
     line ::   179 :: |              365831 ns|              366146 ns|RD-DATA   | 48260178 |  1/ 1 | -- | 00000000 |  OKAY  | ---- | ------- | - | ---------- |
                      ::             AHB address transfer phase detected
                      :: sequential  AHB data    transfer phase detected FIRST
                         DATA transfer assertion time :   365831 ns
                         ADDR transfer assertion time :   365826 ns
     line ::   180 :: |              366326 ns|              366331 ns|RD-NONSEQ | 482601A8 | ----- |  1 | -------- |  ----  |SINGLE|    4    | 0 |           0|
                      0 :: first command
     line ::   181 :: |              366331 ns|              366666 ns|RD-DATA   | 482601A8 |  1/ 1 | -- | 00000000 |  OKAY  | ---- | ------- | - | ---------- |
                      ::             AHB address transfer phase detected
                      :: sequential  AHB data    transfer phase detected FIRST
                         DATA transfer assertion time :   366331 ns
                         ADDR transfer assertion time :   366326 ns
     line ::   182 :: |              366716 ns|              366721 ns|RD-NONSEQ | 48260178 | ----- |  1 | -------- |  ----  |SINGLE|    4    | 0 |           0|
                      0 :: first command
     line ::   183 :: |              366721 ns|              367016 ns|RD-DATA   | 48260178 |  1/ 1 | -- | 00000000 |  OKAY  | ---- | ------- | - | ---------- |
                      ::             AHB address transfer phase detected
                      :: sequential  AHB data    transfer phase detected FIRST
                         DATA transfer assertion time :   366721 ns
                         ADDR transfer assertion time :   366716 ns
     line ::   184 :: |              367216 ns|              367221 ns|RD-NONSEQ | 482601A8 | ----- |  1 | -------- |  ----  |SINGLE|    4    | 0 |           0|
                      0 :: first command
     line ::   185 :: |              367221 ns|              367536 ns|RD-DATA   | 482601A8 |  1/ 1 | -- | 00000000 |  OKAY  | ---- | ------- | - | ---------- |
                      ::             AHB address transfer phase detected
                      :: sequential  AHB data    transfer phase detected FIRST
                         DATA transfer assertion time :   367221 ns
                         ADDR transfer assertion time :   367216 ns
     line ::   186 :: |              367586 ns|              367591 ns|RD-NONSEQ | 48260178 | ----- |  1 | -------- |  ----  |SINGLE|    4    | 0 |           0|
                      0 :: first command
     line ::   187 :: |              367591 ns|              367896 ns|RD-DATA   | 48260178 |  1/ 1 | -- | 00000000 |  OKAY  | ---- | ------- | - | ---------- |
                      ::             AHB address transfer phase detected
                      :: sequential  AHB data    transfer phase detected FIRST
                         DATA transfer assertion time :   367591 ns
                         ADDR transfer assertion time :   367586 ns
     line ::   188 :: |              368086 ns|              368091 ns|RD-NONSEQ | 482601A8 | ----- |  1 | -------- |  ----  |SINGLE|    4    | 0 |           0|
                      0 :: first command
     line ::   189 :: |              368091 ns|              368416 ns|RD-DATA   | 482601A8 |  1/ 1 | -- | 00000000 |  OKAY  | ---- | ------- | - | ---------- |
                      ::             AHB address transfer phase detected
                      :: sequential  AHB data    transfer phase detected FIRST
                         DATA transfer assertion time :   368091 ns
                         ADDR transfer assertion time :   368086 ns
     line ::   190 :: |              368466 ns|              368471 ns|RD-NONSEQ | 48260178 | ----- |  1 | -------- |  ----  |SINGLE|    4    | 0 |           0|
                      0 :: first command
     line ::   191 :: |              368471 ns|              368776 ns|RD-DATA   | 48260178 |  1/ 1 | -- | 00000000 |  OKAY  | ---- | ------- | - | ---------- |
                      ::             AHB address transfer phase detected
                      :: sequential  AHB data    transfer phase detected FIRST
                         DATA transfer assertion time :   368471 ns
                         ADDR transfer assertion time :   368466 ns
     line ::   192 :: |              368966 ns|              368971 ns|RD-NONSEQ | 482601A8 | ----- |  1 | -------- |  ----  |SINGLE|    4    | 0 |           0|
                      0 :: first command
     line ::   193 :: |              368971 ns|              369296 ns|RD-DATA   | 482601A8 |  1/ 1 | -- | 00000000 |  OKAY  | ---- | ------- | - | ---------- |
                      ::             AHB address transfer phase detected
                      :: sequential  AHB data    transfer phase detected FIRST
                         DATA transfer assertion time :   368971 ns
                         ADDR transfer assertion time :   368966 ns
     line ::   194 :: |              369346 ns|              369351 ns|RD-NONSEQ | 48260178 | ----- |  1 | -------- |  ----  |SINGLE|    4    | 0 |           0|
                      0 :: first command
     line ::   195 :: |              369351 ns|              369666 ns|RD-DATA   | 48260178 |  1/ 1 | -- | 00000000 |  OKAY  | ---- | ------- | - | ---------- |
                      ::             AHB address transfer phase detected
                      :: sequential  AHB data    transfer phase detected FIRST
                         DATA transfer assertion time :   369351 ns
                         ADDR transfer assertion time :   369346 ns
     line ::   196 :: |              369846 ns|              369851 ns|RD-NONSEQ | 482601A8 | ----- |  1 | -------- |  ----  |SINGLE|    4    | 0 |           0|
                      0 :: first command
     line ::   197 :: |              369851 ns|              370186 ns|RD-DATA   | 482601A8 |  1/ 1 | -- | 00000000 |  OKAY  | ---- | ------- | - | ---------- |
                      ::             AHB address transfer phase detected
                      :: sequential  AHB data    transfer phase detected FIRST
                         DATA transfer assertion time :   369851 ns
                         ADDR transfer assertion time :   369846 ns
     line ::   198 :: |              370236 ns|              370241 ns|RD-NONSEQ | 48260178 | ----- |  1 | -------- |  ----  |SINGLE|    4    | 0 |           0|
                      0 :: first command
     line ::   199 :: |              370241 ns|              370546 ns|RD-DATA   | 48260178 |  1/ 1 | -- | 00000000 |  OKAY  | ---- | ------- | - | ---------- |
                      ::             AHB address transfer phase detected
                      :: sequential  AHB data    transfer phase detected FIRST
                         DATA transfer assertion time :   370241 ns
                         ADDR transfer assertion time :   370236 ns
     line ::   200 :: |              370736 ns|              370741 ns|RD-NONSEQ | 482601A8 | ----- |  1 | -------- |  ----  |SINGLE|    4    | 0 |           0|
                      0 :: first command
     line ::   201 :: |              370741 ns|              371056 ns|RD-DATA   | 482601A8 |  1/ 1 | -- | 00000000 |  OKAY  | ---- | ------- | - | ---------- |
                      ::             AHB address transfer phase detected
                      :: sequential  AHB data    transfer phase detected FIRST
                         DATA transfer assertion time :   370741 ns
                         ADDR transfer assertion time :   370736 ns
     line ::   202 :: |              371106 ns|              371111 ns|RD-NONSEQ | 48260178 | ----- |  1 | -------- |  ----  |SINGLE|    4    | 0 |           0|
                      0 :: first command
     line ::   203 :: |              371111 ns|              371426 ns|RD-DATA   | 48260178 |  1/ 1 | -- | 00000000 |  OKAY  | ---- | ------- | - | ---------- |
                      ::             AHB address transfer phase detected
                      :: sequential  AHB data    transfer phase detected FIRST
                         DATA transfer assertion time :   371111 ns
                         ADDR transfer assertion time :   371106 ns
     line ::   204 :: |              371606 ns|              371611 ns|RD-NONSEQ | 482601A8 | ----- |  1 | -------- |  ----  |SINGLE|    4    | 0 |           0|
                      0 :: first command
     line ::   205 :: |              371611 ns|              371936 ns|RD-DATA   | 482601A8 |  1/ 1 | -- | 00000000 |  OKAY  | ---- | ------- | - | ---------- |
                      ::             AHB address transfer phase detected
                      :: sequential  AHB data    transfer phase detected FIRST
                         DATA transfer assertion time :   371611 ns
                         ADDR transfer assertion time :   371606 ns
     line ::   206 :: |              371986 ns|              371991 ns|RD-NONSEQ | 48260178 | ----- |  1 | -------- |  ----  |SINGLE|    4    | 0 |           0|
                      0 :: first command
     line ::   207 :: |              371991 ns|              372296 ns|RD-DATA   | 48260178 |  1/ 1 | -- | 00000000 |  OKAY  | ---- | ------- | - | ---------- |
                      ::             AHB address transfer phase detected
                      :: sequential  AHB data    transfer phase detected FIRST
                         DATA transfer assertion time :   371991 ns
                         ADDR transfer assertion time :   371986 ns
     line ::   208 :: |              372486 ns|              372491 ns|RD-NONSEQ | 482601A8 | ----- |  1 | -------- |  ----  |SINGLE|    4    | 0 |           0|
                      0 :: first command
     line ::   209 :: |              372491 ns|              372816 ns|RD-DATA   | 482601A8 |  1/ 1 | -- | 00000000 |  OKAY  | ---- | ------- | - | ---------- |
                      ::             AHB address transfer phase detected
                      :: sequential  AHB data    transfer phase detected FIRST
                         DATA transfer assertion time :   372491 ns
                         ADDR transfer assertion time :   372486 ns
     line ::   210 :: |              372866 ns|              372871 ns|RD-NONSEQ | 48260178 | ----- |  1 | -------- |  ----  |SINGLE|    4    | 0 |           0|
                      0 :: first command
     line ::   211 :: |              372871 ns|              373186 ns|RD-DATA   | 48260178 |  1/ 1 | -- | 00000000 |  OKAY  | ---- | ------- | - | ---------- |
                      ::             AHB address transfer phase detected
                      :: sequential  AHB data    transfer phase detected FIRST
                         DATA transfer assertion time :   372871 ns
                         ADDR transfer assertion time :   372866 ns
     line ::   212 :: |              373366 ns|              373371 ns|RD-NONSEQ | 482601A8 | ----- |  1 | -------- |  ----  |SINGLE|    4    | 0 |           0|
                      0 :: first command
     line ::   213 :: |              373371 ns|              373696 ns|RD-DATA   | 482601A8 |  1/ 1 | -- | 00000000 |  OKAY  | ---- | ------- | - | ---------- |
                      ::             AHB address transfer phase detected
                      :: sequential  AHB data    transfer phase detected FIRST
                         DATA transfer assertion time :   373371 ns
                         ADDR transfer assertion time :   373366 ns
     line ::   214 :: |              373746 ns|              373751 ns|RD-NONSEQ | 48260178 | ----- |  1 | -------- |  ----  |SINGLE|    4    | 0 |           0|
                      0 :: first command
     line ::   215 :: |              373751 ns|              374056 ns|RD-DATA   | 48260178 |  1/ 1 | -- | 00000000 |  OKAY  | ---- | ------- | - | ---------- |
                      ::             AHB address transfer phase detected
                      :: sequential  AHB data    transfer phase detected FIRST
                         DATA transfer assertion time :   373751 ns
                         ADDR transfer assertion time :   373746 ns
     line ::   216 :: |              374246 ns|              374251 ns|RD-NONSEQ | 482601A8 | ----- |  1 | -------- |  ----  |SINGLE|    4    | 0 |           0|
                      0 :: first command
     line ::   217 :: |              374251 ns|              374576 ns|RD-DATA   | 482601A8 |  1/ 1 | -- | 00000000 |  OKAY  | ---- | ------- | - | ---------- |
                      ::             AHB address transfer phase detected
                      :: sequential  AHB data    transfer phase detected FIRST
                         DATA transfer assertion time :   374251 ns
                         ADDR transfer assertion time :   374246 ns
     line ::   218 :: |              374626 ns|              374631 ns|RD-NONSEQ | 48260178 | ----- |  1 | -------- |  ----  |SINGLE|    4    | 0 |           0|
                      0 :: first command
     line ::   219 :: |              374631 ns|              374936 ns|RD-DATA   | 48260178 |  1/ 1 | -- | 00000000 |  OKAY  | ---- | ------- | - | ---------- |
                      ::             AHB address transfer phase detected
                      :: sequential  AHB data    transfer phase detected FIRST
                         DATA transfer assertion time :   374631 ns
                         ADDR transfer assertion time :   374626 ns
     line ::   220 :: |              375126 ns|              375131 ns|RD-NONSEQ | 482601A8 | ----- |  1 | -------- |  ----  |SINGLE|    4    | 0 |           0|
                      0 :: first command
     line ::   221 :: |              375131 ns|              375456 ns|RD-DATA   | 482601A8 |  1/ 1 | -- | 00000001 |  OKAY  | ---- | ------- | - | ---------- |
                      ::             AHB address transfer phase detected
                      :: sequential  AHB data    transfer phase detected FIRST
                         DATA transfer assertion time :   375131 ns
                         ADDR transfer assertion time :   375126 ns
     line ::   222 :: |              375506 ns|              375511 ns|RD-NONSEQ | 48260178 | ----- |  1 | -------- |  ----  |SINGLE|    4    | 0 |           0|
                      0 :: first command
     line ::   223 :: |              375511 ns|              375816 ns|RD-DATA   | 48260178 |  1/ 1 | -- | 00000001 |  OKAY  | ---- | ------- | - | ---------- |
                      ::             AHB address transfer phase detected
                      :: sequential  AHB data    transfer phase detected FIRST
                         DATA transfer assertion time :   375511 ns
                         ADDR transfer assertion time :   375506 ns
     line ::   224 :: |              375866 ns|              375871 ns|RD-NONSEQ | 482601A4 | ----- |  1 | -------- |  ----  |SINGLE|    4    | 0 |           0|
                      0 :: first command
     line ::   225 :: |              375871 ns|              376176 ns|RD-DATA   | 482601A4 |  1/ 1 | -- | 0000623F |  OKAY  | ---- | ------- | - | ---------- |
                      ::             AHB address transfer phase detected
                      :: sequential  AHB data    transfer phase detected FIRST
                         DATA transfer assertion time :   375871 ns
                         ADDR transfer assertion time :   375866 ns
     line ::   226 :: |              376226 ns|              376231 ns|RD-NONSEQ | 48260174 | ----- |  1 | -------- |  ----  |SINGLE|    4    | 0 |           0|
                      0 :: first command
     line ::   227 :: |              376231 ns|              376536 ns|RD-DATA   | 48260174 |  1/ 1 | -- | 0000623F |  OKAY  | ---- | ------- | - | ---------- |
                      ::             AHB address transfer phase detected
                      :: sequential  AHB data    transfer phase detected FIRST
                         DATA transfer assertion time :   376231 ns
                         ADDR transfer assertion time :   376226 ns
     line ::   228 :: |              376591 ns|              376596 ns|WR-NONSEQ | 482601A4 | ----- |  1 | -------- |  ----  |SINGLE|    4    | 0 |           0|
                      0 :: first command
     line ::   229 :: |              376596 ns|              376896 ns|WR-DATA   | 482601A4 |  1/ 1 | -- | 0000623E |  OKAY  | ---- | ------- | - | ---------- |
                      ::             AHB address transfer phase detected
                      :: sequential  AHB data    transfer phase detected FIRST
                         DATA transfer assertion time :   376596 ns
                         ADDR transfer assertion time :   376591 ns
     line ::   230 :: |              376951 ns|              376956 ns|WR-NONSEQ | 48260174 | ----- |  1 | -------- |  ----  |SINGLE|    4    | 0 |           0|
                      0 :: first command
     line ::   231 :: |              376956 ns|              377256 ns|WR-DATA   | 48260174 |  1/ 1 | -- | 0000623E |  OKAY  | ---- | ------- | - | ---------- |
                      ::             AHB address transfer phase detected
                      :: sequential  AHB data    transfer phase detected FIRST
                         DATA transfer assertion time :   376956 ns
                         ADDR transfer assertion time :   376951 ns
     line ::   232 :: |              377306 ns|              377311 ns|RD-NONSEQ | 48260194 | ----- |  1 | -------- |  ----  |SINGLE|    4    | 0 |           0|
                      0 :: first command
     line ::   233 :: |              377311 ns|              377616 ns|RD-DATA   | 48260194 |  1/ 1 | -- | 83002040 |  OKAY  | ---- | ------- | - | ---------- |
                      ::             AHB address transfer phase detected
                      :: sequential  AHB data    transfer phase detected FIRST
                         DATA transfer assertion time :   377311 ns
                         ADDR transfer assertion time :   377306 ns
     line ::   234 :: |              377666 ns|              377671 ns|RD-NONSEQ | 48260164 | ----- |  1 | -------- |  ----  |SINGLE|    4    | 0 |           0|
                      0 :: first command
     line ::   235 :: |              377671 ns|              377986 ns|RD-DATA   | 48260164 |  1/ 1 | -- | 42C02040 |  OKAY  | ---- | ------- | - | ---------- |
                      ::             AHB address transfer phase detected
                      :: sequential  AHB data    transfer phase detected FIRST
                         DATA transfer assertion time :   377671 ns
                         ADDR transfer assertion time :   377666 ns
     line ::   236 :: |              378041 ns|              378046 ns|WR-NONSEQ | 48260194 | ----- |  1 | -------- |  ----  |SINGLE|    4    | 0 |           0|
                      0 :: first command
     line ::   237 :: |              378046 ns|              378386 ns|WR-DATA   | 48260194 |  1/ 1 | -- | 83002041 |  OKAY  | ---- | ------- | - | ---------- |
                      ::             AHB address transfer phase detected
                      :: sequential  AHB data    transfer phase detected FIRST
                         DATA transfer assertion time :   378046 ns
                         ADDR transfer assertion time :   378041 ns
     line ::   238 :: |              378441 ns|              378446 ns|WR-NONSEQ | 48260164 | ----- |  1 | -------- |  ----  |SINGLE|    4    | 0 |           0|
                      0 :: first command
     line ::   239 :: |              378446 ns|              378776 ns|WR-DATA   | 48260164 |  1/ 1 | -- | 42C02041 |  OKAY  | ---- | ------- | - | ---------- |
                      ::             AHB address transfer phase detected
                      :: sequential  AHB data    transfer phase detected FIRST
                         DATA transfer assertion time :   378446 ns
                         ADDR transfer assertion time :   378441 ns
     line ::   240 :: |              378831 ns|              378836 ns|WR-NONSEQ | 48260194 | ----- |  1 | -------- |  ----  |SINGLE|    4    | 0 |           0|
                      0 :: first command
     line ::   241 :: |              378836 ns|              379176 ns|WR-DATA   | 48260194 |  1/ 1 | -- | 83002001 |  OKAY  | ---- | ------- | - | ---------- |
                      ::             AHB address transfer phase detected
                      :: sequential  AHB data    transfer phase detected FIRST
                         DATA transfer assertion time :   378836 ns
                         ADDR transfer assertion time :   378831 ns
     line ::   242 :: |              379231 ns|              379236 ns|WR-NONSEQ | 48260164 | ----- |  1 | -------- |  ----  |SINGLE|    4    | 0 |           0|
                      0 :: first command
     line ::   243 :: |              379236 ns|              379536 ns|WR-DATA   | 48260164 |  1/ 1 | -- | 42C02001 |  OKAY  | ---- | ------- | - | ---------- |
                      ::             AHB address transfer phase detected
                      :: sequential  AHB data    transfer phase detected FIRST
                         DATA transfer assertion time :   379236 ns
                         ADDR transfer assertion time :   379231 ns
     line ::   244 :: |              379986 ns|              379991 ns|RD-NONSEQ | 482601AC | ----- |  1 | -------- |  ----  |SINGLE|    4    | 0 |           0|
                      0 :: first command
     line ::   245 :: |              379991 ns|              380346 ns|RD-DATA   | 482601AC |  1/ 1 | -- | 000000CD |  OKAY  | ---- | ------- | - | ---------- |
                      ::             AHB address transfer phase detected
                      :: sequential  AHB data    transfer phase detected FIRST
                         DATA transfer assertion time :   379991 ns
                         ADDR transfer assertion time :   379986 ns
     line ::   246 :: |              380401 ns|              380406 ns|WR-NONSEQ | 482601AC | ----- |  1 | -------- |  ----  |SINGLE|    4    | 0 |           0|
                      0 :: first command
     line ::   247 :: |              380406 ns|              380746 ns|WR-DATA   | 482601AC |  1/ 1 | -- | 0000004D |  OKAY  | ---- | ------- | - | ---------- |
                      ::             AHB address transfer phase detected
                      :: sequential  AHB data    transfer phase detected FIRST
                         DATA transfer assertion time :   380406 ns
                         ADDR transfer assertion time :   380401 ns
     line ::   248 :: |              380801 ns|              380806 ns|WR-NONSEQ | 482601C8 | ----- |  1 | -------- |  ----  |SINGLE|    4    | 0 |           0|
                      0 :: first command
     line ::   249 :: |              380806 ns|              381136 ns|WR-DATA   | 482601C8 |  1/ 1 | -- | FFFFFFFF |  OKAY  | ---- | ------- | - | ---------- |
                      ::             AHB address transfer phase detected
                      :: sequential  AHB data    transfer phase detected FIRST
                         DATA transfer assertion time :   380806 ns
                         ADDR transfer assertion time :   380801 ns
     line ::   250 :: |              381191 ns|              381196 ns|WR-NONSEQ | 482601C4 | ----- |  1 | -------- |  ----  |SINGLE|    4    | 0 |           0|
                      0 :: first command
     line ::   251 :: |              381196 ns|              381496 ns|WR-DATA   | 482601C4 |  1/ 1 | -- | FFFFFFFF |  OKAY  | ---- | ------- | - | ---------- |
                      ::             AHB address transfer phase detected
                      :: sequential  AHB data    transfer phase detected FIRST
                         DATA transfer assertion time :   381196 ns
                         ADDR transfer assertion time :   381191 ns
     line ::   252 :: |              381546 ns|              381551 ns|RD-NONSEQ | 482601B8 | ----- |  1 | -------- |  ----  |SINGLE|    4    | 0 |           0|
                      0 :: first command
     line ::   253 :: |              381551 ns|              381866 ns|RD-DATA   | 482601B8 |  1/ 1 | -- | 0000000A |  OKAY  | ---- | ------- | - | ---------- |
                      ::             AHB address transfer phase detected
                      :: sequential  AHB data    transfer phase detected FIRST
                         DATA transfer assertion time :   381551 ns
                         ADDR transfer assertion time :   381546 ns
     line ::   254 :: |              381921 ns|              381926 ns|WR-NONSEQ | 482601B8 | ----- |  1 | -------- |  ----  |SINGLE|    4    | 0 |           0|
                      0 :: first command
     line ::   255 :: |              381926 ns|              382256 ns|WR-DATA   | 482601B8 |  1/ 1 | -- | 0000004A |  OKAY  | ---- | ------- | - | ---------- |
                      ::             AHB address transfer phase detected
                      :: sequential  AHB data    transfer phase detected FIRST
                         DATA transfer assertion time :   381926 ns
                         ADDR transfer assertion time :   381921 ns
     line ::   256 :: |              382311 ns|              382316 ns|WR-NONSEQ | 482601B8 | ----- |  1 | -------- |  ----  |SINGLE|    4    | 0 |           0|
                      0 :: first command
     line ::   257 :: |              382316 ns|              382616 ns|WR-DATA   | 482601B8 |  1/ 1 | -- | 0000004B |  OKAY  | ---- | ------- | - | ---------- |
                      ::             AHB address transfer phase detected
                      :: sequential  AHB data    transfer phase detected FIRST
                         DATA transfer assertion time :   382316 ns
                         ADDR transfer assertion time :   382311 ns
     line ::   258 :: |              382666 ns|              382671 ns|RD-NONSEQ | 482601B8 | ----- |  1 | -------- |  ----  |SINGLE|    4    | 0 |           0|
                      0 :: first command
     line ::   259 :: |              382671 ns|              383016 ns|RD-DATA   | 482601B8 |  1/ 1 | -- | 0000004B |  OKAY  | ---- | ------- | - | ---------- |
                      ::             AHB address transfer phase detected
                      :: sequential  AHB data    transfer phase detected FIRST
                         DATA transfer assertion time :   382671 ns
                         ADDR transfer assertion time :   382666 ns
     line ::   260 :: |              383116 ns|              383121 ns|RD-NONSEQ | 482601B0 | ----- |  1 | -------- |  ----  |SINGLE|    4    | 0 |           0|
                      0 :: first command
     line ::   261 :: |              383121 ns|              383456 ns|RD-DATA   | 482601B0 |  1/ 1 | -- | 00000008 |  OKAY  | ---- | ------- | - | ---------- |
                      ::             AHB address transfer phase detected
                      :: sequential  AHB data    transfer phase detected FIRST
                         DATA transfer assertion time :   383121 ns
                         ADDR transfer assertion time :   383116 ns
     line ::   262 :: |              383511 ns|              383516 ns|WR-NONSEQ | 482601B0 | ----- |  1 | -------- |  ----  |SINGLE|    4    | 0 |           0|
                      0 :: first command
     line ::   263 :: |              383516 ns|              383816 ns|WR-DATA   | 482601B0 |  1/ 1 | -- | 00000048 |  OKAY  | ---- | ------- | - | ---------- |
                      ::             AHB address transfer phase detected
                      :: sequential  AHB data    transfer phase detected FIRST
                         DATA transfer assertion time :   383516 ns
                         ADDR transfer assertion time :   383511 ns
     line ::   264 :: |              383871 ns|              383876 ns|WR-NONSEQ | 482601B0 | ----- |  1 | -------- |  ----  |SINGLE|    4    | 0 |           0|
                      0 :: first command
     line ::   265 :: |              383876 ns|              384186 ns|WR-DATA   | 482601B0 |  1/ 1 | -- | 00000049 |  OKAY  | ---- | ------- | - | ---------- |
                      ::             AHB address transfer phase detected
                      :: sequential  AHB data    transfer phase detected FIRST
                         DATA transfer assertion time :   383876 ns
                         ADDR transfer assertion time :   383871 ns
     line ::   266 :: |              384236 ns|              384241 ns|RD-NONSEQ | 482601B0 | ----- |  1 | -------- |  ----  |SINGLE|    4    | 0 |           0|
                      0 :: first command
     line ::   267 :: |              384241 ns|              384536 ns|RD-DATA   | 482601B0 |  1/ 1 | -- | 00000049 |  OKAY  | ---- | ------- | - | ---------- |
                      ::             AHB address transfer phase detected
                      :: sequential  AHB data    transfer phase detected FIRST
                         DATA transfer assertion time :   384241 ns
                         ADDR transfer assertion time :   384236 ns
     line ::   268 :: |              384636 ns|              384641 ns|RD-NONSEQ | 482601B8 | ----- |  1 | -------- |  ----  |SINGLE|    4    | 0 |           0|
                      0 :: first command
     line ::   269 :: |              384641 ns|              384936 ns|RD-DATA   | 482601B8 |  1/ 1 | -- | 0000004B |  OKAY  | ---- | ------- | - | ---------- |
                      ::             AHB address transfer phase detected
                      :: sequential  AHB data    transfer phase detected FIRST
                         DATA transfer assertion time :   384641 ns
                         ADDR transfer assertion time :   384636 ns
     line ::   270 :: |              384991 ns|              384996 ns|WR-NONSEQ | 482601B8 | ----- |  1 | -------- |  ----  |SINGLE|    4    | 0 |           0|
                      0 :: first command
     line ::   271 :: |              384996 ns|              385306 ns|WR-DATA   | 482601B8 |  1/ 1 | -- | 0000004B |  OKAY  | ---- | ------- | - | ---------- |
                      ::             AHB address transfer phase detected
                      :: sequential  AHB data    transfer phase detected FIRST
                         DATA transfer assertion time :   384996 ns
                         ADDR transfer assertion time :   384991 ns
     line ::   272 :: |              385361 ns|              385366 ns|WR-NONSEQ | 482601B8 | ----- |  1 | -------- |  ----  |SINGLE|    4    | 0 |           0|
                      0 :: first command
     line ::   273 :: |              385366 ns|              385706 ns|WR-DATA   | 482601B8 |  1/ 1 | -- | 0000004B |  OKAY  | ---- | ------- | - | ---------- |
                      ::             AHB address transfer phase detected
                      :: sequential  AHB data    transfer phase detected FIRST
                         DATA transfer assertion time :   385366 ns
                         ADDR transfer assertion time :   385361 ns
     line ::   274 :: |              385756 ns|              385761 ns|RD-NONSEQ | 482601B8 | ----- |  1 | -------- |  ----  |SINGLE|    4    | 0 |           0|
                      0 :: first command
     line ::   275 :: |              385761 ns|              386056 ns|RD-DATA   | 482601B8 |  1/ 1 | -- | 0000004B |  OKAY  | ---- | ------- | - | ---------- |
                      ::             AHB address transfer phase detected
                      :: sequential  AHB data    transfer phase detected FIRST
                         DATA transfer assertion time :   385761 ns
                         ADDR transfer assertion time :   385756 ns
     line ::   276 :: |              386156 ns|              386161 ns|RD-NONSEQ | 482601BC | ----- |  1 | -------- |  ----  |SINGLE|    4    | 0 |           0|
                      0 :: first command
     line ::   277 :: |              386161 ns|              386456 ns|RD-DATA   | 482601BC |  1/ 1 | -- | 00000000 |  OKAY  | ---- | ------- | - | ---------- |
                      ::             AHB address transfer phase detected
                      :: sequential  AHB data    transfer phase detected FIRST
                         DATA transfer assertion time :   386161 ns
                         ADDR transfer assertion time :   386156 ns
     line ::   278 :: |              386511 ns|              386516 ns|WR-NONSEQ | 482601BC | ----- |  1 | -------- |  ----  |SINGLE|    4    | 0 |           0|
                      0 :: first command
     line ::   279 :: |              386516 ns|              386816 ns|WR-DATA   | 482601BC |  1/ 1 | -- | 00000040 |  OKAY  | ---- | ------- | - | ---------- |
                      ::             AHB address transfer phase detected
                      :: sequential  AHB data    transfer phase detected FIRST
                         DATA transfer assertion time :   386516 ns
                         ADDR transfer assertion time :   386511 ns
     line ::   280 :: |              386871 ns|              386876 ns|WR-NONSEQ | 482601BC | ----- |  1 | -------- |  ----  |SINGLE|    4    | 0 |           0|
                      0 :: first command
     line ::   281 :: |              386876 ns|              387186 ns|WR-DATA   | 482601BC |  1/ 1 | -- | 00000041 |  OKAY  | ---- | ------- | - | ---------- |
                      ::             AHB address transfer phase detected
                      :: sequential  AHB data    transfer phase detected FIRST
                         DATA transfer assertion time :   386876 ns
                         ADDR transfer assertion time :   386871 ns
     line ::   282 :: |              387236 ns|              387241 ns|RD-NONSEQ | 482601BC | ----- |  1 | -------- |  ----  |SINGLE|    4    | 0 |           0|
                      0 :: first command
     line ::   283 :: |              387241 ns|              387536 ns|RD-DATA   | 482601BC |  1/ 1 | -- | 00000041 |  OKAY  | ---- | ------- | - | ---------- |
                      ::             AHB address transfer phase detected
                      :: sequential  AHB data    transfer phase detected FIRST
                         DATA transfer assertion time :   387241 ns
                         ADDR transfer assertion time :   387236 ns
     line ::   284 :: |              387636 ns|              387641 ns|RD-NONSEQ | F832117C | ----- |  1 | -------- |  ----  |SINGLE|    4    | 0 |           0|
                      0 :: first command
     line ::   285 :: |              387641 ns|              387871 ns|RD-DATA   | F832117C |  1/ 1 | -- | 00000180 |  OKAY  | ---- | ------- | - | ---------- |
                      ::             AHB address transfer phase detected
                      :: sequential  AHB data    transfer phase detected FIRST
                         DATA transfer assertion time :   387641 ns
                         ADDR transfer assertion time :   387636 ns
     line ::   286 :: |              387926 ns|              387931 ns|WR-NONSEQ | F832117C | ----- |  1 | -------- |  ----  |SINGLE|    4    | 0 |           0|
                      0 :: first command
     line ::   287 :: |              387931 ns|              388181 ns|WR-DATA   | F832117C |  1/ 1 | -- | 00000180 |  OKAY  | ---- | ------- | - | ---------- |
                      ::             AHB address transfer phase detected
                      :: sequential  AHB data    transfer phase detected FIRST
                         DATA transfer assertion time :   387931 ns
                         ADDR transfer assertion time :   387926 ns
     line ::   288 :: |              388631 ns|              388636 ns|RD-NONSEQ | F832117C | ----- |  1 | -------- |  ----  |SINGLE|    4    | 0 |           0|
                      0 :: first command
     line ::   289 :: |              388636 ns|              388911 ns|RD-DATA   | F832117C |  1/ 1 | -- | 00000180 |  OKAY  | ---- | ------- | - | ---------- |
                      ::             AHB address transfer phase detected
                      :: sequential  AHB data    transfer phase detected FIRST
                         DATA transfer assertion time :   388636 ns
                         ADDR transfer assertion time :   388631 ns
     line ::   290 :: |              388966 ns|              388971 ns|WR-NONSEQ | F832117C | ----- |  1 | -------- |  ----  |SINGLE|    4    | 0 |           0|
                      0 :: first command
     line ::   291 :: |              388971 ns|              389231 ns|WR-DATA   | F832117C |  1/ 1 | -- | 00000180 |  OKAY  | ---- | ------- | - | ---------- |
                      ::             AHB address transfer phase detected
                      :: sequential  AHB data    transfer phase detected FIRST
                         DATA transfer assertion time :   388971 ns
                         ADDR transfer assertion time :   388966 ns
     line ::   292 :: |              389481 ns|              389486 ns|RD-NONSEQ | F832117C | ----- |  1 | -------- |  ----  |SINGLE|    4    | 0 |           0|
                      0 :: first command
     line ::   293 :: |              389486 ns|              389741 ns|RD-DATA   | F832117C |  1/ 1 | -- | 00000180 |  OKAY  | ---- | ------- | - | ---------- |
                      ::             AHB address transfer phase detected
                      :: sequential  AHB data    transfer phase detected FIRST
                         DATA transfer assertion time :   389486 ns
                         ADDR transfer assertion time :   389481 ns
     line ::   294 :: |              389796 ns|              389801 ns|WR-NONSEQ | F832117C | ----- |  1 | -------- |  ----  |SINGLE|    4    | 0 |           0|
                      0 :: first command
     line ::   295 :: |              389801 ns|              390031 ns|WR-DATA   | F832117C |  1/ 1 | -- | 00000180 |  OKAY  | ---- | ------- | - | ---------- |
                      ::             AHB address transfer phase detected
                      :: sequential  AHB data    transfer phase detected FIRST
                         DATA transfer assertion time :   389801 ns
                         ADDR transfer assertion time :   389796 ns
     line ::   296 :: |              390081 ns|              390086 ns|RD-NONSEQ | F8321180 | ----- |  1 | -------- |  ----  |SINGLE|    4    | 0 |           0|
                      0 :: first command
     line ::   297 :: |              390086 ns|              390341 ns|RD-DATA   | F8321180 |  1/ 1 | -- | 00000692 |  OKAY  | ---- | ------- | - | ---------- |
                      ::             AHB address transfer phase detected
                      :: sequential  AHB data    transfer phase detected FIRST
                         DATA transfer assertion time :   390086 ns
                         ADDR transfer assertion time :   390081 ns
     line ::   298 :: |              390396 ns|              390401 ns|WR-NONSEQ | F8321180 | ----- |  1 | -------- |  ----  |SINGLE|    4    | 0 |           0|
                      0 :: first command
     line ::   299 :: |              390401 ns|              390671 ns|WR-DATA   | F8321180 |  1/ 1 | -- | 00000692 |  OKAY  | ---- | ------- | - | ---------- |
                      ::             AHB address transfer phase detected
                      :: sequential  AHB data    transfer phase detected FIRST
                         DATA transfer assertion time :   390401 ns
                         ADDR transfer assertion time :   390396 ns
     line ::   300 :: |              390721 ns|              390726 ns|RD-NONSEQ | F8321184 | ----- |  1 | -------- |  ----  |SINGLE|    4    | 0 |           0|
                      0 :: first command
     line ::   301 :: |              390726 ns|              390981 ns|RD-DATA   | F8321184 |  1/ 1 | -- | 1322B573 |  OKAY  | ---- | ------- | - | ---------- |
                      ::             AHB address transfer phase detected
                      :: sequential  AHB data    transfer phase detected FIRST
                         DATA transfer assertion time :   390726 ns
                         ADDR transfer assertion time :   390721 ns
     line ::   302 :: |              391036 ns|              391041 ns|WR-NONSEQ | F8321184 | ----- |  1 | -------- |  ----  |SINGLE|    4    | 0 |           0|
                      0 :: first command
     line ::   303 :: |              391041 ns|              391301 ns|WR-DATA   | F8321184 |  1/ 1 | -- | 1322B573 |  OKAY  | ---- | ------- | - | ---------- |
                      ::             AHB address transfer phase detected
                      :: sequential  AHB data    transfer phase detected FIRST
                         DATA transfer assertion time :   391041 ns
                         ADDR transfer assertion time :   391036 ns
     line ::   304 :: |              391351 ns|              391356 ns|RD-NONSEQ | F832117C | ----- |  1 | -------- |  ----  |SINGLE|    4    | 0 |           0|
                      0 :: first command
     line ::   305 :: |              391356 ns|              391581 ns|RD-DATA   | F832117C |  1/ 1 | -- | 00000180 |  OKAY  | ---- | ------- | - | ---------- |
                      ::             AHB address transfer phase detected
                      :: sequential  AHB data    transfer phase detected FIRST
                         DATA transfer assertion time :   391356 ns
                         ADDR transfer assertion time :   391351 ns
     line ::   306 :: |              391636 ns|              391641 ns|WR-NONSEQ | F832117C | ----- |  1 | -------- |  ----  |SINGLE|    4    | 0 |           0|
                      0 :: first command
     line ::   307 :: |              391641 ns|              391861 ns|WR-DATA   | F832117C |  1/ 1 | -- | 00000380 |  OKAY  | ---- | ------- | - | ---------- |
                      ::             AHB address transfer phase detected
                      :: sequential  AHB data    transfer phase detected FIRST
                         DATA transfer assertion time :   391641 ns
                         ADDR transfer assertion time :   391636 ns
     line ::   308 :: |              401911 ns|              401916 ns|RD-NONSEQ | F832117C | ----- |  1 | -------- |  ----  |SINGLE|    4    | 0 |           0|
                      0 :: first command
     line ::   309 :: |              401916 ns|              402151 ns|RD-DATA   | F832117C |  1/ 1 | -- | 00000380 |  OKAY  | ---- | ------- | - | ---------- |
                      ::             AHB address transfer phase detected
                      :: sequential  AHB data    transfer phase detected FIRST
                         DATA transfer assertion time :   401916 ns
                         ADDR transfer assertion time :   401911 ns
     line ::   310 :: |              402206 ns|              402211 ns|WR-NONSEQ | F832117C | ----- |  1 | -------- |  ----  |SINGLE|    4    | 0 |           0|
                      0 :: first command
     line ::   311 :: |              402211 ns|              402501 ns|WR-DATA   | F832117C |  1/ 1 | -- | 00000382 |  OKAY  | ---- | ------- | - | ---------- |
                      ::             AHB address transfer phase detected
                      :: sequential  AHB data    transfer phase detected FIRST
                         DATA transfer assertion time :   402211 ns
                         ADDR transfer assertion time :   402206 ns
