 ... HEADER decoding
     line ::     0 :: Instance: uvm_test_top.top_env_i.ahbfab_env_i.mvc_ahb_mon_8_env_i.logger_handle_ahb
     line ::     1 :: AHB Clk Cycle = 40 ns; AHB Clk Frequency = 25.00 MHz; Data bus width = 32 bits
     line ::     2 :: ------------------------------------------------------------------------------------------------------------------------------------------
     line ::     3 :: |NONSEQ/SEQ Assert Time |  HREADY Assert Time   |  DIR     |   ADDR   | BEAT  |  L |   DATA   |  RESP  | BURST| BURST   | H |    HSEL    |
     line ::     4 :: |                       |                       |   -      |          |  NUM  |  E |          |        | Type | Size    | P |   (SLAVE   |
     line ::     5 :: |                       |                       | PHASE    |          |       |  N |          |        |      |= 2^HSIZE| R |    INDEX)  |
     line ::     6 :: |                       |                       |          |          |       |    |          |        |      | bytes   | O |            |
     line ::     7 :: |                       |                       |          |          |       |    |          |        |      |         | T |            |
     line ::     8 :: |                       |                       |          |          |       |    |          |        |      |         |   |            |
     line ::     9 :: ------------------------------------------------------------------------------------------------------------------------------------------
 ... HEADER decoding done
 ... TABLE  decoding ... 
     line ::    10 :: |              213940 ns|              213980 ns|RD-NONSEQ | F832116C | ----- |  1 | -------- |  ----  |SINGLE|    4    | 0 |           0|
                      0 :: first command
     line ::    11 :: |              213980 ns|              214780 ns|RD-DATA   | F832116C |  1/ 1 | -- | 00000181 |  OKAY  | ---- | ------- | - | ---------- |
                      ::             AHB address transfer phase detected
                      :: sequential  AHB data    transfer phase detected FIRST
                         DATA transfer assertion time :   213980 ns
                         ADDR transfer assertion time :   213940 ns
     line ::    12 :: |              215220 ns|              215260 ns|WR-NONSEQ | F832116C | ----- |  1 | -------- |  ----  |SINGLE|    4    | 0 |           0|
                      0 :: first command
     line ::    13 :: |              215260 ns|              215900 ns|WR-DATA   | F832116C |  1/ 1 | -- | 00000181 |  OKAY  | ---- | ------- | - | ---------- |
                      ::             AHB address transfer phase detected
                      :: sequential  AHB data    transfer phase detected FIRST
                         DATA transfer assertion time :   215260 ns
                         ADDR transfer assertion time :   215220 ns
     line ::    14 :: |              216700 ns|              216740 ns|RD-NONSEQ | F832116C | ----- |  1 | -------- |  ----  |SINGLE|    4    | 0 |           0|
                      0 :: first command
     line ::    15 :: |              216740 ns|              217500 ns|RD-DATA   | F832116C |  1/ 1 | -- | 00000181 |  OKAY  | ---- | ------- | - | ---------- |
                      ::             AHB address transfer phase detected
                      :: sequential  AHB data    transfer phase detected FIRST
                         DATA transfer assertion time :   216740 ns
                         ADDR transfer assertion time :   216700 ns
     line ::    16 :: |              217940 ns|              217980 ns|WR-NONSEQ | F832116C | ----- |  1 | -------- |  ----  |SINGLE|    4    | 0 |           0|
                      0 :: first command
     line ::    17 :: |              217980 ns|              218620 ns|WR-DATA   | F832116C |  1/ 1 | -- | 00000180 |  OKAY  | ---- | ------- | - | ---------- |
                      ::             AHB address transfer phase detected
                      :: sequential  AHB data    transfer phase detected FIRST
                         DATA transfer assertion time :   217980 ns
                         ADDR transfer assertion time :   217940 ns
     line ::    18 :: |              219220 ns|              219260 ns|RD-NONSEQ | F832116C | ----- |  1 | -------- |  ----  |SINGLE|    4    | 0 |           0|
                      0 :: first command
     line ::    19 :: |              219260 ns|              219900 ns|RD-DATA   | F832116C |  1/ 1 | -- | 00000180 |  OKAY  | ---- | ------- | - | ---------- |
                      ::             AHB address transfer phase detected
                      :: sequential  AHB data    transfer phase detected FIRST
                         DATA transfer assertion time :   219260 ns
                         ADDR transfer assertion time :   219220 ns
     line ::    20 :: |              220340 ns|              220380 ns|WR-NONSEQ | F832116C | ----- |  1 | -------- |  ----  |SINGLE|    4    | 0 |           0|
                      0 :: first command
     line ::    21 :: |              220380 ns|              221020 ns|WR-DATA   | F832116C |  1/ 1 | -- | 00000180 |  OKAY  | ---- | ------- | - | ---------- |
                      ::             AHB address transfer phase detected
                      :: sequential  AHB data    transfer phase detected FIRST
                         DATA transfer assertion time :   220380 ns
                         ADDR transfer assertion time :   220340 ns
     line ::    22 :: |              221420 ns|              221460 ns|RD-NONSEQ | F8321170 | ----- |  1 | -------- |  ----  |SINGLE|    4    | 0 |           0|
                      0 :: first command
     line ::    23 :: |              221460 ns|              222220 ns|RD-DATA   | F8321170 |  1/ 1 | -- | 00000693 |  OKAY  | ---- | ------- | - | ---------- |
                      ::             AHB address transfer phase detected
                      :: sequential  AHB data    transfer phase detected FIRST
                         DATA transfer assertion time :   221460 ns
                         ADDR transfer assertion time :   221420 ns
     line ::    24 :: |              222660 ns|              222700 ns|WR-NONSEQ | F8321170 | ----- |  1 | -------- |  ----  |SINGLE|    4    | 0 |           0|
                      0 :: first command
     line ::    25 :: |              222700 ns|              223420 ns|WR-DATA   | F8321170 |  1/ 1 | -- | 00000693 |  OKAY  | ---- | ------- | - | ---------- |
                      ::             AHB address transfer phase detected
                      :: sequential  AHB data    transfer phase detected FIRST
                         DATA transfer assertion time :   222700 ns
                         ADDR transfer assertion time :   222660 ns
     line ::    26 :: |              223820 ns|              223860 ns|RD-NONSEQ | F8321174 | ----- |  1 | -------- |  ----  |SINGLE|    4    | 0 |           0|
                      0 :: first command
     line ::    27 :: |              223860 ns|              224620 ns|RD-DATA   | F8321174 |  1/ 1 | -- | 000000FB |  OKAY  | ---- | ------- | - | ---------- |
                      ::             AHB address transfer phase detected
                      :: sequential  AHB data    transfer phase detected FIRST
                         DATA transfer assertion time :   223860 ns
                         ADDR transfer assertion time :   223820 ns
     line ::    28 :: |              225060 ns|              225100 ns|WR-NONSEQ | F8321174 | ----- |  1 | -------- |  ----  |SINGLE|    4    | 0 |           0|
                      0 :: first command
     line ::    29 :: |              225100 ns|              225740 ns|WR-DATA   | F8321174 |  1/ 1 | -- | 000000FB |  OKAY  | ---- | ------- | - | ---------- |
                      ::             AHB address transfer phase detected
                      :: sequential  AHB data    transfer phase detected FIRST
                         DATA transfer assertion time :   225100 ns
                         ADDR transfer assertion time :   225060 ns
     line ::    30 :: |              226140 ns|              226180 ns|RD-NONSEQ | F832116C | ----- |  1 | -------- |  ----  |SINGLE|    4    | 0 |           0|
                      0 :: first command
     line ::    31 :: |              226180 ns|              226940 ns|RD-DATA   | F832116C |  1/ 1 | -- | 00000180 |  OKAY  | ---- | ------- | - | ---------- |
                      ::             AHB address transfer phase detected
                      :: sequential  AHB data    transfer phase detected FIRST
                         DATA transfer assertion time :   226180 ns
                         ADDR transfer assertion time :   226140 ns
     line ::    32 :: |              227380 ns|              227420 ns|WR-NONSEQ | F832116C | ----- |  1 | -------- |  ----  |SINGLE|    4    | 0 |           0|
                      0 :: first command
     line ::    33 :: |              227420 ns|              228060 ns|WR-DATA   | F832116C |  1/ 1 | -- | 00000380 |  OKAY  | ---- | ------- | - | ---------- |
                      ::             AHB address transfer phase detected
                      :: sequential  AHB data    transfer phase detected FIRST
                         DATA transfer assertion time :   227420 ns
                         ADDR transfer assertion time :   227380 ns
     line ::    34 :: |              238460 ns|              238500 ns|RD-NONSEQ | F832116C | ----- |  1 | -------- |  ----  |SINGLE|    4    | 0 |           0|
                      0 :: first command
     line ::    35 :: |              238500 ns|              239260 ns|RD-DATA   | F832116C |  1/ 1 | -- | 00000380 |  OKAY  | ---- | ------- | - | ---------- |
                      ::             AHB address transfer phase detected
                      :: sequential  AHB data    transfer phase detected FIRST
                         DATA transfer assertion time :   238500 ns
                         ADDR transfer assertion time :   238460 ns
     line ::    36 :: |              239700 ns|              239740 ns|WR-NONSEQ | F832116C | ----- |  1 | -------- |  ----  |SINGLE|    4    | 0 |           0|
                      0 :: first command
     line ::    37 :: |              239740 ns|              240460 ns|WR-DATA   | F832116C |  1/ 1 | -- | 00000382 |  OKAY  | ---- | ------- | - | ---------- |
                      ::             AHB address transfer phase detected
                      :: sequential  AHB data    transfer phase detected FIRST
                         DATA transfer assertion time :   239740 ns
                         ADDR transfer assertion time :   239700 ns
     line ::    38 :: |              290860 ns|              290900 ns|RD-NONSEQ | F832116C | ----- |  1 | -------- |  ----  |SINGLE|    4    | 0 |           0|
                      0 :: first command
     line ::    39 :: |              290900 ns|              291660 ns|RD-DATA   | F832116C |  1/ 1 | -- | 00000382 |  OKAY  | ---- | ------- | - | ---------- |
                      ::             AHB address transfer phase detected
                      :: sequential  AHB data    transfer phase detected FIRST
                         DATA transfer assertion time :   290900 ns
                         ADDR transfer assertion time :   290860 ns
     line ::    40 :: |              292100 ns|              292140 ns|WR-NONSEQ | F832116C | ----- |  1 | -------- |  ----  |SINGLE|    4    | 0 |           0|
                      0 :: first command
     line ::    41 :: |              292140 ns|              292780 ns|WR-DATA   | F832116C |  1/ 1 | -- | 00000282 |  OKAY  | ---- | ------- | - | ---------- |
                      ::             AHB address transfer phase detected
                      :: sequential  AHB data    transfer phase detected FIRST
                         DATA transfer assertion time :   292140 ns
                         ADDR transfer assertion time :   292100 ns
     line ::    42 :: |              293380 ns|              293420 ns|RD-NONSEQ | F832116C | ----- |  1 | -------- |  ----  |SINGLE|    4    | 0 |           0|
                      0 :: first command
     line ::    43 :: |              293420 ns|              294140 ns|RD-DATA   | F832116C |  1/ 1 | -- | 00000282 |  OKAY  | ---- | ------- | - | ---------- |
                      ::             AHB address transfer phase detected
                      :: sequential  AHB data    transfer phase detected FIRST
                         DATA transfer assertion time :   293420 ns
                         ADDR transfer assertion time :   293380 ns
     line ::    44 :: |              294580 ns|              294620 ns|WR-NONSEQ | F832116C | ----- |  1 | -------- |  ----  |SINGLE|    4    | 0 |           0|
                      0 :: first command
     line ::    45 :: |              294620 ns|              295260 ns|WR-DATA   | F832116C |  1/ 1 | -- | 00000283 |  OKAY  | ---- | ------- | - | ---------- |
                      ::             AHB address transfer phase detected
                      :: sequential  AHB data    transfer phase detected FIRST
                         DATA transfer assertion time :   294620 ns
                         ADDR transfer assertion time :   294580 ns
     line ::    46 :: |              295860 ns|              295900 ns|RD-NONSEQ | F832116C | ----- |  1 | -------- |  ----  |SINGLE|    4    | 0 |           0|
                      0 :: first command
     line ::    47 :: |              295900 ns|              296620 ns|RD-DATA   | F832116C |  1/ 1 | -- | 00000283 |  OKAY  | ---- | ------- | - | ---------- |
                      ::             AHB address transfer phase detected
                      :: sequential  AHB data    transfer phase detected FIRST
                         DATA transfer assertion time :   295900 ns
                         ADDR transfer assertion time :   295860 ns
     line ::    48 :: |              297060 ns|              297100 ns|WR-NONSEQ | F832116C | ----- |  1 | -------- |  ----  |SINGLE|    4    | 0 |           0|
                      0 :: first command
     line ::    49 :: |              297100 ns|              297461 ns|WR-DATA   | F832116C |  1/ 1 | -- | 00000203 |  OKAY  | ---- | ------- | - | ---------- |
                      ::             AHB address transfer phase detected
                      :: sequential  AHB data    transfer phase detected FIRST
                         DATA transfer assertion time :   297100 ns
                         ADDR transfer assertion time :   297060 ns
     line ::    50 :: |              297911 ns|              297916 ns|RD-NONSEQ | F832200C | ----- |  1 | -------- |  ----  |SINGLE|    4    | 0 |           0|
                      0 :: first command
     line ::    51 :: |              297916 ns|              298141 ns|RD-DATA   | F832200C |  1/ 1 | -- | 00190002 |  OKAY  | ---- | ------- | - | ---------- |
                      ::             AHB address transfer phase detected
                      :: sequential  AHB data    transfer phase detected FIRST
                         DATA transfer assertion time :   297916 ns
                         ADDR transfer assertion time :   297911 ns
     line ::    52 :: |              298191 ns|              298196 ns|RD-NONSEQ | F8322010 | ----- |  1 | -------- |  ----  |SINGLE|    4    | 0 |           0|
                      0 :: first command
     line ::    53 :: |              298196 ns|              298461 ns|RD-DATA   | F8322010 |  1/ 1 | -- | 00000001 |  OKAY  | ---- | ------- | - | ---------- |
                      ::             AHB address transfer phase detected
                      :: sequential  AHB data    transfer phase detected FIRST
                         DATA transfer assertion time :   298196 ns
                         ADDR transfer assertion time :   298191 ns
     line ::    54 :: |              298516 ns|              298521 ns|WR-NONSEQ | F8322010 | ----- |  1 | -------- |  ----  |SINGLE|    4    | 0 |           0|
                      0 :: first command
     line ::    55 :: |              298521 ns|              298741 ns|WR-DATA   | F8322010 |  1/ 1 | -- | 00000000 |  OKAY  | ---- | ------- | - | ---------- |
                      ::             AHB address transfer phase detected
                      :: sequential  AHB data    transfer phase detected FIRST
                         DATA transfer assertion time :   298521 ns
                         ADDR transfer assertion time :   298516 ns
     line ::    56 :: |              298796 ns|              298801 ns|WR-NONSEQ | F8312060 | ----- |  1 | -------- |  ----  |SINGLE|    4    | 0 |           0|
                      0 :: first command
     line ::    57 :: |              298801 ns|              299031 ns|WR-DATA   | F8312060 |  1/ 1 | -- | 00000000 |  OKAY  | ---- | ------- | - | ---------- |
                      ::             AHB address transfer phase detected
                      :: sequential  AHB data    transfer phase detected FIRST
                         DATA transfer assertion time :   298801 ns
                         ADDR transfer assertion time :   298796 ns
     line ::    58 :: |              299086 ns|              299091 ns|WR-NONSEQ | 48250020 | ----- |  1 | -------- |  ----  |SINGLE|    4    | 0 |           0|
                      0 :: first command
     line ::    59 :: |              299091 ns|              300111 ns|WR-DATA   | 48250020 |  1/ 1 | -- | 00000001 |  OKAY  | ---- | ------- | - | ---------- |
                      ::             AHB address transfer phase detected
                      :: sequential  AHB data    transfer phase detected FIRST
                         DATA transfer assertion time :   299091 ns
                         ADDR transfer assertion time :   299086 ns
     line ::    60 :: |              300161 ns|              300166 ns|RD-NONSEQ | 4826017C | ----- |  1 | -------- |  ----  |SINGLE|    4    | 0 |           0|
                      0 :: first command
     line ::    61 :: |              300166 ns|              301031 ns|RD-DATA   | 4826017C |  1/ 1 | -- | 20801E01 |  OKAY  | ---- | ------- | - | ---------- |
                      ::             AHB address transfer phase detected
                      :: sequential  AHB data    transfer phase detected FIRST
                         DATA transfer assertion time :   300166 ns
                         ADDR transfer assertion time :   300161 ns
     line ::    62 :: |              301086 ns|              301091 ns|WR-NONSEQ | 4826017C | ----- |  1 | -------- |  ----  |SINGLE|    4    | 0 |           0|
                      0 :: first command
     line ::    63 :: |              301091 ns|              301991 ns|WR-DATA   | 4826017C |  1/ 1 | -- | 20801E41 |  OKAY  | ---- | ------- | - | ---------- |
                      ::             AHB address transfer phase detected
                      :: sequential  AHB data    transfer phase detected FIRST
                         DATA transfer assertion time :   301091 ns
                         ADDR transfer assertion time :   301086 ns
     line ::    64 :: |              302441 ns|              302446 ns|RD-NONSEQ | 4826017C | ----- |  1 | -------- |  ----  |SINGLE|    4    | 0 |           0|
                      0 :: first command
     line ::    65 :: |              302446 ns|              303351 ns|RD-DATA   | 4826017C |  1/ 1 | -- | 20801E41 |  OKAY  | ---- | ------- | - | ---------- |
                      ::             AHB address transfer phase detected
                      :: sequential  AHB data    transfer phase detected FIRST
                         DATA transfer assertion time :   302446 ns
                         ADDR transfer assertion time :   302441 ns
     line ::    66 :: |              303406 ns|              303411 ns|WR-NONSEQ | 4826017C | ----- |  1 | -------- |  ----  |SINGLE|    4    | 0 |           0|
                      0 :: first command
     line ::    67 :: |              303411 ns|              304311 ns|WR-DATA   | 4826017C |  1/ 1 | -- | 20801E40 |  OKAY  | ---- | ------- | - | ---------- |
                      ::             AHB address transfer phase detected
                      :: sequential  AHB data    transfer phase detected FIRST
                         DATA transfer assertion time :   303411 ns
                         ADDR transfer assertion time :   303406 ns
     line ::    68 :: |              304561 ns|              304566 ns|RD-NONSEQ | 4826017C | ----- |  1 | -------- |  ----  |SINGLE|    4    | 0 |           0|
                      0 :: first command
     line ::    69 :: |              304566 ns|              305471 ns|RD-DATA   | 4826017C |  1/ 1 | -- | 20801E40 |  OKAY  | ---- | ------- | - | ---------- |
                      ::             AHB address transfer phase detected
                      :: sequential  AHB data    transfer phase detected FIRST
                         DATA transfer assertion time :   304566 ns
                         ADDR transfer assertion time :   304561 ns
     line ::    70 :: |              305526 ns|              305531 ns|WR-NONSEQ | 4826017C | ----- |  1 | -------- |  ----  |SINGLE|    4    | 0 |           0|
                      0 :: first command
     line ::    71 :: |              305531 ns|              306471 ns|WR-DATA   | 4826017C |  1/ 1 | -- | 20801E40 |  OKAY  | ---- | ------- | - | ---------- |
                      ::             AHB address transfer phase detected
                      :: sequential  AHB data    transfer phase detected FIRST
                         DATA transfer assertion time :   305531 ns
                         ADDR transfer assertion time :   305526 ns
     line ::    72 :: |              307026 ns|              307031 ns|WR-NONSEQ | 4826017C | ----- |  1 | -------- |  ----  |SINGLE|    4    | 0 |           0|
                      0 :: first command
     line ::    73 :: |              307031 ns|              307951 ns|WR-DATA   | 4826017C |  1/ 1 | -- | 20801E40 |  OKAY  | ---- | ------- | - | ---------- |
                      ::             AHB address transfer phase detected
                      :: sequential  AHB data    transfer phase detected FIRST
                         DATA transfer assertion time :   307031 ns
                         ADDR transfer assertion time :   307026 ns
     line ::    74 :: |              308006 ns|              308011 ns|WR-NONSEQ | 4826017C | ----- |  1 | -------- |  ----  |SINGLE|    4    | 0 |           0|
                      0 :: first command
     line ::    75 :: |              308011 ns|              308911 ns|WR-DATA   | 4826017C |  1/ 1 | -- | 84002E40 |  OKAY  | ---- | ------- | - | ---------- |
                      ::             AHB address transfer phase detected
                      :: sequential  AHB data    transfer phase detected FIRST
                         DATA transfer assertion time :   308011 ns
                         ADDR transfer assertion time :   308006 ns
     line ::    76 :: |              308966 ns|              308971 ns|WR-NONSEQ | 4826017C | ----- |  1 | -------- |  ----  |SINGLE|    4    | 0 |           0|
                      0 :: first command
     line ::    77 :: |              308971 ns|              309871 ns|WR-DATA   | 4826017C |  1/ 1 | -- | 84002240 |  OKAY  | ---- | ------- | - | ---------- |
                      ::             AHB address transfer phase detected
                      :: sequential  AHB data    transfer phase detected FIRST
                         DATA transfer assertion time :   308971 ns
                         ADDR transfer assertion time :   308966 ns
     line ::    78 :: |              319926 ns|              319931 ns|WR-NONSEQ | 4826017C | ----- |  1 | -------- |  ----  |SINGLE|    4    | 0 |           0|
                      0 :: first command
     line ::    79 :: |              319931 ns|              320871 ns|WR-DATA   | 4826017C |  1/ 1 | -- | 84002040 |  OKAY  | ---- | ------- | - | ---------- |
                      ::             AHB address transfer phase detected
                      :: sequential  AHB data    transfer phase detected FIRST
                         DATA transfer assertion time :   319931 ns
                         ADDR transfer assertion time :   319926 ns
     line ::    80 :: |              321421 ns|              321426 ns|RD-NONSEQ | 48260190 | ----- |  1 | -------- |  ----  |SINGLE|    4    | 0 |           0|
                      0 :: first command
     line ::    81 :: |              321426 ns|              322311 ns|RD-DATA   | 48260190 |  1/ 1 | -- | 00000000 |  OKAY  | ---- | ------- | - | ---------- |
                      ::             AHB address transfer phase detected
                      :: sequential  AHB data    transfer phase detected FIRST
                         DATA transfer assertion time :   321426 ns
                         ADDR transfer assertion time :   321421 ns
     line ::    82 :: |              322861 ns|              322866 ns|RD-NONSEQ | 48260190 | ----- |  1 | -------- |  ----  |SINGLE|    4    | 0 |           0|
                      0 :: first command
     line ::    83 :: |              322866 ns|              323791 ns|RD-DATA   | 48260190 |  1/ 1 | -- | 00000000 |  OKAY  | ---- | ------- | - | ---------- |
                      ::             AHB address transfer phase detected
                      :: sequential  AHB data    transfer phase detected FIRST
                         DATA transfer assertion time :   322866 ns
                         ADDR transfer assertion time :   322861 ns
     line ::    84 :: |              324341 ns|              324346 ns|RD-NONSEQ | 48260190 | ----- |  1 | -------- |  ----  |SINGLE|    4    | 0 |           0|
                      0 :: first command
     line ::    85 :: |              324346 ns|              325311 ns|RD-DATA   | 48260190 |  1/ 1 | -- | 00000000 |  OKAY  | ---- | ------- | - | ---------- |
                      ::             AHB address transfer phase detected
                      :: sequential  AHB data    transfer phase detected FIRST
                         DATA transfer assertion time :   324346 ns
                         ADDR transfer assertion time :   324341 ns
     line ::    86 :: |              325861 ns|              325866 ns|RD-NONSEQ | 48260190 | ----- |  1 | -------- |  ----  |SINGLE|    4    | 0 |           0|
                      0 :: first command
     line ::    87 :: |              325866 ns|              326751 ns|RD-DATA   | 48260190 |  1/ 1 | -- | 00000000 |  OKAY  | ---- | ------- | - | ---------- |
                      ::             AHB address transfer phase detected
                      :: sequential  AHB data    transfer phase detected FIRST
                         DATA transfer assertion time :   325866 ns
                         ADDR transfer assertion time :   325861 ns
     line ::    88 :: |              327301 ns|              327306 ns|RD-NONSEQ | 48260190 | ----- |  1 | -------- |  ----  |SINGLE|    4    | 0 |           0|
                      0 :: first command
     line ::    89 :: |              327306 ns|              328191 ns|RD-DATA   | 48260190 |  1/ 1 | -- | 00000000 |  OKAY  | ---- | ------- | - | ---------- |
                      ::             AHB address transfer phase detected
                      :: sequential  AHB data    transfer phase detected FIRST
                         DATA transfer assertion time :   327306 ns
                         ADDR transfer assertion time :   327301 ns
     line ::    90 :: |              328741 ns|              328746 ns|RD-NONSEQ | 48260190 | ----- |  1 | -------- |  ----  |SINGLE|    4    | 0 |           0|
                      0 :: first command
     line ::    91 :: |              328746 ns|              329631 ns|RD-DATA   | 48260190 |  1/ 1 | -- | 00000000 |  OKAY  | ---- | ------- | - | ---------- |
                      ::             AHB address transfer phase detected
                      :: sequential  AHB data    transfer phase detected FIRST
                         DATA transfer assertion time :   328746 ns
                         ADDR transfer assertion time :   328741 ns
     line ::    92 :: |              330181 ns|              330186 ns|RD-NONSEQ | 48260190 | ----- |  1 | -------- |  ----  |SINGLE|    4    | 0 |           0|
                      0 :: first command
     line ::    93 :: |              330186 ns|              331071 ns|RD-DATA   | 48260190 |  1/ 1 | -- | 00000000 |  OKAY  | ---- | ------- | - | ---------- |
                      ::             AHB address transfer phase detected
                      :: sequential  AHB data    transfer phase detected FIRST
                         DATA transfer assertion time :   330186 ns
                         ADDR transfer assertion time :   330181 ns
     line ::    94 :: |              331621 ns|              331626 ns|RD-NONSEQ | 48260190 | ----- |  1 | -------- |  ----  |SINGLE|    4    | 0 |           0|
                      0 :: first command
     line ::    95 :: |              331626 ns|              332551 ns|RD-DATA   | 48260190 |  1/ 1 | -- | 00000000 |  OKAY  | ---- | ------- | - | ---------- |
                      ::             AHB address transfer phase detected
                      :: sequential  AHB data    transfer phase detected FIRST
                         DATA transfer assertion time :   331626 ns
                         ADDR transfer assertion time :   331621 ns
     line ::    96 :: |              333101 ns|              333106 ns|RD-NONSEQ | 48260190 | ----- |  1 | -------- |  ----  |SINGLE|    4    | 0 |           0|
                      0 :: first command
     line ::    97 :: |              333106 ns|              334031 ns|RD-DATA   | 48260190 |  1/ 1 | -- | 00000000 |  OKAY  | ---- | ------- | - | ---------- |
                      ::             AHB address transfer phase detected
                      :: sequential  AHB data    transfer phase detected FIRST
                         DATA transfer assertion time :   333106 ns
                         ADDR transfer assertion time :   333101 ns
     line ::    98 :: |              334581 ns|              334586 ns|RD-NONSEQ | 48260190 | ----- |  1 | -------- |  ----  |SINGLE|    4    | 0 |           0|
                      0 :: first command
     line ::    99 :: |              334586 ns|              335471 ns|RD-DATA   | 48260190 |  1/ 1 | -- | 00000001 |  OKAY  | ---- | ------- | - | ---------- |
                      ::             AHB address transfer phase detected
                      :: sequential  AHB data    transfer phase detected FIRST
                         DATA transfer assertion time :   334586 ns
                         ADDR transfer assertion time :   334581 ns
     line ::   100 :: |              335521 ns|              335526 ns|RD-NONSEQ | 4826018C | ----- |  1 | -------- |  ----  |SINGLE|    4    | 0 |           0|
                      0 :: first command
     line ::   101 :: |              335526 ns|              336391 ns|RD-DATA   | 4826018C |  1/ 1 | -- | 0000623F |  OKAY  | ---- | ------- | - | ---------- |
                      ::             AHB address transfer phase detected
                      :: sequential  AHB data    transfer phase detected FIRST
                         DATA transfer assertion time :   335526 ns
                         ADDR transfer assertion time :   335521 ns
     line ::   102 :: |              336446 ns|              336451 ns|WR-NONSEQ | 4826018C | ----- |  1 | -------- |  ----  |SINGLE|    4    | 0 |           0|
                      0 :: first command
     line ::   103 :: |              336451 ns|              337351 ns|WR-DATA   | 4826018C |  1/ 1 | -- | 0000623E |  OKAY  | ---- | ------- | - | ---------- |
                      ::             AHB address transfer phase detected
                      :: sequential  AHB data    transfer phase detected FIRST
                         DATA transfer assertion time :   336451 ns
                         ADDR transfer assertion time :   336446 ns
     line ::   104 :: |              337401 ns|              337406 ns|RD-NONSEQ | 4826017C | ----- |  1 | -------- |  ----  |SINGLE|    4    | 0 |           0|
                      0 :: first command
     line ::   105 :: |              337406 ns|              338271 ns|RD-DATA   | 4826017C |  1/ 1 | -- | 84002040 |  OKAY  | ---- | ------- | - | ---------- |
                      ::             AHB address transfer phase detected
                      :: sequential  AHB data    transfer phase detected FIRST
                         DATA transfer assertion time :   337406 ns
                         ADDR transfer assertion time :   337401 ns
     line ::   106 :: |              338326 ns|              338331 ns|WR-NONSEQ | 4826017C | ----- |  1 | -------- |  ----  |SINGLE|    4    | 0 |           0|
                      0 :: first command
     line ::   107 :: |              338331 ns|              339231 ns|WR-DATA   | 4826017C |  1/ 1 | -- | 84002041 |  OKAY  | ---- | ------- | - | ---------- |
                      ::             AHB address transfer phase detected
                      :: sequential  AHB data    transfer phase detected FIRST
                         DATA transfer assertion time :   338331 ns
                         ADDR transfer assertion time :   338326 ns
     line ::   108 :: |              339486 ns|              339491 ns|WR-NONSEQ | 4826017C | ----- |  1 | -------- |  ----  |SINGLE|    4    | 0 |           0|
                      0 :: first command
     line ::   109 :: |              339491 ns|              340391 ns|WR-DATA   | 4826017C |  1/ 1 | -- | 84002001 |  OKAY  | ---- | ------- | - | ---------- |
                      ::             AHB address transfer phase detected
                      :: sequential  AHB data    transfer phase detected FIRST
                         DATA transfer assertion time :   339491 ns
                         ADDR transfer assertion time :   339486 ns
     line ::   110 :: |              340841 ns|              340846 ns|RD-NONSEQ | 482601B4 | ----- |  1 | -------- |  ----  |SINGLE|    4    | 0 |           0|
                      0 :: first command
     line ::   111 :: |              340846 ns|              341751 ns|RD-DATA   | 482601B4 |  1/ 1 | -- | 000001CB |  OKAY  | ---- | ------- | - | ---------- |
                      ::             AHB address transfer phase detected
                      :: sequential  AHB data    transfer phase detected FIRST
                         DATA transfer assertion time :   340846 ns
                         ADDR transfer assertion time :   340841 ns
     line ::   112 :: |              341806 ns|              341811 ns|WR-NONSEQ | 482601B4 | ----- |  1 | -------- |  ----  |SINGLE|    4    | 0 |           0|
                      0 :: first command
     line ::   113 :: |              341811 ns|              342601 ns|WR-DATA   | 482601B4 |  1/ 1 | -- | 0000014B |  OKAY  | ---- | ------- | - | ---------- |
                      ::             AHB address transfer phase detected
                      :: sequential  AHB data    transfer phase detected FIRST
                         DATA transfer assertion time :   341811 ns
                         ADDR transfer assertion time :   341806 ns
     line ::   114 :: |              342651 ns|              342656 ns|RD-NONSEQ | 482601C0 | ----- |  1 | -------- |  ----  |SINGLE|    4    | 0 |           0|
                      0 :: first command
     line ::   115 :: |              342656 ns|              343361 ns|RD-DATA   | 482601C0 |  1/ 1 | -- | 000007CB |  OKAY  | ---- | ------- | - | ---------- |
                      ::             AHB address transfer phase detected
                      :: sequential  AHB data    transfer phase detected FIRST
                         DATA transfer assertion time :   342656 ns
                         ADDR transfer assertion time :   342651 ns
     line ::   116 :: |              343416 ns|              343421 ns|WR-NONSEQ | 482601C0 | ----- |  1 | -------- |  ----  |SINGLE|    4    | 0 |           0|
                      0 :: first command
     line ::   117 :: |              343421 ns|              343936 ns|WR-DATA   | 482601C0 |  1/ 1 | -- | 0000074B |  OKAY  | ---- | ------- | - | ---------- |
                      ::             AHB address transfer phase detected
                      :: sequential  AHB data    transfer phase detected FIRST
                         DATA transfer assertion time :   343421 ns
                         ADDR transfer assertion time :   343416 ns
     line ::   118 :: |              343986 ns|              343991 ns|RD-NONSEQ | 48260194 | ----- |  1 | -------- |  ----  |SINGLE|    4    | 0 |           0|
                      0 :: first command
     line ::   119 :: |              343991 ns|              344296 ns|RD-DATA   | 48260194 |  1/ 1 | -- | 43002E00 |  OKAY  | ---- | ------- | - | ---------- |
                      ::             AHB address transfer phase detected
                      :: sequential  AHB data    transfer phase detected FIRST
                         DATA transfer assertion time :   343991 ns
                         ADDR transfer assertion time :   343986 ns
     line ::   120 :: |              344346 ns|              344351 ns|RD-NONSEQ | 48260164 | ----- |  1 | -------- |  ----  |SINGLE|    4    | 0 |           0|
                      0 :: first command
     line ::   121 :: |              344351 ns|              344656 ns|RD-DATA   | 48260164 |  1/ 1 | -- | 20B01E01 |  OKAY  | ---- | ------- | - | ---------- |
                      ::             AHB address transfer phase detected
                      :: sequential  AHB data    transfer phase detected FIRST
                         DATA transfer assertion time :   344351 ns
                         ADDR transfer assertion time :   344346 ns
     line ::   122 :: |              344711 ns|              344716 ns|WR-NONSEQ | 48260194 | ----- |  1 | -------- |  ----  |SINGLE|    4    | 0 |           0|
                      0 :: first command
     line ::   123 :: |              344716 ns|              345056 ns|WR-DATA   | 48260194 |  1/ 1 | -- | 43002E40 |  OKAY  | ---- | ------- | - | ---------- |
                      ::             AHB address transfer phase detected
                      :: sequential  AHB data    transfer phase detected FIRST
                         DATA transfer assertion time :   344716 ns
                         ADDR transfer assertion time :   344711 ns
     line ::   124 :: |              345111 ns|              345116 ns|WR-NONSEQ | 48260164 | ----- |  1 | -------- |  ----  |SINGLE|    4    | 0 |           0|
                      0 :: first command
     line ::   125 :: |              345116 ns|              345416 ns|WR-DATA   | 48260164 |  1/ 1 | -- | 20B01E41 |  OKAY  | ---- | ------- | - | ---------- |
                      ::             AHB address transfer phase detected
                      :: sequential  AHB data    transfer phase detected FIRST
                         DATA transfer assertion time :   345116 ns
                         ADDR transfer assertion time :   345111 ns
     line ::   126 :: |              345506 ns|              345511 ns|RD-NONSEQ | 48260194 | ----- |  1 | -------- |  ----  |SINGLE|    4    | 0 |           0|
                      0 :: first command
     line ::   127 :: |              345511 ns|              345816 ns|RD-DATA   | 48260194 |  1/ 1 | -- | 43002E40 |  OKAY  | ---- | ------- | - | ---------- |
                      ::             AHB address transfer phase detected
                      :: sequential  AHB data    transfer phase detected FIRST
                         DATA transfer assertion time :   345511 ns
                         ADDR transfer assertion time :   345506 ns
     line ::   128 :: |              345866 ns|              345871 ns|RD-NONSEQ | 48260164 | ----- |  1 | -------- |  ----  |SINGLE|    4    | 0 |           0|
                      0 :: first command
     line ::   129 :: |              345871 ns|              346176 ns|RD-DATA   | 48260164 |  1/ 1 | -- | 20B01E41 |  OKAY  | ---- | ------- | - | ---------- |
                      ::             AHB address transfer phase detected
                      :: sequential  AHB data    transfer phase detected FIRST
                         DATA transfer assertion time :   345871 ns
                         ADDR transfer assertion time :   345866 ns
     line ::   130 :: |              346231 ns|              346236 ns|WR-NONSEQ | 48260194 | ----- |  1 | -------- |  ----  |SINGLE|    4    | 0 |           0|
                      0 :: first command
     line ::   131 :: |              346236 ns|              346536 ns|WR-DATA   | 48260194 |  1/ 1 | -- | 43002E40 |  OKAY  | ---- | ------- | - | ---------- |
                      ::             AHB address transfer phase detected
                      :: sequential  AHB data    transfer phase detected FIRST
                         DATA transfer assertion time :   346236 ns
                         ADDR transfer assertion time :   346231 ns
     line ::   132 :: |              346591 ns|              346596 ns|WR-NONSEQ | 48260164 | ----- |  1 | -------- |  ----  |SINGLE|    4    | 0 |           0|
                      0 :: first command
     line ::   133 :: |              346596 ns|              346896 ns|WR-DATA   | 48260164 |  1/ 1 | -- | 20B01E40 |  OKAY  | ---- | ------- | - | ---------- |
                      ::             AHB address transfer phase detected
                      :: sequential  AHB data    transfer phase detected FIRST
                         DATA transfer assertion time :   346596 ns
                         ADDR transfer assertion time :   346591 ns
     line ::   134 :: |              346946 ns|              346951 ns|RD-NONSEQ | 48260194 | ----- |  1 | -------- |  ----  |SINGLE|    4    | 0 |           0|
                      0 :: first command
     line ::   135 :: |              346951 ns|              347256 ns|RD-DATA   | 48260194 |  1/ 1 | -- | 43002E40 |  OKAY  | ---- | ------- | - | ---------- |
                      ::             AHB address transfer phase detected
                      :: sequential  AHB data    transfer phase detected FIRST
                         DATA transfer assertion time :   346951 ns
                         ADDR transfer assertion time :   346946 ns
     line ::   136 :: |              347306 ns|              347311 ns|RD-NONSEQ | 48260164 | ----- |  1 | -------- |  ----  |SINGLE|    4    | 0 |           0|
                      0 :: first command
     line ::   137 :: |              347311 ns|              347616 ns|RD-DATA   | 48260164 |  1/ 1 | -- | 20B01E40 |  OKAY  | ---- | ------- | - | ---------- |
                      ::             AHB address transfer phase detected
                      :: sequential  AHB data    transfer phase detected FIRST
                         DATA transfer assertion time :   347311 ns
                         ADDR transfer assertion time :   347306 ns
     line ::   138 :: |              347671 ns|              347676 ns|WR-NONSEQ | 48260194 | ----- |  1 | -------- |  ----  |SINGLE|    4    | 0 |           0|
                      0 :: first command
     line ::   139 :: |              347676 ns|              347976 ns|WR-DATA   | 48260194 |  1/ 1 | -- | 43002E40 |  OKAY  | ---- | ------- | - | ---------- |
                      ::             AHB address transfer phase detected
                      :: sequential  AHB data    transfer phase detected FIRST
                         DATA transfer assertion time :   347676 ns
                         ADDR transfer assertion time :   347671 ns
     line ::   140 :: |              348031 ns|              348036 ns|WR-NONSEQ | 48260164 | ----- |  1 | -------- |  ----  |SINGLE|    4    | 0 |           0|
                      0 :: first command
     line ::   141 :: |              348036 ns|              348336 ns|WR-DATA   | 48260164 |  1/ 1 | -- | 20B01E40 |  OKAY  | ---- | ------- | - | ---------- |
                      ::             AHB address transfer phase detected
                      :: sequential  AHB data    transfer phase detected FIRST
                         DATA transfer assertion time :   348036 ns
                         ADDR transfer assertion time :   348031 ns
     line ::   142 :: |              348531 ns|              348536 ns|WR-NONSEQ | 48260194 | ----- |  1 | -------- |  ----  |SINGLE|    4    | 0 |           0|
                      0 :: first command
     line ::   143 :: |              348536 ns|              348866 ns|WR-DATA   | 48260194 |  1/ 1 | -- | 43002E40 |  OKAY  | ---- | ------- | - | ---------- |
                      ::             AHB address transfer phase detected
                      :: sequential  AHB data    transfer phase detected FIRST
                         DATA transfer assertion time :   348536 ns
                         ADDR transfer assertion time :   348531 ns
     line ::   144 :: |              348921 ns|              348926 ns|WR-NONSEQ | 48260164 | ----- |  1 | -------- |  ----  |SINGLE|    4    | 0 |           0|
                      0 :: first command
     line ::   145 :: |              348926 ns|              349256 ns|WR-DATA   | 48260164 |  1/ 1 | -- | 20B01E40 |  OKAY  | ---- | ------- | - | ---------- |
                      ::             AHB address transfer phase detected
                      :: sequential  AHB data    transfer phase detected FIRST
                         DATA transfer assertion time :   348926 ns
                         ADDR transfer assertion time :   348921 ns
     line ::   146 :: |              349311 ns|              349316 ns|WR-NONSEQ | 48260194 | ----- |  1 | -------- |  ----  |SINGLE|    4    | 0 |           0|
                      0 :: first command
     line ::   147 :: |              349316 ns|              349666 ns|WR-DATA   | 48260194 |  1/ 1 | -- | 83002E40 |  OKAY  | ---- | ------- | - | ---------- |
                      ::             AHB address transfer phase detected
                      :: sequential  AHB data    transfer phase detected FIRST
                         DATA transfer assertion time :   349316 ns
                         ADDR transfer assertion time :   349311 ns
     line ::   148 :: |              349721 ns|              349726 ns|WR-NONSEQ | 48260164 | ----- |  1 | -------- |  ----  |SINGLE|    4    | 0 |           0|
                      0 :: first command
     line ::   149 :: |              349726 ns|              350066 ns|WR-DATA   | 48260164 |  1/ 1 | -- | 42C02E40 |  OKAY  | ---- | ------- | - | ---------- |
                      ::             AHB address transfer phase detected
                      :: sequential  AHB data    transfer phase detected FIRST
                         DATA transfer assertion time :   349726 ns
                         ADDR transfer assertion time :   349721 ns
     line ::   150 :: |              350121 ns|              350126 ns|WR-NONSEQ | 48260194 | ----- |  1 | -------- |  ----  |SINGLE|    4    | 0 |           0|
                      0 :: first command
     line ::   151 :: |              350126 ns|              350456 ns|WR-DATA   | 48260194 |  1/ 1 | -- | 83002240 |  OKAY  | ---- | ------- | - | ---------- |
                      ::             AHB address transfer phase detected
                      :: sequential  AHB data    transfer phase detected FIRST
                         DATA transfer assertion time :   350126 ns
                         ADDR transfer assertion time :   350121 ns
     line ::   152 :: |              350511 ns|              350516 ns|WR-NONSEQ | 48260164 | ----- |  1 | -------- |  ----  |SINGLE|    4    | 0 |           0|
                      0 :: first command
     line ::   153 :: |              350516 ns|              350816 ns|WR-DATA   | 48260164 |  1/ 1 | -- | 42C02240 |  OKAY  | ---- | ------- | - | ---------- |
                      ::             AHB address transfer phase detected
                      :: sequential  AHB data    transfer phase detected FIRST
                         DATA transfer assertion time :   350516 ns
                         ADDR transfer assertion time :   350511 ns
     line ::   154 :: |              360511 ns|              360516 ns|WR-NONSEQ | 48260194 | ----- |  1 | -------- |  ----  |SINGLE|    4    | 0 |           0|
                      0 :: first command
     line ::   155 :: |              360516 ns|              360816 ns|WR-DATA   | 48260194 |  1/ 1 | -- | 83002040 |  OKAY  | ---- | ------- | - | ---------- |
                      ::             AHB address transfer phase detected
                      :: sequential  AHB data    transfer phase detected FIRST
                         DATA transfer assertion time :   360516 ns
                         ADDR transfer assertion time :   360511 ns
     line ::   156 :: |              360871 ns|              360876 ns|WR-NONSEQ | 48260164 | ----- |  1 | -------- |  ----  |SINGLE|    4    | 0 |           0|
                      0 :: first command
     line ::   157 :: |              360876 ns|              361176 ns|WR-DATA   | 48260164 |  1/ 1 | -- | 42C02040 |  OKAY  | ---- | ------- | - | ---------- |
                      ::             AHB address transfer phase detected
                      :: sequential  AHB data    transfer phase detected FIRST
                         DATA transfer assertion time :   360876 ns
                         ADDR transfer assertion time :   360871 ns
     line ::   158 :: |              361366 ns|              361371 ns|RD-NONSEQ | 482601A8 | ----- |  1 | -------- |  ----  |SINGLE|    4    | 0 |           0|
                      0 :: first command
     line ::   159 :: |              361371 ns|              361736 ns|RD-DATA   | 482601A8 |  1/ 1 | -- | 00000000 |  OKAY  | ---- | ------- | - | ---------- |
                      ::             AHB address transfer phase detected
                      :: sequential  AHB data    transfer phase detected FIRST
                         DATA transfer assertion time :   361371 ns
                         ADDR transfer assertion time :   361366 ns
     line ::   160 :: |              361786 ns|              361791 ns|RD-NONSEQ | 48260178 | ----- |  1 | -------- |  ----  |SINGLE|    4    | 0 |           0|
                      0 :: first command
     line ::   161 :: |              361791 ns|              362096 ns|RD-DATA   | 48260178 |  1/ 1 | -- | 00000000 |  OKAY  | ---- | ------- | - | ---------- |
                      ::             AHB address transfer phase detected
                      :: sequential  AHB data    transfer phase detected FIRST
                         DATA transfer assertion time :   361791 ns
                         ADDR transfer assertion time :   361786 ns
     line ::   162 :: |              362286 ns|              362291 ns|RD-NONSEQ | 482601A8 | ----- |  1 | -------- |  ----  |SINGLE|    4    | 0 |           0|
                      0 :: first command
     line ::   163 :: |              362291 ns|              362616 ns|RD-DATA   | 482601A8 |  1/ 1 | -- | 00000000 |  OKAY  | ---- | ------- | - | ---------- |
                      ::             AHB address transfer phase detected
                      :: sequential  AHB data    transfer phase detected FIRST
                         DATA transfer assertion time :   362291 ns
                         ADDR transfer assertion time :   362286 ns
     line ::   164 :: |              362666 ns|              362671 ns|RD-NONSEQ | 48260178 | ----- |  1 | -------- |  ----  |SINGLE|    4    | 0 |           0|
                      0 :: first command
     line ::   165 :: |              362671 ns|              362986 ns|RD-DATA   | 48260178 |  1/ 1 | -- | 00000000 |  OKAY  | ---- | ------- | - | ---------- |
                      ::             AHB address transfer phase detected
                      :: sequential  AHB data    transfer phase detected FIRST
                         DATA transfer assertion time :   362671 ns
                         ADDR transfer assertion time :   362666 ns
     line ::   166 :: |              363166 ns|              363171 ns|RD-NONSEQ | 482601A8 | ----- |  1 | -------- |  ----  |SINGLE|    4    | 0 |           0|
                      0 :: first command
     line ::   167 :: |              363171 ns|              363496 ns|RD-DATA   | 482601A8 |  1/ 1 | -- | 00000000 |  OKAY  | ---- | ------- | - | ---------- |
                      ::             AHB address transfer phase detected
                      :: sequential  AHB data    transfer phase detected FIRST
                         DATA transfer assertion time :   363171 ns
                         ADDR transfer assertion time :   363166 ns
     line ::   168 :: |              363546 ns|              363551 ns|RD-NONSEQ | 48260178 | ----- |  1 | -------- |  ----  |SINGLE|    4    | 0 |           0|
                      0 :: first command
     line ::   169 :: |              363551 ns|              363856 ns|RD-DATA   | 48260178 |  1/ 1 | -- | 00000000 |  OKAY  | ---- | ------- | - | ---------- |
                      ::             AHB address transfer phase detected
                      :: sequential  AHB data    transfer phase detected FIRST
                         DATA transfer assertion time :   363551 ns
                         ADDR transfer assertion time :   363546 ns
     line ::   170 :: |              364046 ns|              364051 ns|RD-NONSEQ | 482601A8 | ----- |  1 | -------- |  ----  |SINGLE|    4    | 0 |           0|
                      0 :: first command
     line ::   171 :: |              364051 ns|              364386 ns|RD-DATA   | 482601A8 |  1/ 1 | -- | 00000000 |  OKAY  | ---- | ------- | - | ---------- |
                      ::             AHB address transfer phase detected
                      :: sequential  AHB data    transfer phase detected FIRST
                         DATA transfer assertion time :   364051 ns
                         ADDR transfer assertion time :   364046 ns
     line ::   172 :: |              364436 ns|              364441 ns|RD-NONSEQ | 48260178 | ----- |  1 | -------- |  ----  |SINGLE|    4    | 0 |           0|
                      0 :: first command
     line ::   173 :: |              364441 ns|              364786 ns|RD-DATA   | 48260178 |  1/ 1 | -- | 00000000 |  OKAY  | ---- | ------- | - | ---------- |
                      ::             AHB address transfer phase detected
                      :: sequential  AHB data    transfer phase detected FIRST
                         DATA transfer assertion time :   364441 ns
                         ADDR transfer assertion time :   364436 ns
     line ::   174 :: |              364936 ns|              364941 ns|RD-NONSEQ | 482601A8 | ----- |  1 | -------- |  ----  |SINGLE|    4    | 0 |           0|
                      0 :: first command
     line ::   175 :: |              364941 ns|              365256 ns|RD-DATA   | 482601A8 |  1/ 1 | -- | 00000000 |  OKAY  | ---- | ------- | - | ---------- |
                      ::             AHB address transfer phase detected
                      :: sequential  AHB data    transfer phase detected FIRST
                         DATA transfer assertion time :   364941 ns
                         ADDR transfer assertion time :   364936 ns
     line ::   176 :: |              365336 ns|              365341 ns|RD-NONSEQ | 48260178 | ----- |  1 | -------- |  ----  |SINGLE|    4    | 0 |           0|
                      0 :: first command
     line ::   177 :: |              365341 ns|              365656 ns|RD-DATA   | 48260178 |  1/ 1 | -- | 00000000 |  OKAY  | ---- | ------- | - | ---------- |
                      ::             AHB address transfer phase detected
                      :: sequential  AHB data    transfer phase detected FIRST
                         DATA transfer assertion time :   365341 ns
                         ADDR transfer assertion time :   365336 ns
     line ::   178 :: |              365806 ns|              365811 ns|RD-NONSEQ | 482601A8 | ----- |  1 | -------- |  ----  |SINGLE|    4    | 0 |           0|
                      0 :: first command
     line ::   179 :: |              365811 ns|              366136 ns|RD-DATA   | 482601A8 |  1/ 1 | -- | 00000000 |  OKAY  | ---- | ------- | - | ---------- |
                      ::             AHB address transfer phase detected
                      :: sequential  AHB data    transfer phase detected FIRST
                         DATA transfer assertion time :   365811 ns
                         ADDR transfer assertion time :   365806 ns
     line ::   180 :: |              366206 ns|              366211 ns|RD-NONSEQ | 48260178 | ----- |  1 | -------- |  ----  |SINGLE|    4    | 0 |           0|
                      0 :: first command
     line ::   181 :: |              366211 ns|              366536 ns|RD-DATA   | 48260178 |  1/ 1 | -- | 00000000 |  OKAY  | ---- | ------- | - | ---------- |
                      ::             AHB address transfer phase detected
                      :: sequential  AHB data    transfer phase detected FIRST
                         DATA transfer assertion time :   366211 ns
                         ADDR transfer assertion time :   366206 ns
     line ::   182 :: |              366686 ns|              366691 ns|RD-NONSEQ | 482601A8 | ----- |  1 | -------- |  ----  |SINGLE|    4    | 0 |           0|
                      0 :: first command
     line ::   183 :: |              366691 ns|              367066 ns|RD-DATA   | 482601A8 |  1/ 1 | -- | 00000000 |  OKAY  | ---- | ------- | - | ---------- |
                      ::             AHB address transfer phase detected
                      :: sequential  AHB data    transfer phase detected FIRST
                         DATA transfer assertion time :   366691 ns
                         ADDR transfer assertion time :   366686 ns
     line ::   184 :: |              367116 ns|              367121 ns|RD-NONSEQ | 48260178 | ----- |  1 | -------- |  ----  |SINGLE|    4    | 0 |           0|
                      0 :: first command
     line ::   185 :: |              367121 ns|              367416 ns|RD-DATA   | 48260178 |  1/ 1 | -- | 00000000 |  OKAY  | ---- | ------- | - | ---------- |
                      ::             AHB address transfer phase detected
                      :: sequential  AHB data    transfer phase detected FIRST
                         DATA transfer assertion time :   367121 ns
                         ADDR transfer assertion time :   367116 ns
     line ::   186 :: |              367616 ns|              367621 ns|RD-NONSEQ | 482601A8 | ----- |  1 | -------- |  ----  |SINGLE|    4    | 0 |           0|
                      0 :: first command
     line ::   187 :: |              367621 ns|              367946 ns|RD-DATA   | 482601A8 |  1/ 1 | -- | 00000000 |  OKAY  | ---- | ------- | - | ---------- |
                      ::             AHB address transfer phase detected
                      :: sequential  AHB data    transfer phase detected FIRST
                         DATA transfer assertion time :   367621 ns
                         ADDR transfer assertion time :   367616 ns
     line ::   188 :: |              367996 ns|              368001 ns|RD-NONSEQ | 48260178 | ----- |  1 | -------- |  ----  |SINGLE|    4    | 0 |           0|
                      0 :: first command
     line ::   189 :: |              368001 ns|              368296 ns|RD-DATA   | 48260178 |  1/ 1 | -- | 00000000 |  OKAY  | ---- | ------- | - | ---------- |
                      ::             AHB address transfer phase detected
                      :: sequential  AHB data    transfer phase detected FIRST
                         DATA transfer assertion time :   368001 ns
                         ADDR transfer assertion time :   367996 ns
     line ::   190 :: |              368496 ns|              368501 ns|RD-NONSEQ | 482601A8 | ----- |  1 | -------- |  ----  |SINGLE|    4    | 0 |           0|
                      0 :: first command
     line ::   191 :: |              368501 ns|              368816 ns|RD-DATA   | 482601A8 |  1/ 1 | -- | 00000000 |  OKAY  | ---- | ------- | - | ---------- |
                      ::             AHB address transfer phase detected
                      :: sequential  AHB data    transfer phase detected FIRST
                         DATA transfer assertion time :   368501 ns
                         ADDR transfer assertion time :   368496 ns
     line ::   192 :: |              368866 ns|              368871 ns|RD-NONSEQ | 48260178 | ----- |  1 | -------- |  ----  |SINGLE|    4    | 0 |           0|
                      0 :: first command
     line ::   193 :: |              368871 ns|              369186 ns|RD-DATA   | 48260178 |  1/ 1 | -- | 00000000 |  OKAY  | ---- | ------- | - | ---------- |
                      ::             AHB address transfer phase detected
                      :: sequential  AHB data    transfer phase detected FIRST
                         DATA transfer assertion time :   368871 ns
                         ADDR transfer assertion time :   368866 ns
     line ::   194 :: |              369366 ns|              369371 ns|RD-NONSEQ | 482601A8 | ----- |  1 | -------- |  ----  |SINGLE|    4    | 0 |           0|
                      0 :: first command
     line ::   195 :: |              369371 ns|              369696 ns|RD-DATA   | 482601A8 |  1/ 1 | -- | 00000000 |  OKAY  | ---- | ------- | - | ---------- |
                      ::             AHB address transfer phase detected
                      :: sequential  AHB data    transfer phase detected FIRST
                         DATA transfer assertion time :   369371 ns
                         ADDR transfer assertion time :   369366 ns
     line ::   196 :: |              369746 ns|              369751 ns|RD-NONSEQ | 48260178 | ----- |  1 | -------- |  ----  |SINGLE|    4    | 0 |           0|
                      0 :: first command
     line ::   197 :: |              369751 ns|              370056 ns|RD-DATA   | 48260178 |  1/ 1 | -- | 00000000 |  OKAY  | ---- | ------- | - | ---------- |
                      ::             AHB address transfer phase detected
                      :: sequential  AHB data    transfer phase detected FIRST
                         DATA transfer assertion time :   369751 ns
                         ADDR transfer assertion time :   369746 ns
     line ::   198 :: |              370246 ns|              370251 ns|RD-NONSEQ | 482601A8 | ----- |  1 | -------- |  ----  |SINGLE|    4    | 0 |           0|
                      0 :: first command
     line ::   199 :: |              370251 ns|              370576 ns|RD-DATA   | 482601A8 |  1/ 1 | -- | 00000000 |  OKAY  | ---- | ------- | - | ---------- |
                      ::             AHB address transfer phase detected
                      :: sequential  AHB data    transfer phase detected FIRST
                         DATA transfer assertion time :   370251 ns
                         ADDR transfer assertion time :   370246 ns
     line ::   200 :: |              370626 ns|              370631 ns|RD-NONSEQ | 48260178 | ----- |  1 | -------- |  ----  |SINGLE|    4    | 0 |           0|
                      0 :: first command
     line ::   201 :: |              370631 ns|              370946 ns|RD-DATA   | 48260178 |  1/ 1 | -- | 00000000 |  OKAY  | ---- | ------- | - | ---------- |
                      ::             AHB address transfer phase detected
                      :: sequential  AHB data    transfer phase detected FIRST
                         DATA transfer assertion time :   370631 ns
                         ADDR transfer assertion time :   370626 ns
     line ::   202 :: |              371126 ns|              371131 ns|RD-NONSEQ | 482601A8 | ----- |  1 | -------- |  ----  |SINGLE|    4    | 0 |           0|
                      0 :: first command
     line ::   203 :: |              371131 ns|              371456 ns|RD-DATA   | 482601A8 |  1/ 1 | -- | 00000000 |  OKAY  | ---- | ------- | - | ---------- |
                      ::             AHB address transfer phase detected
                      :: sequential  AHB data    transfer phase detected FIRST
                         DATA transfer assertion time :   371131 ns
                         ADDR transfer assertion time :   371126 ns
     line ::   204 :: |              371506 ns|              371511 ns|RD-NONSEQ | 48260178 | ----- |  1 | -------- |  ----  |SINGLE|    4    | 0 |           0|
                      0 :: first command
     line ::   205 :: |              371511 ns|              371816 ns|RD-DATA   | 48260178 |  1/ 1 | -- | 00000000 |  OKAY  | ---- | ------- | - | ---------- |
                      ::             AHB address transfer phase detected
                      :: sequential  AHB data    transfer phase detected FIRST
                         DATA transfer assertion time :   371511 ns
                         ADDR transfer assertion time :   371506 ns
     line ::   206 :: |              372006 ns|              372011 ns|RD-NONSEQ | 482601A8 | ----- |  1 | -------- |  ----  |SINGLE|    4    | 0 |           0|
                      0 :: first command
     line ::   207 :: |              372011 ns|              372336 ns|RD-DATA   | 482601A8 |  1/ 1 | -- | 00000000 |  OKAY  | ---- | ------- | - | ---------- |
                      ::             AHB address transfer phase detected
                      :: sequential  AHB data    transfer phase detected FIRST
                         DATA transfer assertion time :   372011 ns
                         ADDR transfer assertion time :   372006 ns
     line ::   208 :: |              372386 ns|              372391 ns|RD-NONSEQ | 48260178 | ----- |  1 | -------- |  ----  |SINGLE|    4    | 0 |           0|
                      0 :: first command
     line ::   209 :: |              372391 ns|              372696 ns|RD-DATA   | 48260178 |  1/ 1 | -- | 00000000 |  OKAY  | ---- | ------- | - | ---------- |
                      ::             AHB address transfer phase detected
                      :: sequential  AHB data    transfer phase detected FIRST
                         DATA transfer assertion time :   372391 ns
                         ADDR transfer assertion time :   372386 ns
     line ::   210 :: |              372886 ns|              372891 ns|RD-NONSEQ | 482601A8 | ----- |  1 | -------- |  ----  |SINGLE|    4    | 0 |           0|
                      0 :: first command
     line ::   211 :: |              372891 ns|              373266 ns|RD-DATA   | 482601A8 |  1/ 1 | -- | 00000000 |  OKAY  | ---- | ------- | - | ---------- |
                      ::             AHB address transfer phase detected
                      :: sequential  AHB data    transfer phase detected FIRST
                         DATA transfer assertion time :   372891 ns
                         ADDR transfer assertion time :   372886 ns
     line ::   212 :: |              373316 ns|              373321 ns|RD-NONSEQ | 48260178 | ----- |  1 | -------- |  ----  |SINGLE|    4    | 0 |           0|
                      0 :: first command
     line ::   213 :: |              373321 ns|              373626 ns|RD-DATA   | 48260178 |  1/ 1 | -- | 00000000 |  OKAY  | ---- | ------- | - | ---------- |
                      ::             AHB address transfer phase detected
                      :: sequential  AHB data    transfer phase detected FIRST
                         DATA transfer assertion time :   373321 ns
                         ADDR transfer assertion time :   373316 ns
     line ::   214 :: |              373816 ns|              373821 ns|RD-NONSEQ | 482601A8 | ----- |  1 | -------- |  ----  |SINGLE|    4    | 0 |           0|
                      0 :: first command
     line ::   215 :: |              373821 ns|              374146 ns|RD-DATA   | 482601A8 |  1/ 1 | -- | 00000000 |  OKAY  | ---- | ------- | - | ---------- |
                      ::             AHB address transfer phase detected
                      :: sequential  AHB data    transfer phase detected FIRST
                         DATA transfer assertion time :   373821 ns
                         ADDR transfer assertion time :   373816 ns
     line ::   216 :: |              374196 ns|              374201 ns|RD-NONSEQ | 48260178 | ----- |  1 | -------- |  ----  |SINGLE|    4    | 0 |           0|
                      0 :: first command
     line ::   217 :: |              374201 ns|              374496 ns|RD-DATA   | 48260178 |  1/ 1 | -- | 00000000 |  OKAY  | ---- | ------- | - | ---------- |
                      ::             AHB address transfer phase detected
                      :: sequential  AHB data    transfer phase detected FIRST
                         DATA transfer assertion time :   374201 ns
                         ADDR transfer assertion time :   374196 ns
     line ::   218 :: |              374696 ns|              374701 ns|RD-NONSEQ | 482601A8 | ----- |  1 | -------- |  ----  |SINGLE|    4    | 0 |           0|
                      0 :: first command
     line ::   219 :: |              374701 ns|              375056 ns|RD-DATA   | 482601A8 |  1/ 1 | -- | 00000001 |  OKAY  | ---- | ------- | - | ---------- |
                      ::             AHB address transfer phase detected
                      :: sequential  AHB data    transfer phase detected FIRST
                         DATA transfer assertion time :   374701 ns
                         ADDR transfer assertion time :   374696 ns
     line ::   220 :: |              375106 ns|              375111 ns|RD-NONSEQ | 48260178 | ----- |  1 | -------- |  ----  |SINGLE|    4    | 0 |           0|
                      0 :: first command
     line ::   221 :: |              375111 ns|              375416 ns|RD-DATA   | 48260178 |  1/ 1 | -- | 00000001 |  OKAY  | ---- | ------- | - | ---------- |
                      ::             AHB address transfer phase detected
                      :: sequential  AHB data    transfer phase detected FIRST
                         DATA transfer assertion time :   375111 ns
                         ADDR transfer assertion time :   375106 ns
     line ::   222 :: |              375466 ns|              375471 ns|RD-NONSEQ | 482601A4 | ----- |  1 | -------- |  ----  |SINGLE|    4    | 0 |           0|
                      0 :: first command
     line ::   223 :: |              375471 ns|              375776 ns|RD-DATA   | 482601A4 |  1/ 1 | -- | 0000623F |  OKAY  | ---- | ------- | - | ---------- |
                      ::             AHB address transfer phase detected
                      :: sequential  AHB data    transfer phase detected FIRST
                         DATA transfer assertion time :   375471 ns
                         ADDR transfer assertion time :   375466 ns
     line ::   224 :: |              375826 ns|              375831 ns|RD-NONSEQ | 48260174 | ----- |  1 | -------- |  ----  |SINGLE|    4    | 0 |           0|
                      0 :: first command
     line ::   225 :: |              375831 ns|              376176 ns|RD-DATA   | 48260174 |  1/ 1 | -- | 0000623F |  OKAY  | ---- | ------- | - | ---------- |
                      ::             AHB address transfer phase detected
                      :: sequential  AHB data    transfer phase detected FIRST
                         DATA transfer assertion time :   375831 ns
                         ADDR transfer assertion time :   375826 ns
     line ::   226 :: |              376231 ns|              376236 ns|WR-NONSEQ | 482601A4 | ----- |  1 | -------- |  ----  |SINGLE|    4    | 0 |           0|
                      0 :: first command
     line ::   227 :: |              376236 ns|              376536 ns|WR-DATA   | 482601A4 |  1/ 1 | -- | 0000623E |  OKAY  | ---- | ------- | - | ---------- |
                      ::             AHB address transfer phase detected
                      :: sequential  AHB data    transfer phase detected FIRST
                         DATA transfer assertion time :   376236 ns
                         ADDR transfer assertion time :   376231 ns
     line ::   228 :: |              376591 ns|              376596 ns|WR-NONSEQ | 48260174 | ----- |  1 | -------- |  ----  |SINGLE|    4    | 0 |           0|
                      0 :: first command
     line ::   229 :: |              376596 ns|              376906 ns|WR-DATA   | 48260174 |  1/ 1 | -- | 0000623E |  OKAY  | ---- | ------- | - | ---------- |
                      ::             AHB address transfer phase detected
                      :: sequential  AHB data    transfer phase detected FIRST
                         DATA transfer assertion time :   376596 ns
                         ADDR transfer assertion time :   376591 ns
     line ::   230 :: |              376956 ns|              376961 ns|RD-NONSEQ | 48260194 | ----- |  1 | -------- |  ----  |SINGLE|    4    | 0 |           0|
                      0 :: first command
     line ::   231 :: |              376961 ns|              377256 ns|RD-DATA   | 48260194 |  1/ 1 | -- | 83002040 |  OKAY  | ---- | ------- | - | ---------- |
                      ::             AHB address transfer phase detected
                      :: sequential  AHB data    transfer phase detected FIRST
                         DATA transfer assertion time :   376961 ns
                         ADDR transfer assertion time :   376956 ns
     line ::   232 :: |              377306 ns|              377311 ns|RD-NONSEQ | 48260164 | ----- |  1 | -------- |  ----  |SINGLE|    4    | 0 |           0|
                      0 :: first command
     line ::   233 :: |              377311 ns|              377666 ns|RD-DATA   | 48260164 |  1/ 1 | -- | 42C02040 |  OKAY  | ---- | ------- | - | ---------- |
                      ::             AHB address transfer phase detected
                      :: sequential  AHB data    transfer phase detected FIRST
                         DATA transfer assertion time :   377311 ns
                         ADDR transfer assertion time :   377306 ns
     line ::   234 :: |              377721 ns|              377726 ns|WR-NONSEQ | 48260194 | ----- |  1 | -------- |  ----  |SINGLE|    4    | 0 |           0|
                      0 :: first command
     line ::   235 :: |              377726 ns|              378056 ns|WR-DATA   | 48260194 |  1/ 1 | -- | 83002041 |  OKAY  | ---- | ------- | - | ---------- |
                      ::             AHB address transfer phase detected
                      :: sequential  AHB data    transfer phase detected FIRST
                         DATA transfer assertion time :   377726 ns
                         ADDR transfer assertion time :   377721 ns
     line ::   236 :: |              378111 ns|              378116 ns|WR-NONSEQ | 48260164 | ----- |  1 | -------- |  ----  |SINGLE|    4    | 0 |           0|
                      0 :: first command
     line ::   237 :: |              378116 ns|              378416 ns|WR-DATA   | 48260164 |  1/ 1 | -- | 42C02041 |  OKAY  | ---- | ------- | - | ---------- |
                      ::             AHB address transfer phase detected
                      :: sequential  AHB data    transfer phase detected FIRST
                         DATA transfer assertion time :   378116 ns
                         ADDR transfer assertion time :   378111 ns
     line ::   238 :: |              378471 ns|              378476 ns|WR-NONSEQ | 48260194 | ----- |  1 | -------- |  ----  |SINGLE|    4    | 0 |           0|
                      0 :: first command
     line ::   239 :: |              378476 ns|              378786 ns|WR-DATA   | 48260194 |  1/ 1 | -- | 83002001 |  OKAY  | ---- | ------- | - | ---------- |
                      ::             AHB address transfer phase detected
                      :: sequential  AHB data    transfer phase detected FIRST
                         DATA transfer assertion time :   378476 ns
                         ADDR transfer assertion time :   378471 ns
     line ::   240 :: |              378841 ns|              378846 ns|WR-NONSEQ | 48260164 | ----- |  1 | -------- |  ----  |SINGLE|    4    | 0 |           0|
                      0 :: first command
     line ::   241 :: |              378846 ns|              379176 ns|WR-DATA   | 48260164 |  1/ 1 | -- | 42C02001 |  OKAY  | ---- | ------- | - | ---------- |
                      ::             AHB address transfer phase detected
                      :: sequential  AHB data    transfer phase detected FIRST
                         DATA transfer assertion time :   378846 ns
                         ADDR transfer assertion time :   378841 ns
     line ::   242 :: |              379626 ns|              379631 ns|RD-NONSEQ | 482601AC | ----- |  1 | -------- |  ----  |SINGLE|    4    | 0 |           0|
                      0 :: first command
     line ::   243 :: |              379631 ns|              379936 ns|RD-DATA   | 482601AC |  1/ 1 | -- | 000000CD |  OKAY  | ---- | ------- | - | ---------- |
                      ::             AHB address transfer phase detected
                      :: sequential  AHB data    transfer phase detected FIRST
                         DATA transfer assertion time :   379631 ns
                         ADDR transfer assertion time :   379626 ns
     line ::   244 :: |              379991 ns|              379996 ns|WR-NONSEQ | 482601AC | ----- |  1 | -------- |  ----  |SINGLE|    4    | 0 |           0|
                      0 :: first command
     line ::   245 :: |              379996 ns|              380296 ns|WR-DATA   | 482601AC |  1/ 1 | -- | 0000004D |  OKAY  | ---- | ------- | - | ---------- |
                      ::             AHB address transfer phase detected
                      :: sequential  AHB data    transfer phase detected FIRST
                         DATA transfer assertion time :   379996 ns
                         ADDR transfer assertion time :   379991 ns
     line ::   246 :: |              380351 ns|              380356 ns|WR-NONSEQ | 482601C8 | ----- |  1 | -------- |  ----  |SINGLE|    4    | 0 |           0|
                      0 :: first command
     line ::   247 :: |              380356 ns|              380696 ns|WR-DATA   | 482601C8 |  1/ 1 | -- | FFFFFFFF |  OKAY  | ---- | ------- | - | ---------- |
                      ::             AHB address transfer phase detected
                      :: sequential  AHB data    transfer phase detected FIRST
                         DATA transfer assertion time :   380356 ns
                         ADDR transfer assertion time :   380351 ns
     line ::   248 :: |              380751 ns|              380756 ns|WR-NONSEQ | 482601C4 | ----- |  1 | -------- |  ----  |SINGLE|    4    | 0 |           0|
                      0 :: first command
     line ::   249 :: |              380756 ns|              381056 ns|WR-DATA   | 482601C4 |  1/ 1 | -- | FFFFFFFF |  OKAY  | ---- | ------- | - | ---------- |
                      ::             AHB address transfer phase detected
                      :: sequential  AHB data    transfer phase detected FIRST
                         DATA transfer assertion time :   380756 ns
                         ADDR transfer assertion time :   380751 ns
     line ::   250 :: |              381106 ns|              381111 ns|RD-NONSEQ | 482601B8 | ----- |  1 | -------- |  ----  |SINGLE|    4    | 0 |           0|
                      0 :: first command
     line ::   251 :: |              381111 ns|              381416 ns|RD-DATA   | 482601B8 |  1/ 1 | -- | 0000000A |  OKAY  | ---- | ------- | - | ---------- |
                      ::             AHB address transfer phase detected
                      :: sequential  AHB data    transfer phase detected FIRST
                         DATA transfer assertion time :   381111 ns
                         ADDR transfer assertion time :   381106 ns
     line ::   252 :: |              381471 ns|              381476 ns|WR-NONSEQ | 482601B8 | ----- |  1 | -------- |  ----  |SINGLE|    4    | 0 |           0|
                      0 :: first command
     line ::   253 :: |              381476 ns|              381776 ns|WR-DATA   | 482601B8 |  1/ 1 | -- | 0000004A |  OKAY  | ---- | ------- | - | ---------- |
                      ::             AHB address transfer phase detected
                      :: sequential  AHB data    transfer phase detected FIRST
                         DATA transfer assertion time :   381476 ns
                         ADDR transfer assertion time :   381471 ns
     line ::   254 :: |              381831 ns|              381836 ns|WR-NONSEQ | 482601B8 | ----- |  1 | -------- |  ----  |SINGLE|    4    | 0 |           0|
                      0 :: first command
     line ::   255 :: |              381836 ns|              382146 ns|WR-DATA   | 482601B8 |  1/ 1 | -- | 0000004B |  OKAY  | ---- | ------- | - | ---------- |
                      ::             AHB address transfer phase detected
                      :: sequential  AHB data    transfer phase detected FIRST
                         DATA transfer assertion time :   381836 ns
                         ADDR transfer assertion time :   381831 ns
     line ::   256 :: |              382196 ns|              382201 ns|RD-NONSEQ | 482601B8 | ----- |  1 | -------- |  ----  |SINGLE|    4    | 0 |           0|
                      0 :: first command
     line ::   257 :: |              382201 ns|              382506 ns|RD-DATA   | 482601B8 |  1/ 1 | -- | 0000004B |  OKAY  | ---- | ------- | - | ---------- |
                      ::             AHB address transfer phase detected
                      :: sequential  AHB data    transfer phase detected FIRST
                         DATA transfer assertion time :   382201 ns
                         ADDR transfer assertion time :   382196 ns
     line ::   258 :: |              382606 ns|              382611 ns|RD-NONSEQ | 482601B0 | ----- |  1 | -------- |  ----  |SINGLE|    4    | 0 |           0|
                      0 :: first command
     line ::   259 :: |              382611 ns|              382936 ns|RD-DATA   | 482601B0 |  1/ 1 | -- | 00000008 |  OKAY  | ---- | ------- | - | ---------- |
                      ::             AHB address transfer phase detected
                      :: sequential  AHB data    transfer phase detected FIRST
                         DATA transfer assertion time :   382611 ns
                         ADDR transfer assertion time :   382606 ns
     line ::   260 :: |              382991 ns|              382996 ns|WR-NONSEQ | 482601B0 | ----- |  1 | -------- |  ----  |SINGLE|    4    | 0 |           0|
                      0 :: first command
     line ::   261 :: |              382996 ns|              383296 ns|WR-DATA   | 482601B0 |  1/ 1 | -- | 00000048 |  OKAY  | ---- | ------- | - | ---------- |
                      ::             AHB address transfer phase detected
                      :: sequential  AHB data    transfer phase detected FIRST
                         DATA transfer assertion time :   382996 ns
                         ADDR transfer assertion time :   382991 ns
     line ::   262 :: |              383351 ns|              383356 ns|WR-NONSEQ | 482601B0 | ----- |  1 | -------- |  ----  |SINGLE|    4    | 0 |           0|
                      0 :: first command
     line ::   263 :: |              383356 ns|              383656 ns|WR-DATA   | 482601B0 |  1/ 1 | -- | 00000049 |  OKAY  | ---- | ------- | - | ---------- |
                      ::             AHB address transfer phase detected
                      :: sequential  AHB data    transfer phase detected FIRST
                         DATA transfer assertion time :   383356 ns
                         ADDR transfer assertion time :   383351 ns
     line ::   264 :: |              383706 ns|              383711 ns|RD-NONSEQ | 482601B0 | ----- |  1 | -------- |  ----  |SINGLE|    4    | 0 |           0|
                      0 :: first command
     line ::   265 :: |              383711 ns|              384056 ns|RD-DATA   | 482601B0 |  1/ 1 | -- | 00000049 |  OKAY  | ---- | ------- | - | ---------- |
                      ::             AHB address transfer phase detected
                      :: sequential  AHB data    transfer phase detected FIRST
                         DATA transfer assertion time :   383711 ns
                         ADDR transfer assertion time :   383706 ns
     line ::   266 :: |              384156 ns|              384161 ns|RD-NONSEQ | 482601B8 | ----- |  1 | -------- |  ----  |SINGLE|    4    | 0 |           0|
                      0 :: first command
     line ::   267 :: |              384161 ns|              384466 ns|RD-DATA   | 482601B8 |  1/ 1 | -- | 0000004B |  OKAY  | ---- | ------- | - | ---------- |
                      ::             AHB address transfer phase detected
                      :: sequential  AHB data    transfer phase detected FIRST
                         DATA transfer assertion time :   384161 ns
                         ADDR transfer assertion time :   384156 ns
     line ::   268 :: |              384521 ns|              384526 ns|WR-NONSEQ | 482601B8 | ----- |  1 | -------- |  ----  |SINGLE|    4    | 0 |           0|
                      0 :: first command
     line ::   269 :: |              384526 ns|              384856 ns|WR-DATA   | 482601B8 |  1/ 1 | -- | 0000004B |  OKAY  | ---- | ------- | - | ---------- |
                      ::             AHB address transfer phase detected
                      :: sequential  AHB data    transfer phase detected FIRST
                         DATA transfer assertion time :   384526 ns
                         ADDR transfer assertion time :   384521 ns
     line ::   270 :: |              384911 ns|              384916 ns|WR-NONSEQ | 482601B8 | ----- |  1 | -------- |  ----  |SINGLE|    4    | 0 |           0|
                      0 :: first command
     line ::   271 :: |              384916 ns|              385216 ns|WR-DATA   | 482601B8 |  1/ 1 | -- | 0000004B |  OKAY  | ---- | ------- | - | ---------- |
                      ::             AHB address transfer phase detected
                      :: sequential  AHB data    transfer phase detected FIRST
                         DATA transfer assertion time :   384916 ns
                         ADDR transfer assertion time :   384911 ns
     line ::   272 :: |              385266 ns|              385271 ns|RD-NONSEQ | 482601B8 | ----- |  1 | -------- |  ----  |SINGLE|    4    | 0 |           0|
                      0 :: first command
     line ::   273 :: |              385271 ns|              385586 ns|RD-DATA   | 482601B8 |  1/ 1 | -- | 0000004B |  OKAY  | ---- | ------- | - | ---------- |
                      ::             AHB address transfer phase detected
                      :: sequential  AHB data    transfer phase detected FIRST
                         DATA transfer assertion time :   385271 ns
                         ADDR transfer assertion time :   385266 ns
     line ::   274 :: |              385686 ns|              385691 ns|RD-NONSEQ | 482601BC | ----- |  1 | -------- |  ----  |SINGLE|    4    | 0 |           0|
                      0 :: first command
     line ::   275 :: |              385691 ns|              386066 ns|RD-DATA   | 482601BC |  1/ 1 | -- | 00000000 |  OKAY  | ---- | ------- | - | ---------- |
                      ::             AHB address transfer phase detected
                      :: sequential  AHB data    transfer phase detected FIRST
                         DATA transfer assertion time :   385691 ns
                         ADDR transfer assertion time :   385686 ns
     line ::   276 :: |              386121 ns|              386126 ns|WR-NONSEQ | 482601BC | ----- |  1 | -------- |  ----  |SINGLE|    4    | 0 |           0|
                      0 :: first command
     line ::   277 :: |              386126 ns|              386456 ns|WR-DATA   | 482601BC |  1/ 1 | -- | 00000040 |  OKAY  | ---- | ------- | - | ---------- |
                      ::             AHB address transfer phase detected
                      :: sequential  AHB data    transfer phase detected FIRST
                         DATA transfer assertion time :   386126 ns
                         ADDR transfer assertion time :   386121 ns
     line ::   278 :: |              386511 ns|              386516 ns|WR-NONSEQ | 482601BC | ----- |  1 | -------- |  ----  |SINGLE|    4    | 0 |           0|
                      0 :: first command
     line ::   279 :: |              386516 ns|              386856 ns|WR-DATA   | 482601BC |  1/ 1 | -- | 00000041 |  OKAY  | ---- | ------- | - | ---------- |
                      ::             AHB address transfer phase detected
                      :: sequential  AHB data    transfer phase detected FIRST
                         DATA transfer assertion time :   386516 ns
                         ADDR transfer assertion time :   386511 ns
     line ::   280 :: |              386906 ns|              386911 ns|RD-NONSEQ | 482601BC | ----- |  1 | -------- |  ----  |SINGLE|    4    | 0 |           0|
                      0 :: first command
     line ::   281 :: |              386911 ns|              387266 ns|RD-DATA   | 482601BC |  1/ 1 | -- | 00000041 |  OKAY  | ---- | ------- | - | ---------- |
                      ::             AHB address transfer phase detected
                      :: sequential  AHB data    transfer phase detected FIRST
                         DATA transfer assertion time :   386911 ns
                         ADDR transfer assertion time :   386906 ns
     line ::   282 :: |              387366 ns|              387371 ns|RD-NONSEQ | F832117C | ----- |  1 | -------- |  ----  |SINGLE|    4    | 0 |           0|
                      0 :: first command
     line ::   283 :: |              387371 ns|              387621 ns|RD-DATA   | F832117C |  1/ 1 | -- | 00000180 |  OKAY  | ---- | ------- | - | ---------- |
                      ::             AHB address transfer phase detected
                      :: sequential  AHB data    transfer phase detected FIRST
                         DATA transfer assertion time :   387371 ns
                         ADDR transfer assertion time :   387366 ns
     line ::   284 :: |              387676 ns|              387681 ns|WR-NONSEQ | F832117C | ----- |  1 | -------- |  ----  |SINGLE|    4    | 0 |           0|
                      0 :: first command
     line ::   285 :: |              387681 ns|              387901 ns|WR-DATA   | F832117C |  1/ 1 | -- | 00000180 |  OKAY  | ---- | ------- | - | ---------- |
                      ::             AHB address transfer phase detected
                      :: sequential  AHB data    transfer phase detected FIRST
                         DATA transfer assertion time :   387681 ns
                         ADDR transfer assertion time :   387676 ns
     line ::   286 :: |              388351 ns|              388356 ns|RD-NONSEQ | F832117C | ----- |  1 | -------- |  ----  |SINGLE|    4    | 0 |           0|
                      0 :: first command
     line ::   287 :: |              388356 ns|              388591 ns|RD-DATA   | F832117C |  1/ 1 | -- | 00000180 |  OKAY  | ---- | ------- | - | ---------- |
                      ::             AHB address transfer phase detected
                      :: sequential  AHB data    transfer phase detected FIRST
                         DATA transfer assertion time :   388356 ns
                         ADDR transfer assertion time :   388351 ns
     line ::   288 :: |              388646 ns|              388651 ns|WR-NONSEQ | F832117C | ----- |  1 | -------- |  ----  |SINGLE|    4    | 0 |           0|
                      0 :: first command
     line ::   289 :: |              388651 ns|              388901 ns|WR-DATA   | F832117C |  1/ 1 | -- | 00000180 |  OKAY  | ---- | ------- | - | ---------- |
                      ::             AHB address transfer phase detected
                      :: sequential  AHB data    transfer phase detected FIRST
                         DATA transfer assertion time :   388651 ns
                         ADDR transfer assertion time :   388646 ns
     line ::   290 :: |              389151 ns|              389156 ns|RD-NONSEQ | F832117C | ----- |  1 | -------- |  ----  |SINGLE|    4    | 0 |           0|
                      0 :: first command
     line ::   291 :: |              389156 ns|              389431 ns|RD-DATA   | F832117C |  1/ 1 | -- | 00000180 |  OKAY  | ---- | ------- | - | ---------- |
                      ::             AHB address transfer phase detected
                      :: sequential  AHB data    transfer phase detected FIRST
                         DATA transfer assertion time :   389156 ns
                         ADDR transfer assertion time :   389151 ns
     line ::   292 :: |              389486 ns|              389491 ns|WR-NONSEQ | F832117C | ----- |  1 | -------- |  ----  |SINGLE|    4    | 0 |           0|
                      0 :: first command
     line ::   293 :: |              389491 ns|              389751 ns|WR-DATA   | F832117C |  1/ 1 | -- | 00000180 |  OKAY  | ---- | ------- | - | ---------- |
                      ::             AHB address transfer phase detected
                      :: sequential  AHB data    transfer phase detected FIRST
                         DATA transfer assertion time :   389491 ns
                         ADDR transfer assertion time :   389486 ns
     line ::   294 :: |              389801 ns|              389806 ns|RD-NONSEQ | F8321180 | ----- |  1 | -------- |  ----  |SINGLE|    4    | 0 |           0|
                      0 :: first command
     line ::   295 :: |              389806 ns|              390061 ns|RD-DATA   | F8321180 |  1/ 1 | -- | 00000692 |  OKAY  | ---- | ------- | - | ---------- |
                      ::             AHB address transfer phase detected
                      :: sequential  AHB data    transfer phase detected FIRST
                         DATA transfer assertion time :   389806 ns
                         ADDR transfer assertion time :   389801 ns
     line ::   296 :: |              390116 ns|              390121 ns|WR-NONSEQ | F8321180 | ----- |  1 | -------- |  ----  |SINGLE|    4    | 0 |           0|
                      0 :: first command
     line ::   297 :: |              390121 ns|              390381 ns|WR-DATA   | F8321180 |  1/ 1 | -- | 00000692 |  OKAY  | ---- | ------- | - | ---------- |
                      ::             AHB address transfer phase detected
                      :: sequential  AHB data    transfer phase detected FIRST
                         DATA transfer assertion time :   390121 ns
                         ADDR transfer assertion time :   390116 ns
     line ::   298 :: |              390431 ns|              390436 ns|RD-NONSEQ | F8321184 | ----- |  1 | -------- |  ----  |SINGLE|    4    | 0 |           0|
                      0 :: first command
     line ::   299 :: |              390436 ns|              390661 ns|RD-DATA   | F8321184 |  1/ 1 | -- | 1322B573 |  OKAY  | ---- | ------- | - | ---------- |
                      ::             AHB address transfer phase detected
                      :: sequential  AHB data    transfer phase detected FIRST
                         DATA transfer assertion time :   390436 ns
                         ADDR transfer assertion time :   390431 ns
     line ::   300 :: |              390716 ns|              390721 ns|WR-NONSEQ | F8321184 | ----- |  1 | -------- |  ----  |SINGLE|    4    | 0 |           0|
                      0 :: first command
     line ::   301 :: |              390721 ns|              390941 ns|WR-DATA   | F8321184 |  1/ 1 | -- | 1322B573 |  OKAY  | ---- | ------- | - | ---------- |
                      ::             AHB address transfer phase detected
                      :: sequential  AHB data    transfer phase detected FIRST
                         DATA transfer assertion time :   390721 ns
                         ADDR transfer assertion time :   390716 ns
     line ::   302 :: |              390991 ns|              390996 ns|RD-NONSEQ | F832117C | ----- |  1 | -------- |  ----  |SINGLE|    4    | 0 |           0|
                      0 :: first command
     line ::   303 :: |              390996 ns|              391221 ns|RD-DATA   | F832117C |  1/ 1 | -- | 00000180 |  OKAY  | ---- | ------- | - | ---------- |
                      ::             AHB address transfer phase detected
                      :: sequential  AHB data    transfer phase detected FIRST
                         DATA transfer assertion time :   390996 ns
                         ADDR transfer assertion time :   390991 ns
     line ::   304 :: |              391276 ns|              391281 ns|WR-NONSEQ | F832117C | ----- |  1 | -------- |  ----  |SINGLE|    4    | 0 |           0|
                      0 :: first command
     line ::   305 :: |              391281 ns|              391501 ns|WR-DATA   | F832117C |  1/ 1 | -- | 00000380 |  OKAY  | ---- | ------- | - | ---------- |
                      ::             AHB address transfer phase detected
                      :: sequential  AHB data    transfer phase detected FIRST
                         DATA transfer assertion time :   391281 ns
                         ADDR transfer assertion time :   391276 ns
     line ::   306 :: |              401551 ns|              401556 ns|RD-NONSEQ | F832117C | ----- |  1 | -------- |  ----  |SINGLE|    4    | 0 |           0|
                      0 :: first command
     line ::   307 :: |              401556 ns|              401781 ns|RD-DATA   | F832117C |  1/ 1 | -- | 00000380 |  OKAY  | ---- | ------- | - | ---------- |
                      ::             AHB address transfer phase detected
                      :: sequential  AHB data    transfer phase detected FIRST
                         DATA transfer assertion time :   401556 ns
                         ADDR transfer assertion time :   401551 ns
     line ::   308 :: |              401836 ns|              401841 ns|WR-NONSEQ | F832117C | ----- |  1 | -------- |  ----  |SINGLE|    4    | 0 |           0|
                      0 :: first command
     line ::   309 :: |              401841 ns|              402061 ns|WR-DATA   | F832117C |  1/ 1 | -- | 00000382 |  OKAY  | ---- | ------- | - | ---------- |
                      ::             AHB address transfer phase detected
                      :: sequential  AHB data    transfer phase detected FIRST
                         DATA transfer assertion time :   401841 ns
                         ADDR transfer assertion time :   401836 ns
     line ::   310 :: |              452111 ns|              452116 ns|RD-NONSEQ | F832117C | ----- |  1 | -------- |  ----  |SINGLE|    4    | 0 |           0|
                      0 :: first command
     line ::   311 :: |              452116 ns|              452391 ns|RD-DATA   | F832117C |  1/ 1 | -- | 00000382 |  OKAY  | ---- | ------- | - | ---------- |
                      ::             AHB address transfer phase detected
                      :: sequential  AHB data    transfer phase detected FIRST
                         DATA transfer assertion time :   452116 ns
                         ADDR transfer assertion time :   452111 ns
