   Picked  : Instance: uvm_test_top.top_env_i.ahbfab_env_i.mvc_ahb_mon_8_env_i.logger_handle_ahb :: Header
             Instance: uvm_test_top.top_env_i.ahbfab_env_i.mvc_ahb_mon_8_env_i.logger_handle_ahb
   Picked  : AHB Clk Cycle = 40 ns; AHB Clk Frequency = 25.00 MHz; Data bus width = 32 bits
             AHB Clk Cycle = 40 ns; AHB Clk Frequency = 25.00 MHz; Data bus width = 32 bits
   Skipped : ------------------------------------------------------------------------------------------------------------------------------------------
   Skipped : |NONSEQ/SEQ Assert Time |  HREADY Assert Time   |  DIR     |   ADDR   | BEAT  |  L |   DATA   |  RESP  | BURST| BURST   | H |    HSEL    |
   Skipped : |                       |                       |   -      |          |  NUM  |  E |          |        | Type | Size    | P |   (SLAVE   |
   Skipped : |                       |                       | PHASE    |          |       |  N |          |        |      |= 2^HSIZE| R |    INDEX)  |
   Skipped : |                       |                       |          |          |       |    |          |        |      | bytes   | O |            |
   Skipped : |                       |                       |          |          |       |    |          |        |      |         | T |            |
   Skipped : |                       |                       |          |          |       |    |          |        |      |         |   |            |
   Skipped : ------------------------------------------------------------------------------------------------------------------------------------------
   Picked  : |              213940 ns|              213980 ns|RD-NONSEQ | F832116C | ----- |  1 | -------- |  ----  |SINGLE|    4    | 0 |           0|
             |              213940 ns|              213980 ns|RD-NONSEQ | F832116C | ----- |  1 | -------- |  ----  |SINGLE|    4    | 0 |           0|
   Picked  : |              213980 ns|              214780 ns|RD-DATA   | F832116C |  1/ 1 | -- | 00000181 |  OKAY  | ---- | ------- | - | ---------- |
             |              213980 ns|              214780 ns|RD-DATA   | F832116C |  1/ 1 | -- | 00000181 |  OKAY  | ---- | ------- | - | ---------- |
   Picked  : |              215220 ns|              215260 ns|WR-NONSEQ | F832116C | ----- |  1 | -------- |  ----  |SINGLE|    4    | 0 |           0|
             |              215220 ns|              215260 ns|WR-NONSEQ | F832116C | ----- |  1 | -------- |  ----  |SINGLE|    4    | 0 |           0|
   Picked  : |              215260 ns|              215900 ns|WR-DATA   | F832116C |  1/ 1 | -- | 00000181 |  OKAY  | ---- | ------- | - | ---------- |
             |              215260 ns|              215900 ns|WR-DATA   | F832116C |  1/ 1 | -- | 00000181 |  OKAY  | ---- | ------- | - | ---------- |
   Picked  : |              216700 ns|              216740 ns|RD-NONSEQ | F832116C | ----- |  1 | -------- |  ----  |SINGLE|    4    | 0 |           0|
             |              216700 ns|              216740 ns|RD-NONSEQ | F832116C | ----- |  1 | -------- |  ----  |SINGLE|    4    | 0 |           0|
   Picked  : |              216740 ns|              217500 ns|RD-DATA   | F832116C |  1/ 1 | -- | 00000181 |  OKAY  | ---- | ------- | - | ---------- |
             |              216740 ns|              217500 ns|RD-DATA   | F832116C |  1/ 1 | -- | 00000181 |  OKAY  | ---- | ------- | - | ---------- |
   Picked  : |              217940 ns|              217980 ns|WR-NONSEQ | F832116C | ----- |  1 | -------- |  ----  |SINGLE|    4    | 0 |           0|
             |              217940 ns|              217980 ns|WR-NONSEQ | F832116C | ----- |  1 | -------- |  ----  |SINGLE|    4    | 0 |           0|
   Picked  : |              217980 ns|              218620 ns|WR-DATA   | F832116C |  1/ 1 | -- | 00000180 |  OKAY  | ---- | ------- | - | ---------- |
             |              217980 ns|              218620 ns|WR-DATA   | F832116C |  1/ 1 | -- | 00000180 |  OKAY  | ---- | ------- | - | ---------- |
   Picked  : |              219220 ns|              219260 ns|RD-NONSEQ | F832116C | ----- |  1 | -------- |  ----  |SINGLE|    4    | 0 |           0|
             |              219220 ns|              219260 ns|RD-NONSEQ | F832116C | ----- |  1 | -------- |  ----  |SINGLE|    4    | 0 |           0|
   Picked  : |              219260 ns|              219900 ns|RD-DATA   | F832116C |  1/ 1 | -- | 00000180 |  OKAY  | ---- | ------- | - | ---------- |
             |              219260 ns|              219900 ns|RD-DATA   | F832116C |  1/ 1 | -- | 00000180 |  OKAY  | ---- | ------- | - | ---------- |
   Picked  : |              220340 ns|              220380 ns|WR-NONSEQ | F832116C | ----- |  1 | -------- |  ----  |SINGLE|    4    | 0 |           0|
             |              220340 ns|              220380 ns|WR-NONSEQ | F832116C | ----- |  1 | -------- |  ----  |SINGLE|    4    | 0 |           0|
   Picked  : |              220380 ns|              221020 ns|WR-DATA   | F832116C |  1/ 1 | -- | 00000180 |  OKAY  | ---- | ------- | - | ---------- |
             |              220380 ns|              221020 ns|WR-DATA   | F832116C |  1/ 1 | -- | 00000180 |  OKAY  | ---- | ------- | - | ---------- |
   Picked  : |              221420 ns|              221460 ns|RD-NONSEQ | F8321170 | ----- |  1 | -------- |  ----  |SINGLE|    4    | 0 |           0|
             |              221420 ns|              221460 ns|RD-NONSEQ | F8321170 | ----- |  1 | -------- |  ----  |SINGLE|    4    | 0 |           0|
   Picked  : |              221460 ns|              222220 ns|RD-DATA   | F8321170 |  1/ 1 | -- | 00000693 |  OKAY  | ---- | ------- | - | ---------- |
             |              221460 ns|              222220 ns|RD-DATA   | F8321170 |  1/ 1 | -- | 00000693 |  OKAY  | ---- | ------- | - | ---------- |
   Picked  : |              222660 ns|              222700 ns|WR-NONSEQ | F8321170 | ----- |  1 | -------- |  ----  |SINGLE|    4    | 0 |           0|
             |              222660 ns|              222700 ns|WR-NONSEQ | F8321170 | ----- |  1 | -------- |  ----  |SINGLE|    4    | 0 |           0|
   Picked  : |              222700 ns|              223420 ns|WR-DATA   | F8321170 |  1/ 1 | -- | 00000693 |  OKAY  | ---- | ------- | - | ---------- |
             |              222700 ns|              223420 ns|WR-DATA   | F8321170 |  1/ 1 | -- | 00000693 |  OKAY  | ---- | ------- | - | ---------- |
   Picked  : |              223820 ns|              223860 ns|RD-NONSEQ | F8321174 | ----- |  1 | -------- |  ----  |SINGLE|    4    | 0 |           0|
             |              223820 ns|              223860 ns|RD-NONSEQ | F8321174 | ----- |  1 | -------- |  ----  |SINGLE|    4    | 0 |           0|
   Picked  : |              223860 ns|              224620 ns|RD-DATA   | F8321174 |  1/ 1 | -- | 000000FB |  OKAY  | ---- | ------- | - | ---------- |
             |              223860 ns|              224620 ns|RD-DATA   | F8321174 |  1/ 1 | -- | 000000FB |  OKAY  | ---- | ------- | - | ---------- |
   Picked  : |              225060 ns|              225100 ns|WR-NONSEQ | F8321174 | ----- |  1 | -------- |  ----  |SINGLE|    4    | 0 |           0|
             |              225060 ns|              225100 ns|WR-NONSEQ | F8321174 | ----- |  1 | -------- |  ----  |SINGLE|    4    | 0 |           0|
   Picked  : |              225100 ns|              225740 ns|WR-DATA   | F8321174 |  1/ 1 | -- | 000000FB |  OKAY  | ---- | ------- | - | ---------- |
             |              225100 ns|              225740 ns|WR-DATA   | F8321174 |  1/ 1 | -- | 000000FB |  OKAY  | ---- | ------- | - | ---------- |
   Picked  : |              226140 ns|              226180 ns|RD-NONSEQ | F832116C | ----- |  1 | -------- |  ----  |SINGLE|    4    | 0 |           0|
             |              226140 ns|              226180 ns|RD-NONSEQ | F832116C | ----- |  1 | -------- |  ----  |SINGLE|    4    | 0 |           0|
   Picked  : |              226180 ns|              226940 ns|RD-DATA   | F832116C |  1/ 1 | -- | 00000180 |  OKAY  | ---- | ------- | - | ---------- |
             |              226180 ns|              226940 ns|RD-DATA   | F832116C |  1/ 1 | -- | 00000180 |  OKAY  | ---- | ------- | - | ---------- |
   Picked  : |              227380 ns|              227420 ns|WR-NONSEQ | F832116C | ----- |  1 | -------- |  ----  |SINGLE|    4    | 0 |           0|
             |              227380 ns|              227420 ns|WR-NONSEQ | F832116C | ----- |  1 | -------- |  ----  |SINGLE|    4    | 0 |           0|
   Picked  : |              227420 ns|              228060 ns|WR-DATA   | F832116C |  1/ 1 | -- | 00000380 |  OKAY  | ---- | ------- | - | ---------- |
             |              227420 ns|              228060 ns|WR-DATA   | F832116C |  1/ 1 | -- | 00000380 |  OKAY  | ---- | ------- | - | ---------- |
   Picked  : |              238460 ns|              238500 ns|RD-NONSEQ | F832116C | ----- |  1 | -------- |  ----  |SINGLE|    4    | 0 |           0|
             |              238460 ns|              238500 ns|RD-NONSEQ | F832116C | ----- |  1 | -------- |  ----  |SINGLE|    4    | 0 |           0|
   Picked  : |              238500 ns|              239260 ns|RD-DATA   | F832116C |  1/ 1 | -- | 00000380 |  OKAY  | ---- | ------- | - | ---------- |
             |              238500 ns|              239260 ns|RD-DATA   | F832116C |  1/ 1 | -- | 00000380 |  OKAY  | ---- | ------- | - | ---------- |
   Picked  : |              239700 ns|              239740 ns|WR-NONSEQ | F832116C | ----- |  1 | -------- |  ----  |SINGLE|    4    | 0 |           0|
             |              239700 ns|              239740 ns|WR-NONSEQ | F832116C | ----- |  1 | -------- |  ----  |SINGLE|    4    | 0 |           0|
   Picked  : |              239740 ns|              240460 ns|WR-DATA   | F832116C |  1/ 1 | -- | 00000382 |  OKAY  | ---- | ------- | - | ---------- |
             |              239740 ns|              240460 ns|WR-DATA   | F832116C |  1/ 1 | -- | 00000382 |  OKAY  | ---- | ------- | - | ---------- |
   Picked  : |              290860 ns|              290900 ns|RD-NONSEQ | F832116C | ----- |  1 | -------- |  ----  |SINGLE|    4    | 0 |           0|
             |              290860 ns|              290900 ns|RD-NONSEQ | F832116C | ----- |  1 | -------- |  ----  |SINGLE|    4    | 0 |           0|
   Picked  : |              290900 ns|              291660 ns|RD-DATA   | F832116C |  1/ 1 | -- | 00000382 |  OKAY  | ---- | ------- | - | ---------- |
             |              290900 ns|              291660 ns|RD-DATA   | F832116C |  1/ 1 | -- | 00000382 |  OKAY  | ---- | ------- | - | ---------- |
   Picked  : |              292100 ns|              292140 ns|WR-NONSEQ | F832116C | ----- |  1 | -------- |  ----  |SINGLE|    4    | 0 |           0|
             |              292100 ns|              292140 ns|WR-NONSEQ | F832116C | ----- |  1 | -------- |  ----  |SINGLE|    4    | 0 |           0|
   Picked  : |              292140 ns|              292780 ns|WR-DATA   | F832116C |  1/ 1 | -- | 00000282 |  OKAY  | ---- | ------- | - | ---------- |
             |              292140 ns|              292780 ns|WR-DATA   | F832116C |  1/ 1 | -- | 00000282 |  OKAY  | ---- | ------- | - | ---------- |
   Picked  : |              293380 ns|              293420 ns|RD-NONSEQ | F832116C | ----- |  1 | -------- |  ----  |SINGLE|    4    | 0 |           0|
             |              293380 ns|              293420 ns|RD-NONSEQ | F832116C | ----- |  1 | -------- |  ----  |SINGLE|    4    | 0 |           0|
   Picked  : |              293420 ns|              294140 ns|RD-DATA   | F832116C |  1/ 1 | -- | 00000282 |  OKAY  | ---- | ------- | - | ---------- |
             |              293420 ns|              294140 ns|RD-DATA   | F832116C |  1/ 1 | -- | 00000282 |  OKAY  | ---- | ------- | - | ---------- |
   Picked  : |              294580 ns|              294620 ns|WR-NONSEQ | F832116C | ----- |  1 | -------- |  ----  |SINGLE|    4    | 0 |           0|
             |              294580 ns|              294620 ns|WR-NONSEQ | F832116C | ----- |  1 | -------- |  ----  |SINGLE|    4    | 0 |           0|
   Picked  : |              294620 ns|              295260 ns|WR-DATA   | F832116C |  1/ 1 | -- | 00000283 |  OKAY  | ---- | ------- | - | ---------- |
             |              294620 ns|              295260 ns|WR-DATA   | F832116C |  1/ 1 | -- | 00000283 |  OKAY  | ---- | ------- | - | ---------- |
   Picked  : |              295860 ns|              295900 ns|RD-NONSEQ | F832116C | ----- |  1 | -------- |  ----  |SINGLE|    4    | 0 |           0|
             |              295860 ns|              295900 ns|RD-NONSEQ | F832116C | ----- |  1 | -------- |  ----  |SINGLE|    4    | 0 |           0|
   Picked  : |              295900 ns|              296620 ns|RD-DATA   | F832116C |  1/ 1 | -- | 00000283 |  OKAY  | ---- | ------- | - | ---------- |
             |              295900 ns|              296620 ns|RD-DATA   | F832116C |  1/ 1 | -- | 00000283 |  OKAY  | ---- | ------- | - | ---------- |
   Picked  : |              297060 ns|              297100 ns|WR-NONSEQ | F832116C | ----- |  1 | -------- |  ----  |SINGLE|    4    | 0 |           0|
             |              297060 ns|              297100 ns|WR-NONSEQ | F832116C | ----- |  1 | -------- |  ----  |SINGLE|    4    | 0 |           0|
   Picked  : |              297100 ns|              297461 ns|WR-DATA   | F832116C |  1/ 1 | -- | 00000203 |  OKAY  | ---- | ------- | - | ---------- |
             |              297100 ns|              297461 ns|WR-DATA   | F832116C |  1/ 1 | -- | 00000203 |  OKAY  | ---- | ------- | - | ---------- |
   Picked  : |              297911 ns|              297916 ns|RD-NONSEQ | F832200C | ----- |  1 | -------- |  ----  |SINGLE|    4    | 0 |           0|
             |              297911 ns|              297916 ns|RD-NONSEQ | F832200C | ----- |  1 | -------- |  ----  |SINGLE|    4    | 0 |           0|
   Picked  : |              297916 ns|              298141 ns|RD-DATA   | F832200C |  1/ 1 | -- | 00190002 |  OKAY  | ---- | ------- | - | ---------- |
             |              297916 ns|              298141 ns|RD-DATA   | F832200C |  1/ 1 | -- | 00190002 |  OKAY  | ---- | ------- | - | ---------- |
   Picked  : |              298191 ns|              298196 ns|RD-NONSEQ | F8322010 | ----- |  1 | -------- |  ----  |SINGLE|    4    | 0 |           0|
             |              298191 ns|              298196 ns|RD-NONSEQ | F8322010 | ----- |  1 | -------- |  ----  |SINGLE|    4    | 0 |           0|
   Picked  : |              298196 ns|              298461 ns|RD-DATA   | F8322010 |  1/ 1 | -- | 00000001 |  OKAY  | ---- | ------- | - | ---------- |
             |              298196 ns|              298461 ns|RD-DATA   | F8322010 |  1/ 1 | -- | 00000001 |  OKAY  | ---- | ------- | - | ---------- |
   Picked  : |              298516 ns|              298521 ns|WR-NONSEQ | F8322010 | ----- |  1 | -------- |  ----  |SINGLE|    4    | 0 |           0|
             |              298516 ns|              298521 ns|WR-NONSEQ | F8322010 | ----- |  1 | -------- |  ----  |SINGLE|    4    | 0 |           0|
   Picked  : |              298521 ns|              298741 ns|WR-DATA   | F8322010 |  1/ 1 | -- | 00000000 |  OKAY  | ---- | ------- | - | ---------- |
             |              298521 ns|              298741 ns|WR-DATA   | F8322010 |  1/ 1 | -- | 00000000 |  OKAY  | ---- | ------- | - | ---------- |
   Picked  : |              298796 ns|              298801 ns|WR-NONSEQ | F8312060 | ----- |  1 | -------- |  ----  |SINGLE|    4    | 0 |           0|
             |              298796 ns|              298801 ns|WR-NONSEQ | F8312060 | ----- |  1 | -------- |  ----  |SINGLE|    4    | 0 |           0|
   Picked  : |              298801 ns|              299031 ns|WR-DATA   | F8312060 |  1/ 1 | -- | 00000000 |  OKAY  | ---- | ------- | - | ---------- |
             |              298801 ns|              299031 ns|WR-DATA   | F8312060 |  1/ 1 | -- | 00000000 |  OKAY  | ---- | ------- | - | ---------- |
   Picked  : |              299086 ns|              299091 ns|WR-NONSEQ | 48250020 | ----- |  1 | -------- |  ----  |SINGLE|    4    | 0 |           0|
             |              299086 ns|              299091 ns|WR-NONSEQ | 48250020 | ----- |  1 | -------- |  ----  |SINGLE|    4    | 0 |           0|
   Picked  : |              299091 ns|              300111 ns|WR-DATA   | 48250020 |  1/ 1 | -- | 00000001 |  OKAY  | ---- | ------- | - | ---------- |
             |              299091 ns|              300111 ns|WR-DATA   | 48250020 |  1/ 1 | -- | 00000001 |  OKAY  | ---- | ------- | - | ---------- |
   Picked  : |              300161 ns|              300166 ns|RD-NONSEQ | 4826017C | ----- |  1 | -------- |  ----  |SINGLE|    4    | 0 |           0|
             |              300161 ns|              300166 ns|RD-NONSEQ | 4826017C | ----- |  1 | -------- |  ----  |SINGLE|    4    | 0 |           0|
   Picked  : |              300166 ns|              301031 ns|RD-DATA   | 4826017C |  1/ 1 | -- | 20801E01 |  OKAY  | ---- | ------- | - | ---------- |
             |              300166 ns|              301031 ns|RD-DATA   | 4826017C |  1/ 1 | -- | 20801E01 |  OKAY  | ---- | ------- | - | ---------- |
   Picked  : |              301086 ns|              301091 ns|WR-NONSEQ | 4826017C | ----- |  1 | -------- |  ----  |SINGLE|    4    | 0 |           0|
             |              301086 ns|              301091 ns|WR-NONSEQ | 4826017C | ----- |  1 | -------- |  ----  |SINGLE|    4    | 0 |           0|
   Picked  : |              301091 ns|              301991 ns|WR-DATA   | 4826017C |  1/ 1 | -- | 20801E41 |  OKAY  | ---- | ------- | - | ---------- |
             |              301091 ns|              301991 ns|WR-DATA   | 4826017C |  1/ 1 | -- | 20801E41 |  OKAY  | ---- | ------- | - | ---------- |
   Picked  : |              302441 ns|              302446 ns|RD-NONSEQ | 4826017C | ----- |  1 | -------- |  ----  |SINGLE|    4    | 0 |           0|
             |              302441 ns|              302446 ns|RD-NONSEQ | 4826017C | ----- |  1 | -------- |  ----  |SINGLE|    4    | 0 |           0|
   Picked  : |              302446 ns|              303351 ns|RD-DATA   | 4826017C |  1/ 1 | -- | 20801E41 |  OKAY  | ---- | ------- | - | ---------- |
             |              302446 ns|              303351 ns|RD-DATA   | 4826017C |  1/ 1 | -- | 20801E41 |  OKAY  | ---- | ------- | - | ---------- |
   Picked  : |              303406 ns|              303411 ns|WR-NONSEQ | 4826017C | ----- |  1 | -------- |  ----  |SINGLE|    4    | 0 |           0|
             |              303406 ns|              303411 ns|WR-NONSEQ | 4826017C | ----- |  1 | -------- |  ----  |SINGLE|    4    | 0 |           0|
   Picked  : |              303411 ns|              304311 ns|WR-DATA   | 4826017C |  1/ 1 | -- | 20801E40 |  OKAY  | ---- | ------- | - | ---------- |
             |              303411 ns|              304311 ns|WR-DATA   | 4826017C |  1/ 1 | -- | 20801E40 |  OKAY  | ---- | ------- | - | ---------- |
   Picked  : |              304561 ns|              304566 ns|RD-NONSEQ | 4826017C | ----- |  1 | -------- |  ----  |SINGLE|    4    | 0 |           0|
             |              304561 ns|              304566 ns|RD-NONSEQ | 4826017C | ----- |  1 | -------- |  ----  |SINGLE|    4    | 0 |           0|
   Picked  : |              304566 ns|              305471 ns|RD-DATA   | 4826017C |  1/ 1 | -- | 20801E40 |  OKAY  | ---- | ------- | - | ---------- |
             |              304566 ns|              305471 ns|RD-DATA   | 4826017C |  1/ 1 | -- | 20801E40 |  OKAY  | ---- | ------- | - | ---------- |
   Picked  : |              305526 ns|              305531 ns|WR-NONSEQ | 4826017C | ----- |  1 | -------- |  ----  |SINGLE|    4    | 0 |           0|
             |              305526 ns|              305531 ns|WR-NONSEQ | 4826017C | ----- |  1 | -------- |  ----  |SINGLE|    4    | 0 |           0|
   Picked  : |              305531 ns|              306471 ns|WR-DATA   | 4826017C |  1/ 1 | -- | 20801E40 |  OKAY  | ---- | ------- | - | ---------- |
             |              305531 ns|              306471 ns|WR-DATA   | 4826017C |  1/ 1 | -- | 20801E40 |  OKAY  | ---- | ------- | - | ---------- |
   Picked  : |              307026 ns|              307031 ns|WR-NONSEQ | 4826017C | ----- |  1 | -------- |  ----  |SINGLE|    4    | 0 |           0|
             |              307026 ns|              307031 ns|WR-NONSEQ | 4826017C | ----- |  1 | -------- |  ----  |SINGLE|    4    | 0 |           0|
   Picked  : |              307031 ns|              307951 ns|WR-DATA   | 4826017C |  1/ 1 | -- | 20801E40 |  OKAY  | ---- | ------- | - | ---------- |
             |              307031 ns|              307951 ns|WR-DATA   | 4826017C |  1/ 1 | -- | 20801E40 |  OKAY  | ---- | ------- | - | ---------- |
   Picked  : |              308006 ns|              308011 ns|WR-NONSEQ | 4826017C | ----- |  1 | -------- |  ----  |SINGLE|    4    | 0 |           0|
             |              308006 ns|              308011 ns|WR-NONSEQ | 4826017C | ----- |  1 | -------- |  ----  |SINGLE|    4    | 0 |           0|
   Picked  : |              308011 ns|              308911 ns|WR-DATA   | 4826017C |  1/ 1 | -- | 84002E40 |  OKAY  | ---- | ------- | - | ---------- |
             |              308011 ns|              308911 ns|WR-DATA   | 4826017C |  1/ 1 | -- | 84002E40 |  OKAY  | ---- | ------- | - | ---------- |
   Picked  : |              308966 ns|              308971 ns|WR-NONSEQ | 4826017C | ----- |  1 | -------- |  ----  |SINGLE|    4    | 0 |           0|
             |              308966 ns|              308971 ns|WR-NONSEQ | 4826017C | ----- |  1 | -------- |  ----  |SINGLE|    4    | 0 |           0|
   Picked  : |              308971 ns|              309871 ns|WR-DATA   | 4826017C |  1/ 1 | -- | 84002240 |  OKAY  | ---- | ------- | - | ---------- |
             |              308971 ns|              309871 ns|WR-DATA   | 4826017C |  1/ 1 | -- | 84002240 |  OKAY  | ---- | ------- | - | ---------- |
   Picked  : |              319926 ns|              319931 ns|WR-NONSEQ | 4826017C | ----- |  1 | -------- |  ----  |SINGLE|    4    | 0 |           0|
             |              319926 ns|              319931 ns|WR-NONSEQ | 4826017C | ----- |  1 | -------- |  ----  |SINGLE|    4    | 0 |           0|
   Picked  : |              319931 ns|              320871 ns|WR-DATA   | 4826017C |  1/ 1 | -- | 84002040 |  OKAY  | ---- | ------- | - | ---------- |
             |              319931 ns|              320871 ns|WR-DATA   | 4826017C |  1/ 1 | -- | 84002040 |  OKAY  | ---- | ------- | - | ---------- |
   Picked  : |              321421 ns|              321426 ns|RD-NONSEQ | 48260190 | ----- |  1 | -------- |  ----  |SINGLE|    4    | 0 |           0|
             |              321421 ns|              321426 ns|RD-NONSEQ | 48260190 | ----- |  1 | -------- |  ----  |SINGLE|    4    | 0 |           0|
   Picked  : |              321426 ns|              322311 ns|RD-DATA   | 48260190 |  1/ 1 | -- | 00000000 |  OKAY  | ---- | ------- | - | ---------- |
             |              321426 ns|              322311 ns|RD-DATA   | 48260190 |  1/ 1 | -- | 00000000 |  OKAY  | ---- | ------- | - | ---------- |
   Picked  : |              322861 ns|              322866 ns|RD-NONSEQ | 48260190 | ----- |  1 | -------- |  ----  |SINGLE|    4    | 0 |           0|
             |              322861 ns|              322866 ns|RD-NONSEQ | 48260190 | ----- |  1 | -------- |  ----  |SINGLE|    4    | 0 |           0|
   Picked  : |              322866 ns|              323791 ns|RD-DATA   | 48260190 |  1/ 1 | -- | 00000000 |  OKAY  | ---- | ------- | - | ---------- |
             |              322866 ns|              323791 ns|RD-DATA   | 48260190 |  1/ 1 | -- | 00000000 |  OKAY  | ---- | ------- | - | ---------- |
   Picked  : |              324341 ns|              324346 ns|RD-NONSEQ | 48260190 | ----- |  1 | -------- |  ----  |SINGLE|    4    | 0 |           0|
             |              324341 ns|              324346 ns|RD-NONSEQ | 48260190 | ----- |  1 | -------- |  ----  |SINGLE|    4    | 0 |           0|
   Picked  : |              324346 ns|              325311 ns|RD-DATA   | 48260190 |  1/ 1 | -- | 00000000 |  OKAY  | ---- | ------- | - | ---------- |
             |              324346 ns|              325311 ns|RD-DATA   | 48260190 |  1/ 1 | -- | 00000000 |  OKAY  | ---- | ------- | - | ---------- |
   Picked  : |              325861 ns|              325866 ns|RD-NONSEQ | 48260190 | ----- |  1 | -------- |  ----  |SINGLE|    4    | 0 |           0|
             |              325861 ns|              325866 ns|RD-NONSEQ | 48260190 | ----- |  1 | -------- |  ----  |SINGLE|    4    | 0 |           0|
   Picked  : |              325866 ns|              326751 ns|RD-DATA   | 48260190 |  1/ 1 | -- | 00000000 |  OKAY  | ---- | ------- | - | ---------- |
             |              325866 ns|              326751 ns|RD-DATA   | 48260190 |  1/ 1 | -- | 00000000 |  OKAY  | ---- | ------- | - | ---------- |
   Picked  : |              327301 ns|              327306 ns|RD-NONSEQ | 48260190 | ----- |  1 | -------- |  ----  |SINGLE|    4    | 0 |           0|
             |              327301 ns|              327306 ns|RD-NONSEQ | 48260190 | ----- |  1 | -------- |  ----  |SINGLE|    4    | 0 |           0|
   Picked  : |              327306 ns|              328191 ns|RD-DATA   | 48260190 |  1/ 1 | -- | 00000000 |  OKAY  | ---- | ------- | - | ---------- |
             |              327306 ns|              328191 ns|RD-DATA   | 48260190 |  1/ 1 | -- | 00000000 |  OKAY  | ---- | ------- | - | ---------- |
   Picked  : |              328741 ns|              328746 ns|RD-NONSEQ | 48260190 | ----- |  1 | -------- |  ----  |SINGLE|    4    | 0 |           0|
             |              328741 ns|              328746 ns|RD-NONSEQ | 48260190 | ----- |  1 | -------- |  ----  |SINGLE|    4    | 0 |           0|
   Picked  : |              328746 ns|              329631 ns|RD-DATA   | 48260190 |  1/ 1 | -- | 00000000 |  OKAY  | ---- | ------- | - | ---------- |
             |              328746 ns|              329631 ns|RD-DATA   | 48260190 |  1/ 1 | -- | 00000000 |  OKAY  | ---- | ------- | - | ---------- |
   Picked  : |              330181 ns|              330186 ns|RD-NONSEQ | 48260190 | ----- |  1 | -------- |  ----  |SINGLE|    4    | 0 |           0|
             |              330181 ns|              330186 ns|RD-NONSEQ | 48260190 | ----- |  1 | -------- |  ----  |SINGLE|    4    | 0 |           0|
   Picked  : |              330186 ns|              331071 ns|RD-DATA   | 48260190 |  1/ 1 | -- | 00000000 |  OKAY  | ---- | ------- | - | ---------- |
             |              330186 ns|              331071 ns|RD-DATA   | 48260190 |  1/ 1 | -- | 00000000 |  OKAY  | ---- | ------- | - | ---------- |
   Picked  : |              331621 ns|              331626 ns|RD-NONSEQ | 48260190 | ----- |  1 | -------- |  ----  |SINGLE|    4    | 0 |           0|
             |              331621 ns|              331626 ns|RD-NONSEQ | 48260190 | ----- |  1 | -------- |  ----  |SINGLE|    4    | 0 |           0|
   Picked  : |              331626 ns|              332551 ns|RD-DATA   | 48260190 |  1/ 1 | -- | 00000000 |  OKAY  | ---- | ------- | - | ---------- |
             |              331626 ns|              332551 ns|RD-DATA   | 48260190 |  1/ 1 | -- | 00000000 |  OKAY  | ---- | ------- | - | ---------- |
   Picked  : |              333101 ns|              333106 ns|RD-NONSEQ | 48260190 | ----- |  1 | -------- |  ----  |SINGLE|    4    | 0 |           0|
             |              333101 ns|              333106 ns|RD-NONSEQ | 48260190 | ----- |  1 | -------- |  ----  |SINGLE|    4    | 0 |           0|
   Picked  : |              333106 ns|              334031 ns|RD-DATA   | 48260190 |  1/ 1 | -- | 00000000 |  OKAY  | ---- | ------- | - | ---------- |
             |              333106 ns|              334031 ns|RD-DATA   | 48260190 |  1/ 1 | -- | 00000000 |  OKAY  | ---- | ------- | - | ---------- |
   Picked  : |              334581 ns|              334586 ns|RD-NONSEQ | 48260190 | ----- |  1 | -------- |  ----  |SINGLE|    4    | 0 |           0|
             |              334581 ns|              334586 ns|RD-NONSEQ | 48260190 | ----- |  1 | -------- |  ----  |SINGLE|    4    | 0 |           0|
   Picked  : |              334586 ns|              335471 ns|RD-DATA   | 48260190 |  1/ 1 | -- | 00000001 |  OKAY  | ---- | ------- | - | ---------- |
             |              334586 ns|              335471 ns|RD-DATA   | 48260190 |  1/ 1 | -- | 00000001 |  OKAY  | ---- | ------- | - | ---------- |
   Picked  : |              335521 ns|              335526 ns|RD-NONSEQ | 4826018C | ----- |  1 | -------- |  ----  |SINGLE|    4    | 0 |           0|
             |              335521 ns|              335526 ns|RD-NONSEQ | 4826018C | ----- |  1 | -------- |  ----  |SINGLE|    4    | 0 |           0|
   Picked  : |              335526 ns|              336391 ns|RD-DATA   | 4826018C |  1/ 1 | -- | 0000623F |  OKAY  | ---- | ------- | - | ---------- |
             |              335526 ns|              336391 ns|RD-DATA   | 4826018C |  1/ 1 | -- | 0000623F |  OKAY  | ---- | ------- | - | ---------- |
   Picked  : |              336446 ns|              336451 ns|WR-NONSEQ | 4826018C | ----- |  1 | -------- |  ----  |SINGLE|    4    | 0 |           0|
             |              336446 ns|              336451 ns|WR-NONSEQ | 4826018C | ----- |  1 | -------- |  ----  |SINGLE|    4    | 0 |           0|
   Picked  : |              336451 ns|              337351 ns|WR-DATA   | 4826018C |  1/ 1 | -- | 0000623E |  OKAY  | ---- | ------- | - | ---------- |
             |              336451 ns|              337351 ns|WR-DATA   | 4826018C |  1/ 1 | -- | 0000623E |  OKAY  | ---- | ------- | - | ---------- |
   Picked  : |              337401 ns|              337406 ns|RD-NONSEQ | 4826017C | ----- |  1 | -------- |  ----  |SINGLE|    4    | 0 |           0|
             |              337401 ns|              337406 ns|RD-NONSEQ | 4826017C | ----- |  1 | -------- |  ----  |SINGLE|    4    | 0 |           0|
   Picked  : |              337406 ns|              338271 ns|RD-DATA   | 4826017C |  1/ 1 | -- | 84002040 |  OKAY  | ---- | ------- | - | ---------- |
             |              337406 ns|              338271 ns|RD-DATA   | 4826017C |  1/ 1 | -- | 84002040 |  OKAY  | ---- | ------- | - | ---------- |
   Picked  : |              338326 ns|              338331 ns|WR-NONSEQ | 4826017C | ----- |  1 | -------- |  ----  |SINGLE|    4    | 0 |           0|
             |              338326 ns|              338331 ns|WR-NONSEQ | 4826017C | ----- |  1 | -------- |  ----  |SINGLE|    4    | 0 |           0|
   Picked  : |              338331 ns|              339231 ns|WR-DATA   | 4826017C |  1/ 1 | -- | 84002041 |  OKAY  | ---- | ------- | - | ---------- |
             |              338331 ns|              339231 ns|WR-DATA   | 4826017C |  1/ 1 | -- | 84002041 |  OKAY  | ---- | ------- | - | ---------- |
   Picked  : |              339486 ns|              339491 ns|WR-NONSEQ | 4826017C | ----- |  1 | -------- |  ----  |SINGLE|    4    | 0 |           0|
             |              339486 ns|              339491 ns|WR-NONSEQ | 4826017C | ----- |  1 | -------- |  ----  |SINGLE|    4    | 0 |           0|
   Picked  : |              339491 ns|              340391 ns|WR-DATA   | 4826017C |  1/ 1 | -- | 84002001 |  OKAY  | ---- | ------- | - | ---------- |
             |              339491 ns|              340391 ns|WR-DATA   | 4826017C |  1/ 1 | -- | 84002001 |  OKAY  | ---- | ------- | - | ---------- |
   Picked  : |              340841 ns|              340846 ns|RD-NONSEQ | 482601B4 | ----- |  1 | -------- |  ----  |SINGLE|    4    | 0 |           0|
             |              340841 ns|              340846 ns|RD-NONSEQ | 482601B4 | ----- |  1 | -------- |  ----  |SINGLE|    4    | 0 |           0|
   Picked  : |              340846 ns|              341751 ns|RD-DATA   | 482601B4 |  1/ 1 | -- | 000001CB |  OKAY  | ---- | ------- | - | ---------- |
             |              340846 ns|              341751 ns|RD-DATA   | 482601B4 |  1/ 1 | -- | 000001CB |  OKAY  | ---- | ------- | - | ---------- |
   Picked  : |              341806 ns|              341811 ns|WR-NONSEQ | 482601B4 | ----- |  1 | -------- |  ----  |SINGLE|    4    | 0 |           0|
             |              341806 ns|              341811 ns|WR-NONSEQ | 482601B4 | ----- |  1 | -------- |  ----  |SINGLE|    4    | 0 |           0|
   Picked  : |              341811 ns|              342601 ns|WR-DATA   | 482601B4 |  1/ 1 | -- | 0000014B |  OKAY  | ---- | ------- | - | ---------- |
             |              341811 ns|              342601 ns|WR-DATA   | 482601B4 |  1/ 1 | -- | 0000014B |  OKAY  | ---- | ------- | - | ---------- |
   Picked  : |              342651 ns|              342656 ns|RD-NONSEQ | 482601C0 | ----- |  1 | -------- |  ----  |SINGLE|    4    | 0 |           0|
             |              342651 ns|              342656 ns|RD-NONSEQ | 482601C0 | ----- |  1 | -------- |  ----  |SINGLE|    4    | 0 |           0|
   Picked  : |              342656 ns|              343361 ns|RD-DATA   | 482601C0 |  1/ 1 | -- | 000007CB |  OKAY  | ---- | ------- | - | ---------- |
             |              342656 ns|              343361 ns|RD-DATA   | 482601C0 |  1/ 1 | -- | 000007CB |  OKAY  | ---- | ------- | - | ---------- |
   Picked  : |              343416 ns|              343421 ns|WR-NONSEQ | 482601C0 | ----- |  1 | -------- |  ----  |SINGLE|    4    | 0 |           0|
             |              343416 ns|              343421 ns|WR-NONSEQ | 482601C0 | ----- |  1 | -------- |  ----  |SINGLE|    4    | 0 |           0|
   Picked  : |              343421 ns|              343936 ns|WR-DATA   | 482601C0 |  1/ 1 | -- | 0000074B |  OKAY  | ---- | ------- | - | ---------- |
             |              343421 ns|              343936 ns|WR-DATA   | 482601C0 |  1/ 1 | -- | 0000074B |  OKAY  | ---- | ------- | - | ---------- |
   Picked  : |              343986 ns|              343991 ns|RD-NONSEQ | 48260194 | ----- |  1 | -------- |  ----  |SINGLE|    4    | 0 |           0|
             |              343986 ns|              343991 ns|RD-NONSEQ | 48260194 | ----- |  1 | -------- |  ----  |SINGLE|    4    | 0 |           0|
   Picked  : |              343991 ns|              344296 ns|RD-DATA   | 48260194 |  1/ 1 | -- | 43002E00 |  OKAY  | ---- | ------- | - | ---------- |
             |              343991 ns|              344296 ns|RD-DATA   | 48260194 |  1/ 1 | -- | 43002E00 |  OKAY  | ---- | ------- | - | ---------- |
   Picked  : |              344346 ns|              344351 ns|RD-NONSEQ | 48260164 | ----- |  1 | -------- |  ----  |SINGLE|    4    | 0 |           0|
             |              344346 ns|              344351 ns|RD-NONSEQ | 48260164 | ----- |  1 | -------- |  ----  |SINGLE|    4    | 0 |           0|
   Picked  : |              344351 ns|              344656 ns|RD-DATA   | 48260164 |  1/ 1 | -- | 20B01E01 |  OKAY  | ---- | ------- | - | ---------- |
             |              344351 ns|              344656 ns|RD-DATA   | 48260164 |  1/ 1 | -- | 20B01E01 |  OKAY  | ---- | ------- | - | ---------- |
   Picked  : |              344711 ns|              344716 ns|WR-NONSEQ | 48260194 | ----- |  1 | -------- |  ----  |SINGLE|    4    | 0 |           0|
             |              344711 ns|              344716 ns|WR-NONSEQ | 48260194 | ----- |  1 | -------- |  ----  |SINGLE|    4    | 0 |           0|
   Picked  : |              344716 ns|              345056 ns|WR-DATA   | 48260194 |  1/ 1 | -- | 43002E40 |  OKAY  | ---- | ------- | - | ---------- |
             |              344716 ns|              345056 ns|WR-DATA   | 48260194 |  1/ 1 | -- | 43002E40 |  OKAY  | ---- | ------- | - | ---------- |
   Picked  : |              345111 ns|              345116 ns|WR-NONSEQ | 48260164 | ----- |  1 | -------- |  ----  |SINGLE|    4    | 0 |           0|
             |              345111 ns|              345116 ns|WR-NONSEQ | 48260164 | ----- |  1 | -------- |  ----  |SINGLE|    4    | 0 |           0|
   Picked  : |              345116 ns|              345416 ns|WR-DATA   | 48260164 |  1/ 1 | -- | 20B01E41 |  OKAY  | ---- | ------- | - | ---------- |
             |              345116 ns|              345416 ns|WR-DATA   | 48260164 |  1/ 1 | -- | 20B01E41 |  OKAY  | ---- | ------- | - | ---------- |
   Picked  : |              345506 ns|              345511 ns|RD-NONSEQ | 48260194 | ----- |  1 | -------- |  ----  |SINGLE|    4    | 0 |           0|
             |              345506 ns|              345511 ns|RD-NONSEQ | 48260194 | ----- |  1 | -------- |  ----  |SINGLE|    4    | 0 |           0|
   Picked  : |              345511 ns|              345816 ns|RD-DATA   | 48260194 |  1/ 1 | -- | 43002E40 |  OKAY  | ---- | ------- | - | ---------- |
             |              345511 ns|              345816 ns|RD-DATA   | 48260194 |  1/ 1 | -- | 43002E40 |  OKAY  | ---- | ------- | - | ---------- |
   Picked  : |              345866 ns|              345871 ns|RD-NONSEQ | 48260164 | ----- |  1 | -------- |  ----  |SINGLE|    4    | 0 |           0|
             |              345866 ns|              345871 ns|RD-NONSEQ | 48260164 | ----- |  1 | -------- |  ----  |SINGLE|    4    | 0 |           0|
   Picked  : |              345871 ns|              346176 ns|RD-DATA   | 48260164 |  1/ 1 | -- | 20B01E41 |  OKAY  | ---- | ------- | - | ---------- |
             |              345871 ns|              346176 ns|RD-DATA   | 48260164 |  1/ 1 | -- | 20B01E41 |  OKAY  | ---- | ------- | - | ---------- |
   Picked  : |              346231 ns|              346236 ns|WR-NONSEQ | 48260194 | ----- |  1 | -------- |  ----  |SINGLE|    4    | 0 |           0|
             |              346231 ns|              346236 ns|WR-NONSEQ | 48260194 | ----- |  1 | -------- |  ----  |SINGLE|    4    | 0 |           0|
   Picked  : |              346236 ns|              346536 ns|WR-DATA   | 48260194 |  1/ 1 | -- | 43002E40 |  OKAY  | ---- | ------- | - | ---------- |
             |              346236 ns|              346536 ns|WR-DATA   | 48260194 |  1/ 1 | -- | 43002E40 |  OKAY  | ---- | ------- | - | ---------- |
   Picked  : |              346591 ns|              346596 ns|WR-NONSEQ | 48260164 | ----- |  1 | -------- |  ----  |SINGLE|    4    | 0 |           0|
             |              346591 ns|              346596 ns|WR-NONSEQ | 48260164 | ----- |  1 | -------- |  ----  |SINGLE|    4    | 0 |           0|
   Picked  : |              346596 ns|              346896 ns|WR-DATA   | 48260164 |  1/ 1 | -- | 20B01E40 |  OKAY  | ---- | ------- | - | ---------- |
             |              346596 ns|              346896 ns|WR-DATA   | 48260164 |  1/ 1 | -- | 20B01E40 |  OKAY  | ---- | ------- | - | ---------- |
   Picked  : |              346946 ns|              346951 ns|RD-NONSEQ | 48260194 | ----- |  1 | -------- |  ----  |SINGLE|    4    | 0 |           0|
             |              346946 ns|              346951 ns|RD-NONSEQ | 48260194 | ----- |  1 | -------- |  ----  |SINGLE|    4    | 0 |           0|
   Picked  : |              346951 ns|              347256 ns|RD-DATA   | 48260194 |  1/ 1 | -- | 43002E40 |  OKAY  | ---- | ------- | - | ---------- |
             |              346951 ns|              347256 ns|RD-DATA   | 48260194 |  1/ 1 | -- | 43002E40 |  OKAY  | ---- | ------- | - | ---------- |
   Picked  : |              347306 ns|              347311 ns|RD-NONSEQ | 48260164 | ----- |  1 | -------- |  ----  |SINGLE|    4    | 0 |           0|
             |              347306 ns|              347311 ns|RD-NONSEQ | 48260164 | ----- |  1 | -------- |  ----  |SINGLE|    4    | 0 |           0|
   Picked  : |              347311 ns|              347616 ns|RD-DATA   | 48260164 |  1/ 1 | -- | 20B01E40 |  OKAY  | ---- | ------- | - | ---------- |
             |              347311 ns|              347616 ns|RD-DATA   | 48260164 |  1/ 1 | -- | 20B01E40 |  OKAY  | ---- | ------- | - | ---------- |
   Picked  : |              347671 ns|              347676 ns|WR-NONSEQ | 48260194 | ----- |  1 | -------- |  ----  |SINGLE|    4    | 0 |           0|
             |              347671 ns|              347676 ns|WR-NONSEQ | 48260194 | ----- |  1 | -------- |  ----  |SINGLE|    4    | 0 |           0|
   Picked  : |              347676 ns|              347976 ns|WR-DATA   | 48260194 |  1/ 1 | -- | 43002E40 |  OKAY  | ---- | ------- | - | ---------- |
             |              347676 ns|              347976 ns|WR-DATA   | 48260194 |  1/ 1 | -- | 43002E40 |  OKAY  | ---- | ------- | - | ---------- |
   Picked  : |              348031 ns|              348036 ns|WR-NONSEQ | 48260164 | ----- |  1 | -------- |  ----  |SINGLE|    4    | 0 |           0|
             |              348031 ns|              348036 ns|WR-NONSEQ | 48260164 | ----- |  1 | -------- |  ----  |SINGLE|    4    | 0 |           0|
   Picked  : |              348036 ns|              348336 ns|WR-DATA   | 48260164 |  1/ 1 | -- | 20B01E40 |  OKAY  | ---- | ------- | - | ---------- |
             |              348036 ns|              348336 ns|WR-DATA   | 48260164 |  1/ 1 | -- | 20B01E40 |  OKAY  | ---- | ------- | - | ---------- |
   Picked  : |              348531 ns|              348536 ns|WR-NONSEQ | 48260194 | ----- |  1 | -------- |  ----  |SINGLE|    4    | 0 |           0|
             |              348531 ns|              348536 ns|WR-NONSEQ | 48260194 | ----- |  1 | -------- |  ----  |SINGLE|    4    | 0 |           0|
   Picked  : |              348536 ns|              348866 ns|WR-DATA   | 48260194 |  1/ 1 | -- | 43002E40 |  OKAY  | ---- | ------- | - | ---------- |
             |              348536 ns|              348866 ns|WR-DATA   | 48260194 |  1/ 1 | -- | 43002E40 |  OKAY  | ---- | ------- | - | ---------- |
   Picked  : |              348921 ns|              348926 ns|WR-NONSEQ | 48260164 | ----- |  1 | -------- |  ----  |SINGLE|    4    | 0 |           0|
             |              348921 ns|              348926 ns|WR-NONSEQ | 48260164 | ----- |  1 | -------- |  ----  |SINGLE|    4    | 0 |           0|
   Picked  : |              348926 ns|              349256 ns|WR-DATA   | 48260164 |  1/ 1 | -- | 20B01E40 |  OKAY  | ---- | ------- | - | ---------- |
             |              348926 ns|              349256 ns|WR-DATA   | 48260164 |  1/ 1 | -- | 20B01E40 |  OKAY  | ---- | ------- | - | ---------- |
   Picked  : |              349311 ns|              349316 ns|WR-NONSEQ | 48260194 | ----- |  1 | -------- |  ----  |SINGLE|    4    | 0 |           0|
             |              349311 ns|              349316 ns|WR-NONSEQ | 48260194 | ----- |  1 | -------- |  ----  |SINGLE|    4    | 0 |           0|
   Picked  : |              349316 ns|              349666 ns|WR-DATA   | 48260194 |  1/ 1 | -- | 83002E40 |  OKAY  | ---- | ------- | - | ---------- |
             |              349316 ns|              349666 ns|WR-DATA   | 48260194 |  1/ 1 | -- | 83002E40 |  OKAY  | ---- | ------- | - | ---------- |
   Picked  : |              349721 ns|              349726 ns|WR-NONSEQ | 48260164 | ----- |  1 | -------- |  ----  |SINGLE|    4    | 0 |           0|
             |              349721 ns|              349726 ns|WR-NONSEQ | 48260164 | ----- |  1 | -------- |  ----  |SINGLE|    4    | 0 |           0|
   Picked  : |              349726 ns|              350066 ns|WR-DATA   | 48260164 |  1/ 1 | -- | 42C02E40 |  OKAY  | ---- | ------- | - | ---------- |
             |              349726 ns|              350066 ns|WR-DATA   | 48260164 |  1/ 1 | -- | 42C02E40 |  OKAY  | ---- | ------- | - | ---------- |
   Picked  : |              350121 ns|              350126 ns|WR-NONSEQ | 48260194 | ----- |  1 | -------- |  ----  |SINGLE|    4    | 0 |           0|
             |              350121 ns|              350126 ns|WR-NONSEQ | 48260194 | ----- |  1 | -------- |  ----  |SINGLE|    4    | 0 |           0|
   Picked  : |              350126 ns|              350456 ns|WR-DATA   | 48260194 |  1/ 1 | -- | 83002240 |  OKAY  | ---- | ------- | - | ---------- |
             |              350126 ns|              350456 ns|WR-DATA   | 48260194 |  1/ 1 | -- | 83002240 |  OKAY  | ---- | ------- | - | ---------- |
   Picked  : |              350511 ns|              350516 ns|WR-NONSEQ | 48260164 | ----- |  1 | -------- |  ----  |SINGLE|    4    | 0 |           0|
             |              350511 ns|              350516 ns|WR-NONSEQ | 48260164 | ----- |  1 | -------- |  ----  |SINGLE|    4    | 0 |           0|
   Picked  : |              350516 ns|              350816 ns|WR-DATA   | 48260164 |  1/ 1 | -- | 42C02240 |  OKAY  | ---- | ------- | - | ---------- |
             |              350516 ns|              350816 ns|WR-DATA   | 48260164 |  1/ 1 | -- | 42C02240 |  OKAY  | ---- | ------- | - | ---------- |
   Picked  : |              360511 ns|              360516 ns|WR-NONSEQ | 48260194 | ----- |  1 | -------- |  ----  |SINGLE|    4    | 0 |           0|
             |              360511 ns|              360516 ns|WR-NONSEQ | 48260194 | ----- |  1 | -------- |  ----  |SINGLE|    4    | 0 |           0|
   Picked  : |              360516 ns|              360816 ns|WR-DATA   | 48260194 |  1/ 1 | -- | 83002040 |  OKAY  | ---- | ------- | - | ---------- |
             |              360516 ns|              360816 ns|WR-DATA   | 48260194 |  1/ 1 | -- | 83002040 |  OKAY  | ---- | ------- | - | ---------- |
   Picked  : |              360871 ns|              360876 ns|WR-NONSEQ | 48260164 | ----- |  1 | -------- |  ----  |SINGLE|    4    | 0 |           0|
             |              360871 ns|              360876 ns|WR-NONSEQ | 48260164 | ----- |  1 | -------- |  ----  |SINGLE|    4    | 0 |           0|
   Picked  : |              360876 ns|              361176 ns|WR-DATA   | 48260164 |  1/ 1 | -- | 42C02040 |  OKAY  | ---- | ------- | - | ---------- |
             |              360876 ns|              361176 ns|WR-DATA   | 48260164 |  1/ 1 | -- | 42C02040 |  OKAY  | ---- | ------- | - | ---------- |
   Picked  : |              361366 ns|              361371 ns|RD-NONSEQ | 482601A8 | ----- |  1 | -------- |  ----  |SINGLE|    4    | 0 |           0|
             |              361366 ns|              361371 ns|RD-NONSEQ | 482601A8 | ----- |  1 | -------- |  ----  |SINGLE|    4    | 0 |           0|
   Picked  : |              361371 ns|              361736 ns|RD-DATA   | 482601A8 |  1/ 1 | -- | 00000000 |  OKAY  | ---- | ------- | - | ---------- |
             |              361371 ns|              361736 ns|RD-DATA   | 482601A8 |  1/ 1 | -- | 00000000 |  OKAY  | ---- | ------- | - | ---------- |
   Picked  : |              361786 ns|              361791 ns|RD-NONSEQ | 48260178 | ----- |  1 | -------- |  ----  |SINGLE|    4    | 0 |           0|
             |              361786 ns|              361791 ns|RD-NONSEQ | 48260178 | ----- |  1 | -------- |  ----  |SINGLE|    4    | 0 |           0|
   Picked  : |              361791 ns|              362096 ns|RD-DATA   | 48260178 |  1/ 1 | -- | 00000000 |  OKAY  | ---- | ------- | - | ---------- |
             |              361791 ns|              362096 ns|RD-DATA   | 48260178 |  1/ 1 | -- | 00000000 |  OKAY  | ---- | ------- | - | ---------- |
   Picked  : |              362286 ns|              362291 ns|RD-NONSEQ | 482601A8 | ----- |  1 | -------- |  ----  |SINGLE|    4    | 0 |           0|
             |              362286 ns|              362291 ns|RD-NONSEQ | 482601A8 | ----- |  1 | -------- |  ----  |SINGLE|    4    | 0 |           0|
   Picked  : |              362291 ns|              362616 ns|RD-DATA   | 482601A8 |  1/ 1 | -- | 00000000 |  OKAY  | ---- | ------- | - | ---------- |
             |              362291 ns|              362616 ns|RD-DATA   | 482601A8 |  1/ 1 | -- | 00000000 |  OKAY  | ---- | ------- | - | ---------- |
   Picked  : |              362666 ns|              362671 ns|RD-NONSEQ | 48260178 | ----- |  1 | -------- |  ----  |SINGLE|    4    | 0 |           0|
             |              362666 ns|              362671 ns|RD-NONSEQ | 48260178 | ----- |  1 | -------- |  ----  |SINGLE|    4    | 0 |           0|
   Picked  : |              362671 ns|              362986 ns|RD-DATA   | 48260178 |  1/ 1 | -- | 00000000 |  OKAY  | ---- | ------- | - | ---------- |
             |              362671 ns|              362986 ns|RD-DATA   | 48260178 |  1/ 1 | -- | 00000000 |  OKAY  | ---- | ------- | - | ---------- |
   Picked  : |              363166 ns|              363171 ns|RD-NONSEQ | 482601A8 | ----- |  1 | -------- |  ----  |SINGLE|    4    | 0 |           0|
             |              363166 ns|              363171 ns|RD-NONSEQ | 482601A8 | ----- |  1 | -------- |  ----  |SINGLE|    4    | 0 |           0|
   Picked  : |              363171 ns|              363496 ns|RD-DATA   | 482601A8 |  1/ 1 | -- | 00000000 |  OKAY  | ---- | ------- | - | ---------- |
             |              363171 ns|              363496 ns|RD-DATA   | 482601A8 |  1/ 1 | -- | 00000000 |  OKAY  | ---- | ------- | - | ---------- |
   Picked  : |              363546 ns|              363551 ns|RD-NONSEQ | 48260178 | ----- |  1 | -------- |  ----  |SINGLE|    4    | 0 |           0|
             |              363546 ns|              363551 ns|RD-NONSEQ | 48260178 | ----- |  1 | -------- |  ----  |SINGLE|    4    | 0 |           0|
   Picked  : |              363551 ns|              363856 ns|RD-DATA   | 48260178 |  1/ 1 | -- | 00000000 |  OKAY  | ---- | ------- | - | ---------- |
             |              363551 ns|              363856 ns|RD-DATA   | 48260178 |  1/ 1 | -- | 00000000 |  OKAY  | ---- | ------- | - | ---------- |
   Picked  : |              364046 ns|              364051 ns|RD-NONSEQ | 482601A8 | ----- |  1 | -------- |  ----  |SINGLE|    4    | 0 |           0|
             |              364046 ns|              364051 ns|RD-NONSEQ | 482601A8 | ----- |  1 | -------- |  ----  |SINGLE|    4    | 0 |           0|
   Picked  : |              364051 ns|              364386 ns|RD-DATA   | 482601A8 |  1/ 1 | -- | 00000000 |  OKAY  | ---- | ------- | - | ---------- |
             |              364051 ns|              364386 ns|RD-DATA   | 482601A8 |  1/ 1 | -- | 00000000 |  OKAY  | ---- | ------- | - | ---------- |
   Picked  : |              364436 ns|              364441 ns|RD-NONSEQ | 48260178 | ----- |  1 | -------- |  ----  |SINGLE|    4    | 0 |           0|
             |              364436 ns|              364441 ns|RD-NONSEQ | 48260178 | ----- |  1 | -------- |  ----  |SINGLE|    4    | 0 |           0|
   Picked  : |              364441 ns|              364786 ns|RD-DATA   | 48260178 |  1/ 1 | -- | 00000000 |  OKAY  | ---- | ------- | - | ---------- |
             |              364441 ns|              364786 ns|RD-DATA   | 48260178 |  1/ 1 | -- | 00000000 |  OKAY  | ---- | ------- | - | ---------- |
   Picked  : |              364936 ns|              364941 ns|RD-NONSEQ | 482601A8 | ----- |  1 | -------- |  ----  |SINGLE|    4    | 0 |           0|
             |              364936 ns|              364941 ns|RD-NONSEQ | 482601A8 | ----- |  1 | -------- |  ----  |SINGLE|    4    | 0 |           0|
   Picked  : |              364941 ns|              365256 ns|RD-DATA   | 482601A8 |  1/ 1 | -- | 00000000 |  OKAY  | ---- | ------- | - | ---------- |
             |              364941 ns|              365256 ns|RD-DATA   | 482601A8 |  1/ 1 | -- | 00000000 |  OKAY  | ---- | ------- | - | ---------- |
   Picked  : |              365336 ns|              365341 ns|RD-NONSEQ | 48260178 | ----- |  1 | -------- |  ----  |SINGLE|    4    | 0 |           0|
             |              365336 ns|              365341 ns|RD-NONSEQ | 48260178 | ----- |  1 | -------- |  ----  |SINGLE|    4    | 0 |           0|
   Picked  : |              365341 ns|              365656 ns|RD-DATA   | 48260178 |  1/ 1 | -- | 00000000 |  OKAY  | ---- | ------- | - | ---------- |
             |              365341 ns|              365656 ns|RD-DATA   | 48260178 |  1/ 1 | -- | 00000000 |  OKAY  | ---- | ------- | - | ---------- |
   Picked  : |              365806 ns|              365811 ns|RD-NONSEQ | 482601A8 | ----- |  1 | -------- |  ----  |SINGLE|    4    | 0 |           0|
             |              365806 ns|              365811 ns|RD-NONSEQ | 482601A8 | ----- |  1 | -------- |  ----  |SINGLE|    4    | 0 |           0|
   Picked  : |              365811 ns|              366136 ns|RD-DATA   | 482601A8 |  1/ 1 | -- | 00000000 |  OKAY  | ---- | ------- | - | ---------- |
             |              365811 ns|              366136 ns|RD-DATA   | 482601A8 |  1/ 1 | -- | 00000000 |  OKAY  | ---- | ------- | - | ---------- |
   Picked  : |              366206 ns|              366211 ns|RD-NONSEQ | 48260178 | ----- |  1 | -------- |  ----  |SINGLE|    4    | 0 |           0|
             |              366206 ns|              366211 ns|RD-NONSEQ | 48260178 | ----- |  1 | -------- |  ----  |SINGLE|    4    | 0 |           0|
   Picked  : |              366211 ns|              366536 ns|RD-DATA   | 48260178 |  1/ 1 | -- | 00000000 |  OKAY  | ---- | ------- | - | ---------- |
             |              366211 ns|              366536 ns|RD-DATA   | 48260178 |  1/ 1 | -- | 00000000 |  OKAY  | ---- | ------- | - | ---------- |
   Picked  : |              366686 ns|              366691 ns|RD-NONSEQ | 482601A8 | ----- |  1 | -------- |  ----  |SINGLE|    4    | 0 |           0|
             |              366686 ns|              366691 ns|RD-NONSEQ | 482601A8 | ----- |  1 | -------- |  ----  |SINGLE|    4    | 0 |           0|
   Picked  : |              366691 ns|              367066 ns|RD-DATA   | 482601A8 |  1/ 1 | -- | 00000000 |  OKAY  | ---- | ------- | - | ---------- |
             |              366691 ns|              367066 ns|RD-DATA   | 482601A8 |  1/ 1 | -- | 00000000 |  OKAY  | ---- | ------- | - | ---------- |
   Picked  : |              367116 ns|              367121 ns|RD-NONSEQ | 48260178 | ----- |  1 | -------- |  ----  |SINGLE|    4    | 0 |           0|
             |              367116 ns|              367121 ns|RD-NONSEQ | 48260178 | ----- |  1 | -------- |  ----  |SINGLE|    4    | 0 |           0|
   Picked  : |              367121 ns|              367416 ns|RD-DATA   | 48260178 |  1/ 1 | -- | 00000000 |  OKAY  | ---- | ------- | - | ---------- |
             |              367121 ns|              367416 ns|RD-DATA   | 48260178 |  1/ 1 | -- | 00000000 |  OKAY  | ---- | ------- | - | ---------- |
   Picked  : |              367616 ns|              367621 ns|RD-NONSEQ | 482601A8 | ----- |  1 | -------- |  ----  |SINGLE|    4    | 0 |           0|
             |              367616 ns|              367621 ns|RD-NONSEQ | 482601A8 | ----- |  1 | -------- |  ----  |SINGLE|    4    | 0 |           0|
   Picked  : |              367621 ns|              367946 ns|RD-DATA   | 482601A8 |  1/ 1 | -- | 00000000 |  OKAY  | ---- | ------- | - | ---------- |
             |              367621 ns|              367946 ns|RD-DATA   | 482601A8 |  1/ 1 | -- | 00000000 |  OKAY  | ---- | ------- | - | ---------- |
   Picked  : |              367996 ns|              368001 ns|RD-NONSEQ | 48260178 | ----- |  1 | -------- |  ----  |SINGLE|    4    | 0 |           0|
             |              367996 ns|              368001 ns|RD-NONSEQ | 48260178 | ----- |  1 | -------- |  ----  |SINGLE|    4    | 0 |           0|
   Picked  : |              368001 ns|              368296 ns|RD-DATA   | 48260178 |  1/ 1 | -- | 00000000 |  OKAY  | ---- | ------- | - | ---------- |
             |              368001 ns|              368296 ns|RD-DATA   | 48260178 |  1/ 1 | -- | 00000000 |  OKAY  | ---- | ------- | - | ---------- |
   Picked  : |              368496 ns|              368501 ns|RD-NONSEQ | 482601A8 | ----- |  1 | -------- |  ----  |SINGLE|    4    | 0 |           0|
             |              368496 ns|              368501 ns|RD-NONSEQ | 482601A8 | ----- |  1 | -------- |  ----  |SINGLE|    4    | 0 |           0|
   Picked  : |              368501 ns|              368816 ns|RD-DATA   | 482601A8 |  1/ 1 | -- | 00000000 |  OKAY  | ---- | ------- | - | ---------- |
             |              368501 ns|              368816 ns|RD-DATA   | 482601A8 |  1/ 1 | -- | 00000000 |  OKAY  | ---- | ------- | - | ---------- |
   Picked  : |              368866 ns|              368871 ns|RD-NONSEQ | 48260178 | ----- |  1 | -------- |  ----  |SINGLE|    4    | 0 |           0|
             |              368866 ns|              368871 ns|RD-NONSEQ | 48260178 | ----- |  1 | -------- |  ----  |SINGLE|    4    | 0 |           0|
   Picked  : |              368871 ns|              369186 ns|RD-DATA   | 48260178 |  1/ 1 | -- | 00000000 |  OKAY  | ---- | ------- | - | ---------- |
             |              368871 ns|              369186 ns|RD-DATA   | 48260178 |  1/ 1 | -- | 00000000 |  OKAY  | ---- | ------- | - | ---------- |
   Picked  : |              369366 ns|              369371 ns|RD-NONSEQ | 482601A8 | ----- |  1 | -------- |  ----  |SINGLE|    4    | 0 |           0|
             |              369366 ns|              369371 ns|RD-NONSEQ | 482601A8 | ----- |  1 | -------- |  ----  |SINGLE|    4    | 0 |           0|
   Picked  : |              369371 ns|              369696 ns|RD-DATA   | 482601A8 |  1/ 1 | -- | 00000000 |  OKAY  | ---- | ------- | - | ---------- |
             |              369371 ns|              369696 ns|RD-DATA   | 482601A8 |  1/ 1 | -- | 00000000 |  OKAY  | ---- | ------- | - | ---------- |
   Picked  : |              369746 ns|              369751 ns|RD-NONSEQ | 48260178 | ----- |  1 | -------- |  ----  |SINGLE|    4    | 0 |           0|
             |              369746 ns|              369751 ns|RD-NONSEQ | 48260178 | ----- |  1 | -------- |  ----  |SINGLE|    4    | 0 |           0|
   Picked  : |              369751 ns|              370056 ns|RD-DATA   | 48260178 |  1/ 1 | -- | 00000000 |  OKAY  | ---- | ------- | - | ---------- |
             |              369751 ns|              370056 ns|RD-DATA   | 48260178 |  1/ 1 | -- | 00000000 |  OKAY  | ---- | ------- | - | ---------- |
   Picked  : |              370246 ns|              370251 ns|RD-NONSEQ | 482601A8 | ----- |  1 | -------- |  ----  |SINGLE|    4    | 0 |           0|
             |              370246 ns|              370251 ns|RD-NONSEQ | 482601A8 | ----- |  1 | -------- |  ----  |SINGLE|    4    | 0 |           0|
   Picked  : |              370251 ns|              370576 ns|RD-DATA   | 482601A8 |  1/ 1 | -- | 00000000 |  OKAY  | ---- | ------- | - | ---------- |
             |              370251 ns|              370576 ns|RD-DATA   | 482601A8 |  1/ 1 | -- | 00000000 |  OKAY  | ---- | ------- | - | ---------- |
   Picked  : |              370626 ns|              370631 ns|RD-NONSEQ | 48260178 | ----- |  1 | -------- |  ----  |SINGLE|    4    | 0 |           0|
             |              370626 ns|              370631 ns|RD-NONSEQ | 48260178 | ----- |  1 | -------- |  ----  |SINGLE|    4    | 0 |           0|
   Picked  : |              370631 ns|              370946 ns|RD-DATA   | 48260178 |  1/ 1 | -- | 00000000 |  OKAY  | ---- | ------- | - | ---------- |
             |              370631 ns|              370946 ns|RD-DATA   | 48260178 |  1/ 1 | -- | 00000000 |  OKAY  | ---- | ------- | - | ---------- |
   Picked  : |              371126 ns|              371131 ns|RD-NONSEQ | 482601A8 | ----- |  1 | -------- |  ----  |SINGLE|    4    | 0 |           0|
             |              371126 ns|              371131 ns|RD-NONSEQ | 482601A8 | ----- |  1 | -------- |  ----  |SINGLE|    4    | 0 |           0|
   Picked  : |              371131 ns|              371456 ns|RD-DATA   | 482601A8 |  1/ 1 | -- | 00000000 |  OKAY  | ---- | ------- | - | ---------- |
             |              371131 ns|              371456 ns|RD-DATA   | 482601A8 |  1/ 1 | -- | 00000000 |  OKAY  | ---- | ------- | - | ---------- |
   Picked  : |              371506 ns|              371511 ns|RD-NONSEQ | 48260178 | ----- |  1 | -------- |  ----  |SINGLE|    4    | 0 |           0|
             |              371506 ns|              371511 ns|RD-NONSEQ | 48260178 | ----- |  1 | -------- |  ----  |SINGLE|    4    | 0 |           0|
   Picked  : |              371511 ns|              371816 ns|RD-DATA   | 48260178 |  1/ 1 | -- | 00000000 |  OKAY  | ---- | ------- | - | ---------- |
             |              371511 ns|              371816 ns|RD-DATA   | 48260178 |  1/ 1 | -- | 00000000 |  OKAY  | ---- | ------- | - | ---------- |
   Picked  : |              372006 ns|              372011 ns|RD-NONSEQ | 482601A8 | ----- |  1 | -------- |  ----  |SINGLE|    4    | 0 |           0|
             |              372006 ns|              372011 ns|RD-NONSEQ | 482601A8 | ----- |  1 | -------- |  ----  |SINGLE|    4    | 0 |           0|
   Picked  : |              372011 ns|              372336 ns|RD-DATA   | 482601A8 |  1/ 1 | -- | 00000000 |  OKAY  | ---- | ------- | - | ---------- |
             |              372011 ns|              372336 ns|RD-DATA   | 482601A8 |  1/ 1 | -- | 00000000 |  OKAY  | ---- | ------- | - | ---------- |
   Picked  : |              372386 ns|              372391 ns|RD-NONSEQ | 48260178 | ----- |  1 | -------- |  ----  |SINGLE|    4    | 0 |           0|
             |              372386 ns|              372391 ns|RD-NONSEQ | 48260178 | ----- |  1 | -------- |  ----  |SINGLE|    4    | 0 |           0|
   Picked  : |              372391 ns|              372696 ns|RD-DATA   | 48260178 |  1/ 1 | -- | 00000000 |  OKAY  | ---- | ------- | - | ---------- |
             |              372391 ns|              372696 ns|RD-DATA   | 48260178 |  1/ 1 | -- | 00000000 |  OKAY  | ---- | ------- | - | ---------- |
   Picked  : |              372886 ns|              372891 ns|RD-NONSEQ | 482601A8 | ----- |  1 | -------- |  ----  |SINGLE|    4    | 0 |           0|
             |              372886 ns|              372891 ns|RD-NONSEQ | 482601A8 | ----- |  1 | -------- |  ----  |SINGLE|    4    | 0 |           0|
   Picked  : |              372891 ns|              373266 ns|RD-DATA   | 482601A8 |  1/ 1 | -- | 00000000 |  OKAY  | ---- | ------- | - | ---------- |
             |              372891 ns|              373266 ns|RD-DATA   | 482601A8 |  1/ 1 | -- | 00000000 |  OKAY  | ---- | ------- | - | ---------- |
   Picked  : |              373316 ns|              373321 ns|RD-NONSEQ | 48260178 | ----- |  1 | -------- |  ----  |SINGLE|    4    | 0 |           0|
             |              373316 ns|              373321 ns|RD-NONSEQ | 48260178 | ----- |  1 | -------- |  ----  |SINGLE|    4    | 0 |           0|
   Picked  : |              373321 ns|              373626 ns|RD-DATA   | 48260178 |  1/ 1 | -- | 00000000 |  OKAY  | ---- | ------- | - | ---------- |
             |              373321 ns|              373626 ns|RD-DATA   | 48260178 |  1/ 1 | -- | 00000000 |  OKAY  | ---- | ------- | - | ---------- |
   Picked  : |              373816 ns|              373821 ns|RD-NONSEQ | 482601A8 | ----- |  1 | -------- |  ----  |SINGLE|    4    | 0 |           0|
             |              373816 ns|              373821 ns|RD-NONSEQ | 482601A8 | ----- |  1 | -------- |  ----  |SINGLE|    4    | 0 |           0|
   Picked  : |              373821 ns|              374146 ns|RD-DATA   | 482601A8 |  1/ 1 | -- | 00000000 |  OKAY  | ---- | ------- | - | ---------- |
             |              373821 ns|              374146 ns|RD-DATA   | 482601A8 |  1/ 1 | -- | 00000000 |  OKAY  | ---- | ------- | - | ---------- |
   Picked  : |              374196 ns|              374201 ns|RD-NONSEQ | 48260178 | ----- |  1 | -------- |  ----  |SINGLE|    4    | 0 |           0|
             |              374196 ns|              374201 ns|RD-NONSEQ | 48260178 | ----- |  1 | -------- |  ----  |SINGLE|    4    | 0 |           0|
   Picked  : |              374201 ns|              374496 ns|RD-DATA   | 48260178 |  1/ 1 | -- | 00000000 |  OKAY  | ---- | ------- | - | ---------- |
             |              374201 ns|              374496 ns|RD-DATA   | 48260178 |  1/ 1 | -- | 00000000 |  OKAY  | ---- | ------- | - | ---------- |
   Picked  : |              374696 ns|              374701 ns|RD-NONSEQ | 482601A8 | ----- |  1 | -------- |  ----  |SINGLE|    4    | 0 |           0|
             |              374696 ns|              374701 ns|RD-NONSEQ | 482601A8 | ----- |  1 | -------- |  ----  |SINGLE|    4    | 0 |           0|
   Picked  : |              374701 ns|              375056 ns|RD-DATA   | 482601A8 |  1/ 1 | -- | 00000001 |  OKAY  | ---- | ------- | - | ---------- |
             |              374701 ns|              375056 ns|RD-DATA   | 482601A8 |  1/ 1 | -- | 00000001 |  OKAY  | ---- | ------- | - | ---------- |
   Picked  : |              375106 ns|              375111 ns|RD-NONSEQ | 48260178 | ----- |  1 | -------- |  ----  |SINGLE|    4    | 0 |           0|
             |              375106 ns|              375111 ns|RD-NONSEQ | 48260178 | ----- |  1 | -------- |  ----  |SINGLE|    4    | 0 |           0|
   Picked  : |              375111 ns|              375416 ns|RD-DATA   | 48260178 |  1/ 1 | -- | 00000001 |  OKAY  | ---- | ------- | - | ---------- |
             |              375111 ns|              375416 ns|RD-DATA   | 48260178 |  1/ 1 | -- | 00000001 |  OKAY  | ---- | ------- | - | ---------- |
   Picked  : |              375466 ns|              375471 ns|RD-NONSEQ | 482601A4 | ----- |  1 | -------- |  ----  |SINGLE|    4    | 0 |           0|
             |              375466 ns|              375471 ns|RD-NONSEQ | 482601A4 | ----- |  1 | -------- |  ----  |SINGLE|    4    | 0 |           0|
   Picked  : |              375471 ns|              375776 ns|RD-DATA   | 482601A4 |  1/ 1 | -- | 0000623F |  OKAY  | ---- | ------- | - | ---------- |
             |              375471 ns|              375776 ns|RD-DATA   | 482601A4 |  1/ 1 | -- | 0000623F |  OKAY  | ---- | ------- | - | ---------- |
   Picked  : |              375826 ns|              375831 ns|RD-NONSEQ | 48260174 | ----- |  1 | -------- |  ----  |SINGLE|    4    | 0 |           0|
             |              375826 ns|              375831 ns|RD-NONSEQ | 48260174 | ----- |  1 | -------- |  ----  |SINGLE|    4    | 0 |           0|
   Picked  : |              375831 ns|              376176 ns|RD-DATA   | 48260174 |  1/ 1 | -- | 0000623F |  OKAY  | ---- | ------- | - | ---------- |
             |              375831 ns|              376176 ns|RD-DATA   | 48260174 |  1/ 1 | -- | 0000623F |  OKAY  | ---- | ------- | - | ---------- |
   Picked  : |              376231 ns|              376236 ns|WR-NONSEQ | 482601A4 | ----- |  1 | -------- |  ----  |SINGLE|    4    | 0 |           0|
             |              376231 ns|              376236 ns|WR-NONSEQ | 482601A4 | ----- |  1 | -------- |  ----  |SINGLE|    4    | 0 |           0|
   Picked  : |              376236 ns|              376536 ns|WR-DATA   | 482601A4 |  1/ 1 | -- | 0000623E |  OKAY  | ---- | ------- | - | ---------- |
             |              376236 ns|              376536 ns|WR-DATA   | 482601A4 |  1/ 1 | -- | 0000623E |  OKAY  | ---- | ------- | - | ---------- |
   Picked  : |              376591 ns|              376596 ns|WR-NONSEQ | 48260174 | ----- |  1 | -------- |  ----  |SINGLE|    4    | 0 |           0|
             |              376591 ns|              376596 ns|WR-NONSEQ | 48260174 | ----- |  1 | -------- |  ----  |SINGLE|    4    | 0 |           0|
   Picked  : |              376596 ns|              376906 ns|WR-DATA   | 48260174 |  1/ 1 | -- | 0000623E |  OKAY  | ---- | ------- | - | ---------- |
             |              376596 ns|              376906 ns|WR-DATA   | 48260174 |  1/ 1 | -- | 0000623E |  OKAY  | ---- | ------- | - | ---------- |
   Picked  : |              376956 ns|              376961 ns|RD-NONSEQ | 48260194 | ----- |  1 | -------- |  ----  |SINGLE|    4    | 0 |           0|
             |              376956 ns|              376961 ns|RD-NONSEQ | 48260194 | ----- |  1 | -------- |  ----  |SINGLE|    4    | 0 |           0|
   Picked  : |              376961 ns|              377256 ns|RD-DATA   | 48260194 |  1/ 1 | -- | 83002040 |  OKAY  | ---- | ------- | - | ---------- |
             |              376961 ns|              377256 ns|RD-DATA   | 48260194 |  1/ 1 | -- | 83002040 |  OKAY  | ---- | ------- | - | ---------- |
   Picked  : |              377306 ns|              377311 ns|RD-NONSEQ | 48260164 | ----- |  1 | -------- |  ----  |SINGLE|    4    | 0 |           0|
             |              377306 ns|              377311 ns|RD-NONSEQ | 48260164 | ----- |  1 | -------- |  ----  |SINGLE|    4    | 0 |           0|
   Picked  : |              377311 ns|              377666 ns|RD-DATA   | 48260164 |  1/ 1 | -- | 42C02040 |  OKAY  | ---- | ------- | - | ---------- |
             |              377311 ns|              377666 ns|RD-DATA   | 48260164 |  1/ 1 | -- | 42C02040 |  OKAY  | ---- | ------- | - | ---------- |
   Picked  : |              377721 ns|              377726 ns|WR-NONSEQ | 48260194 | ----- |  1 | -------- |  ----  |SINGLE|    4    | 0 |           0|
             |              377721 ns|              377726 ns|WR-NONSEQ | 48260194 | ----- |  1 | -------- |  ----  |SINGLE|    4    | 0 |           0|
   Picked  : |              377726 ns|              378056 ns|WR-DATA   | 48260194 |  1/ 1 | -- | 83002041 |  OKAY  | ---- | ------- | - | ---------- |
             |              377726 ns|              378056 ns|WR-DATA   | 48260194 |  1/ 1 | -- | 83002041 |  OKAY  | ---- | ------- | - | ---------- |
   Picked  : |              378111 ns|              378116 ns|WR-NONSEQ | 48260164 | ----- |  1 | -------- |  ----  |SINGLE|    4    | 0 |           0|
             |              378111 ns|              378116 ns|WR-NONSEQ | 48260164 | ----- |  1 | -------- |  ----  |SINGLE|    4    | 0 |           0|
   Picked  : |              378116 ns|              378416 ns|WR-DATA   | 48260164 |  1/ 1 | -- | 42C02041 |  OKAY  | ---- | ------- | - | ---------- |
             |              378116 ns|              378416 ns|WR-DATA   | 48260164 |  1/ 1 | -- | 42C02041 |  OKAY  | ---- | ------- | - | ---------- |
   Picked  : |              378471 ns|              378476 ns|WR-NONSEQ | 48260194 | ----- |  1 | -------- |  ----  |SINGLE|    4    | 0 |           0|
             |              378471 ns|              378476 ns|WR-NONSEQ | 48260194 | ----- |  1 | -------- |  ----  |SINGLE|    4    | 0 |           0|
   Picked  : |              378476 ns|              378786 ns|WR-DATA   | 48260194 |  1/ 1 | -- | 83002001 |  OKAY  | ---- | ------- | - | ---------- |
             |              378476 ns|              378786 ns|WR-DATA   | 48260194 |  1/ 1 | -- | 83002001 |  OKAY  | ---- | ------- | - | ---------- |
   Picked  : |              378841 ns|              378846 ns|WR-NONSEQ | 48260164 | ----- |  1 | -------- |  ----  |SINGLE|    4    | 0 |           0|
             |              378841 ns|              378846 ns|WR-NONSEQ | 48260164 | ----- |  1 | -------- |  ----  |SINGLE|    4    | 0 |           0|
   Picked  : |              378846 ns|              379176 ns|WR-DATA   | 48260164 |  1/ 1 | -- | 42C02001 |  OKAY  | ---- | ------- | - | ---------- |
             |              378846 ns|              379176 ns|WR-DATA   | 48260164 |  1/ 1 | -- | 42C02001 |  OKAY  | ---- | ------- | - | ---------- |
   Picked  : |              379626 ns|              379631 ns|RD-NONSEQ | 482601AC | ----- |  1 | -------- |  ----  |SINGLE|    4    | 0 |           0|
             |              379626 ns|              379631 ns|RD-NONSEQ | 482601AC | ----- |  1 | -------- |  ----  |SINGLE|    4    | 0 |           0|
   Picked  : |              379631 ns|              379936 ns|RD-DATA   | 482601AC |  1/ 1 | -- | 000000CD |  OKAY  | ---- | ------- | - | ---------- |
             |              379631 ns|              379936 ns|RD-DATA   | 482601AC |  1/ 1 | -- | 000000CD |  OKAY  | ---- | ------- | - | ---------- |
   Picked  : |              379991 ns|              379996 ns|WR-NONSEQ | 482601AC | ----- |  1 | -------- |  ----  |SINGLE|    4    | 0 |           0|
             |              379991 ns|              379996 ns|WR-NONSEQ | 482601AC | ----- |  1 | -------- |  ----  |SINGLE|    4    | 0 |           0|
   Picked  : |              379996 ns|              380296 ns|WR-DATA   | 482601AC |  1/ 1 | -- | 0000004D |  OKAY  | ---- | ------- | - | ---------- |
             |              379996 ns|              380296 ns|WR-DATA   | 482601AC |  1/ 1 | -- | 0000004D |  OKAY  | ---- | ------- | - | ---------- |
   Picked  : |              380351 ns|              380356 ns|WR-NONSEQ | 482601C8 | ----- |  1 | -------- |  ----  |SINGLE|    4    | 0 |           0|
             |              380351 ns|              380356 ns|WR-NONSEQ | 482601C8 | ----- |  1 | -------- |  ----  |SINGLE|    4    | 0 |           0|
   Picked  : |              380356 ns|              380696 ns|WR-DATA   | 482601C8 |  1/ 1 | -- | FFFFFFFF |  OKAY  | ---- | ------- | - | ---------- |
             |              380356 ns|              380696 ns|WR-DATA   | 482601C8 |  1/ 1 | -- | FFFFFFFF |  OKAY  | ---- | ------- | - | ---------- |
   Picked  : |              380751 ns|              380756 ns|WR-NONSEQ | 482601C4 | ----- |  1 | -------- |  ----  |SINGLE|    4    | 0 |           0|
             |              380751 ns|              380756 ns|WR-NONSEQ | 482601C4 | ----- |  1 | -------- |  ----  |SINGLE|    4    | 0 |           0|
   Picked  : |              380756 ns|              381056 ns|WR-DATA   | 482601C4 |  1/ 1 | -- | FFFFFFFF |  OKAY  | ---- | ------- | - | ---------- |
             |              380756 ns|              381056 ns|WR-DATA   | 482601C4 |  1/ 1 | -- | FFFFFFFF |  OKAY  | ---- | ------- | - | ---------- |
   Picked  : |              381106 ns|              381111 ns|RD-NONSEQ | 482601B8 | ----- |  1 | -------- |  ----  |SINGLE|    4    | 0 |           0|
             |              381106 ns|              381111 ns|RD-NONSEQ | 482601B8 | ----- |  1 | -------- |  ----  |SINGLE|    4    | 0 |           0|
   Picked  : |              381111 ns|              381416 ns|RD-DATA   | 482601B8 |  1/ 1 | -- | 0000000A |  OKAY  | ---- | ------- | - | ---------- |
             |              381111 ns|              381416 ns|RD-DATA   | 482601B8 |  1/ 1 | -- | 0000000A |  OKAY  | ---- | ------- | - | ---------- |
   Picked  : |              381471 ns|              381476 ns|WR-NONSEQ | 482601B8 | ----- |  1 | -------- |  ----  |SINGLE|    4    | 0 |           0|
             |              381471 ns|              381476 ns|WR-NONSEQ | 482601B8 | ----- |  1 | -------- |  ----  |SINGLE|    4    | 0 |           0|
   Picked  : |              381476 ns|              381776 ns|WR-DATA   | 482601B8 |  1/ 1 | -- | 0000004A |  OKAY  | ---- | ------- | - | ---------- |
             |              381476 ns|              381776 ns|WR-DATA   | 482601B8 |  1/ 1 | -- | 0000004A |  OKAY  | ---- | ------- | - | ---------- |
   Picked  : |              381831 ns|              381836 ns|WR-NONSEQ | 482601B8 | ----- |  1 | -------- |  ----  |SINGLE|    4    | 0 |           0|
             |              381831 ns|              381836 ns|WR-NONSEQ | 482601B8 | ----- |  1 | -------- |  ----  |SINGLE|    4    | 0 |           0|
   Picked  : |              381836 ns|              382146 ns|WR-DATA   | 482601B8 |  1/ 1 | -- | 0000004B |  OKAY  | ---- | ------- | - | ---------- |
             |              381836 ns|              382146 ns|WR-DATA   | 482601B8 |  1/ 1 | -- | 0000004B |  OKAY  | ---- | ------- | - | ---------- |
   Picked  : |              382196 ns|              382201 ns|RD-NONSEQ | 482601B8 | ----- |  1 | -------- |  ----  |SINGLE|    4    | 0 |           0|
             |              382196 ns|              382201 ns|RD-NONSEQ | 482601B8 | ----- |  1 | -------- |  ----  |SINGLE|    4    | 0 |           0|
   Picked  : |              382201 ns|              382506 ns|RD-DATA   | 482601B8 |  1/ 1 | -- | 0000004B |  OKAY  | ---- | ------- | - | ---------- |
             |              382201 ns|              382506 ns|RD-DATA   | 482601B8 |  1/ 1 | -- | 0000004B |  OKAY  | ---- | ------- | - | ---------- |
   Picked  : |              382606 ns|              382611 ns|RD-NONSEQ | 482601B0 | ----- |  1 | -------- |  ----  |SINGLE|    4    | 0 |           0|
             |              382606 ns|              382611 ns|RD-NONSEQ | 482601B0 | ----- |  1 | -------- |  ----  |SINGLE|    4    | 0 |           0|
   Picked  : |              382611 ns|              382936 ns|RD-DATA   | 482601B0 |  1/ 1 | -- | 00000008 |  OKAY  | ---- | ------- | - | ---------- |
             |              382611 ns|              382936 ns|RD-DATA   | 482601B0 |  1/ 1 | -- | 00000008 |  OKAY  | ---- | ------- | - | ---------- |
   Picked  : |              382991 ns|              382996 ns|WR-NONSEQ | 482601B0 | ----- |  1 | -------- |  ----  |SINGLE|    4    | 0 |           0|
             |              382991 ns|              382996 ns|WR-NONSEQ | 482601B0 | ----- |  1 | -------- |  ----  |SINGLE|    4    | 0 |           0|
   Picked  : |              382996 ns|              383296 ns|WR-DATA   | 482601B0 |  1/ 1 | -- | 00000048 |  OKAY  | ---- | ------- | - | ---------- |
             |              382996 ns|              383296 ns|WR-DATA   | 482601B0 |  1/ 1 | -- | 00000048 |  OKAY  | ---- | ------- | - | ---------- |
   Picked  : |              383351 ns|              383356 ns|WR-NONSEQ | 482601B0 | ----- |  1 | -------- |  ----  |SINGLE|    4    | 0 |           0|
             |              383351 ns|              383356 ns|WR-NONSEQ | 482601B0 | ----- |  1 | -------- |  ----  |SINGLE|    4    | 0 |           0|
   Picked  : |              383356 ns|              383656 ns|WR-DATA   | 482601B0 |  1/ 1 | -- | 00000049 |  OKAY  | ---- | ------- | - | ---------- |
             |              383356 ns|              383656 ns|WR-DATA   | 482601B0 |  1/ 1 | -- | 00000049 |  OKAY  | ---- | ------- | - | ---------- |
   Picked  : |              383706 ns|              383711 ns|RD-NONSEQ | 482601B0 | ----- |  1 | -------- |  ----  |SINGLE|    4    | 0 |           0|
             |              383706 ns|              383711 ns|RD-NONSEQ | 482601B0 | ----- |  1 | -------- |  ----  |SINGLE|    4    | 0 |           0|
   Picked  : |              383711 ns|              384056 ns|RD-DATA   | 482601B0 |  1/ 1 | -- | 00000049 |  OKAY  | ---- | ------- | - | ---------- |
             |              383711 ns|              384056 ns|RD-DATA   | 482601B0 |  1/ 1 | -- | 00000049 |  OKAY  | ---- | ------- | - | ---------- |
   Picked  : |              384156 ns|              384161 ns|RD-NONSEQ | 482601B8 | ----- |  1 | -------- |  ----  |SINGLE|    4    | 0 |           0|
             |              384156 ns|              384161 ns|RD-NONSEQ | 482601B8 | ----- |  1 | -------- |  ----  |SINGLE|    4    | 0 |           0|
   Picked  : |              384161 ns|              384466 ns|RD-DATA   | 482601B8 |  1/ 1 | -- | 0000004B |  OKAY  | ---- | ------- | - | ---------- |
             |              384161 ns|              384466 ns|RD-DATA   | 482601B8 |  1/ 1 | -- | 0000004B |  OKAY  | ---- | ------- | - | ---------- |
   Picked  : |              384521 ns|              384526 ns|WR-NONSEQ | 482601B8 | ----- |  1 | -------- |  ----  |SINGLE|    4    | 0 |           0|
             |              384521 ns|              384526 ns|WR-NONSEQ | 482601B8 | ----- |  1 | -------- |  ----  |SINGLE|    4    | 0 |           0|
   Picked  : |              384526 ns|              384856 ns|WR-DATA   | 482601B8 |  1/ 1 | -- | 0000004B |  OKAY  | ---- | ------- | - | ---------- |
             |              384526 ns|              384856 ns|WR-DATA   | 482601B8 |  1/ 1 | -- | 0000004B |  OKAY  | ---- | ------- | - | ---------- |
   Picked  : |              384911 ns|              384916 ns|WR-NONSEQ | 482601B8 | ----- |  1 | -------- |  ----  |SINGLE|    4    | 0 |           0|
             |              384911 ns|              384916 ns|WR-NONSEQ | 482601B8 | ----- |  1 | -------- |  ----  |SINGLE|    4    | 0 |           0|
   Picked  : |              384916 ns|              385216 ns|WR-DATA   | 482601B8 |  1/ 1 | -- | 0000004B |  OKAY  | ---- | ------- | - | ---------- |
             |              384916 ns|              385216 ns|WR-DATA   | 482601B8 |  1/ 1 | -- | 0000004B |  OKAY  | ---- | ------- | - | ---------- |
   Picked  : |              385266 ns|              385271 ns|RD-NONSEQ | 482601B8 | ----- |  1 | -------- |  ----  |SINGLE|    4    | 0 |           0|
             |              385266 ns|              385271 ns|RD-NONSEQ | 482601B8 | ----- |  1 | -------- |  ----  |SINGLE|    4    | 0 |           0|
   Picked  : |              385271 ns|              385586 ns|RD-DATA   | 482601B8 |  1/ 1 | -- | 0000004B |  OKAY  | ---- | ------- | - | ---------- |
             |              385271 ns|              385586 ns|RD-DATA   | 482601B8 |  1/ 1 | -- | 0000004B |  OKAY  | ---- | ------- | - | ---------- |
   Picked  : |              385686 ns|              385691 ns|RD-NONSEQ | 482601BC | ----- |  1 | -------- |  ----  |SINGLE|    4    | 0 |           0|
             |              385686 ns|              385691 ns|RD-NONSEQ | 482601BC | ----- |  1 | -------- |  ----  |SINGLE|    4    | 0 |           0|
   Picked  : |              385691 ns|              386066 ns|RD-DATA   | 482601BC |  1/ 1 | -- | 00000000 |  OKAY  | ---- | ------- | - | ---------- |
             |              385691 ns|              386066 ns|RD-DATA   | 482601BC |  1/ 1 | -- | 00000000 |  OKAY  | ---- | ------- | - | ---------- |
   Picked  : |              386121 ns|              386126 ns|WR-NONSEQ | 482601BC | ----- |  1 | -------- |  ----  |SINGLE|    4    | 0 |           0|
             |              386121 ns|              386126 ns|WR-NONSEQ | 482601BC | ----- |  1 | -------- |  ----  |SINGLE|    4    | 0 |           0|
   Picked  : |              386126 ns|              386456 ns|WR-DATA   | 482601BC |  1/ 1 | -- | 00000040 |  OKAY  | ---- | ------- | - | ---------- |
             |              386126 ns|              386456 ns|WR-DATA   | 482601BC |  1/ 1 | -- | 00000040 |  OKAY  | ---- | ------- | - | ---------- |
   Picked  : |              386511 ns|              386516 ns|WR-NONSEQ | 482601BC | ----- |  1 | -------- |  ----  |SINGLE|    4    | 0 |           0|
             |              386511 ns|              386516 ns|WR-NONSEQ | 482601BC | ----- |  1 | -------- |  ----  |SINGLE|    4    | 0 |           0|
   Picked  : |              386516 ns|              386856 ns|WR-DATA   | 482601BC |  1/ 1 | -- | 00000041 |  OKAY  | ---- | ------- | - | ---------- |
             |              386516 ns|              386856 ns|WR-DATA   | 482601BC |  1/ 1 | -- | 00000041 |  OKAY  | ---- | ------- | - | ---------- |
   Picked  : |              386906 ns|              386911 ns|RD-NONSEQ | 482601BC | ----- |  1 | -------- |  ----  |SINGLE|    4    | 0 |           0|
             |              386906 ns|              386911 ns|RD-NONSEQ | 482601BC | ----- |  1 | -------- |  ----  |SINGLE|    4    | 0 |           0|
   Picked  : |              386911 ns|              387266 ns|RD-DATA   | 482601BC |  1/ 1 | -- | 00000041 |  OKAY  | ---- | ------- | - | ---------- |
             |              386911 ns|              387266 ns|RD-DATA   | 482601BC |  1/ 1 | -- | 00000041 |  OKAY  | ---- | ------- | - | ---------- |
   Picked  : |              387366 ns|              387371 ns|RD-NONSEQ | F832117C | ----- |  1 | -------- |  ----  |SINGLE|    4    | 0 |           0|
             |              387366 ns|              387371 ns|RD-NONSEQ | F832117C | ----- |  1 | -------- |  ----  |SINGLE|    4    | 0 |           0|
   Picked  : |              387371 ns|              387621 ns|RD-DATA   | F832117C |  1/ 1 | -- | 00000180 |  OKAY  | ---- | ------- | - | ---------- |
             |              387371 ns|              387621 ns|RD-DATA   | F832117C |  1/ 1 | -- | 00000180 |  OKAY  | ---- | ------- | - | ---------- |
   Picked  : |              387676 ns|              387681 ns|WR-NONSEQ | F832117C | ----- |  1 | -------- |  ----  |SINGLE|    4    | 0 |           0|
             |              387676 ns|              387681 ns|WR-NONSEQ | F832117C | ----- |  1 | -------- |  ----  |SINGLE|    4    | 0 |           0|
   Picked  : |              387681 ns|              387901 ns|WR-DATA   | F832117C |  1/ 1 | -- | 00000180 |  OKAY  | ---- | ------- | - | ---------- |
             |              387681 ns|              387901 ns|WR-DATA   | F832117C |  1/ 1 | -- | 00000180 |  OKAY  | ---- | ------- | - | ---------- |
   Picked  : |              388351 ns|              388356 ns|RD-NONSEQ | F832117C | ----- |  1 | -------- |  ----  |SINGLE|    4    | 0 |           0|
             |              388351 ns|              388356 ns|RD-NONSEQ | F832117C | ----- |  1 | -------- |  ----  |SINGLE|    4    | 0 |           0|
   Picked  : |              388356 ns|              388591 ns|RD-DATA   | F832117C |  1/ 1 | -- | 00000180 |  OKAY  | ---- | ------- | - | ---------- |
             |              388356 ns|              388591 ns|RD-DATA   | F832117C |  1/ 1 | -- | 00000180 |  OKAY  | ---- | ------- | - | ---------- |
   Picked  : |              388646 ns|              388651 ns|WR-NONSEQ | F832117C | ----- |  1 | -------- |  ----  |SINGLE|    4    | 0 |           0|
             |              388646 ns|              388651 ns|WR-NONSEQ | F832117C | ----- |  1 | -------- |  ----  |SINGLE|    4    | 0 |           0|
   Picked  : |              388651 ns|              388901 ns|WR-DATA   | F832117C |  1/ 1 | -- | 00000180 |  OKAY  | ---- | ------- | - | ---------- |
             |              388651 ns|              388901 ns|WR-DATA   | F832117C |  1/ 1 | -- | 00000180 |  OKAY  | ---- | ------- | - | ---------- |
   Picked  : |              389151 ns|              389156 ns|RD-NONSEQ | F832117C | ----- |  1 | -------- |  ----  |SINGLE|    4    | 0 |           0|
             |              389151 ns|              389156 ns|RD-NONSEQ | F832117C | ----- |  1 | -------- |  ----  |SINGLE|    4    | 0 |           0|
   Picked  : |              389156 ns|              389431 ns|RD-DATA   | F832117C |  1/ 1 | -- | 00000180 |  OKAY  | ---- | ------- | - | ---------- |
             |              389156 ns|              389431 ns|RD-DATA   | F832117C |  1/ 1 | -- | 00000180 |  OKAY  | ---- | ------- | - | ---------- |
   Picked  : |              389486 ns|              389491 ns|WR-NONSEQ | F832117C | ----- |  1 | -------- |  ----  |SINGLE|    4    | 0 |           0|
             |              389486 ns|              389491 ns|WR-NONSEQ | F832117C | ----- |  1 | -------- |  ----  |SINGLE|    4    | 0 |           0|
   Picked  : |              389491 ns|              389751 ns|WR-DATA   | F832117C |  1/ 1 | -- | 00000180 |  OKAY  | ---- | ------- | - | ---------- |
             |              389491 ns|              389751 ns|WR-DATA   | F832117C |  1/ 1 | -- | 00000180 |  OKAY  | ---- | ------- | - | ---------- |
   Picked  : |              389801 ns|              389806 ns|RD-NONSEQ | F8321180 | ----- |  1 | -------- |  ----  |SINGLE|    4    | 0 |           0|
             |              389801 ns|              389806 ns|RD-NONSEQ | F8321180 | ----- |  1 | -------- |  ----  |SINGLE|    4    | 0 |           0|
   Picked  : |              389806 ns|              390061 ns|RD-DATA   | F8321180 |  1/ 1 | -- | 00000692 |  OKAY  | ---- | ------- | - | ---------- |
             |              389806 ns|              390061 ns|RD-DATA   | F8321180 |  1/ 1 | -- | 00000692 |  OKAY  | ---- | ------- | - | ---------- |
   Picked  : |              390116 ns|              390121 ns|WR-NONSEQ | F8321180 | ----- |  1 | -------- |  ----  |SINGLE|    4    | 0 |           0|
             |              390116 ns|              390121 ns|WR-NONSEQ | F8321180 | ----- |  1 | -------- |  ----  |SINGLE|    4    | 0 |           0|
   Picked  : |              390121 ns|              390381 ns|WR-DATA   | F8321180 |  1/ 1 | -- | 00000692 |  OKAY  | ---- | ------- | - | ---------- |
             |              390121 ns|              390381 ns|WR-DATA   | F8321180 |  1/ 1 | -- | 00000692 |  OKAY  | ---- | ------- | - | ---------- |
   Picked  : |              390431 ns|              390436 ns|RD-NONSEQ | F8321184 | ----- |  1 | -------- |  ----  |SINGLE|    4    | 0 |           0|
             |              390431 ns|              390436 ns|RD-NONSEQ | F8321184 | ----- |  1 | -------- |  ----  |SINGLE|    4    | 0 |           0|
   Picked  : |              390436 ns|              390661 ns|RD-DATA   | F8321184 |  1/ 1 | -- | 1322B573 |  OKAY  | ---- | ------- | - | ---------- |
             |              390436 ns|              390661 ns|RD-DATA   | F8321184 |  1/ 1 | -- | 1322B573 |  OKAY  | ---- | ------- | - | ---------- |
   Picked  : |              390716 ns|              390721 ns|WR-NONSEQ | F8321184 | ----- |  1 | -------- |  ----  |SINGLE|    4    | 0 |           0|
             |              390716 ns|              390721 ns|WR-NONSEQ | F8321184 | ----- |  1 | -------- |  ----  |SINGLE|    4    | 0 |           0|
   Picked  : |              390721 ns|              390941 ns|WR-DATA   | F8321184 |  1/ 1 | -- | 1322B573 |  OKAY  | ---- | ------- | - | ---------- |
             |              390721 ns|              390941 ns|WR-DATA   | F8321184 |  1/ 1 | -- | 1322B573 |  OKAY  | ---- | ------- | - | ---------- |
   Picked  : |              390991 ns|              390996 ns|RD-NONSEQ | F832117C | ----- |  1 | -------- |  ----  |SINGLE|    4    | 0 |           0|
             |              390991 ns|              390996 ns|RD-NONSEQ | F832117C | ----- |  1 | -------- |  ----  |SINGLE|    4    | 0 |           0|
   Picked  : |              390996 ns|              391221 ns|RD-DATA   | F832117C |  1/ 1 | -- | 00000180 |  OKAY  | ---- | ------- | - | ---------- |
             |              390996 ns|              391221 ns|RD-DATA   | F832117C |  1/ 1 | -- | 00000180 |  OKAY  | ---- | ------- | - | ---------- |
   Picked  : |              391276 ns|              391281 ns|WR-NONSEQ | F832117C | ----- |  1 | -------- |  ----  |SINGLE|    4    | 0 |           0|
             |              391276 ns|              391281 ns|WR-NONSEQ | F832117C | ----- |  1 | -------- |  ----  |SINGLE|    4    | 0 |           0|
   Picked  : |              391281 ns|              391501 ns|WR-DATA   | F832117C |  1/ 1 | -- | 00000380 |  OKAY  | ---- | ------- | - | ---------- |
             |              391281 ns|              391501 ns|WR-DATA   | F832117C |  1/ 1 | -- | 00000380 |  OKAY  | ---- | ------- | - | ---------- |
   Picked  : |              401551 ns|              401556 ns|RD-NONSEQ | F832117C | ----- |  1 | -------- |  ----  |SINGLE|    4    | 0 |           0|
             |              401551 ns|              401556 ns|RD-NONSEQ | F832117C | ----- |  1 | -------- |  ----  |SINGLE|    4    | 0 |           0|
   Picked  : |              401556 ns|              401781 ns|RD-DATA   | F832117C |  1/ 1 | -- | 00000380 |  OKAY  | ---- | ------- | - | ---------- |
             |              401556 ns|              401781 ns|RD-DATA   | F832117C |  1/ 1 | -- | 00000380 |  OKAY  | ---- | ------- | - | ---------- |
   Picked  : |              401836 ns|              401841 ns|WR-NONSEQ | F832117C | ----- |  1 | -------- |  ----  |SINGLE|    4    | 0 |           0|
             |              401836 ns|              401841 ns|WR-NONSEQ | F832117C | ----- |  1 | -------- |  ----  |SINGLE|    4    | 0 |           0|
   Picked  : |              401841 ns|              402061 ns|WR-DATA   | F832117C |  1/ 1 | -- | 00000382 |  OKAY  | ---- | ------- | - | ---------- |
             |              401841 ns|              402061 ns|WR-DATA   | F832117C |  1/ 1 | -- | 00000382 |  OKAY  | ---- | ------- | - | ---------- |
   Picked  : |              452111 ns|              452116 ns|RD-NONSEQ | F832117C | ----- |  1 | -------- |  ----  |SINGLE|    4    | 0 |           0|
             |              452111 ns|              452116 ns|RD-NONSEQ | F832117C | ----- |  1 | -------- |  ----  |SINGLE|    4    | 0 |           0|
   Picked  : |              452116 ns|              452391 ns|RD-DATA   | F832117C |  1/ 1 | -- | 00000382 |  OKAY  | ---- | ------- | - | ---------- |
             |              452116 ns|              452391 ns|RD-DATA   | F832117C |  1/ 1 | -- | 00000382 |  OKAY  | ---- | ------- | - | ---------- |
   Picked  : |              452446 ns|              452451 ns|WR-NONSEQ | F832117C | ----- |  1 | -------- |  ----  |SINGLE|    4    | 0 |           0|
             |              452446 ns|              452451 ns|WR-NONSEQ | F832117C | ----- |  1 | -------- |  ----  |SINGLE|    4    | 0 |           0|
   Picked  : |              452451 ns|              452711 ns|WR-DATA   | F832117C |  1/ 1 | -- | 00000282 |  OKAY  | ---- | ------- | - | ---------- |
             |              452451 ns|              452711 ns|WR-DATA   | F832117C |  1/ 1 | -- | 00000282 |  OKAY  | ---- | ------- | - | ---------- |
   Picked  : |              452961 ns|              452966 ns|RD-NONSEQ | F832117C | ----- |  1 | -------- |  ----  |SINGLE|    4    | 0 |           0|
             |              452961 ns|              452966 ns|RD-NONSEQ | F832117C | ----- |  1 | -------- |  ----  |SINGLE|    4    | 0 |           0|
   Picked  : |              452966 ns|              453221 ns|RD-DATA   | F832117C |  1/ 1 | -- | 00000282 |  OKAY  | ---- | ------- | - | ---------- |
             |              452966 ns|              453221 ns|RD-DATA   | F832117C |  1/ 1 | -- | 00000282 |  OKAY  | ---- | ------- | - | ---------- |
   Picked  : |              453276 ns|              453281 ns|WR-NONSEQ | F832117C | ----- |  1 | -------- |  ----  |SINGLE|    4    | 0 |           0|
             |              453276 ns|              453281 ns|WR-NONSEQ | F832117C | ----- |  1 | -------- |  ----  |SINGLE|    4    | 0 |           0|
   Picked  : |              453281 ns|              453501 ns|WR-DATA   | F832117C |  1/ 1 | -- | 00000283 |  OKAY  | ---- | ------- | - | ---------- |
             |              453281 ns|              453501 ns|WR-DATA   | F832117C |  1/ 1 | -- | 00000283 |  OKAY  | ---- | ------- | - | ---------- |
   Picked  : |              453751 ns|              453756 ns|RD-NONSEQ | F832117C | ----- |  1 | -------- |  ----  |SINGLE|    4    | 0 |           0|
             |              453751 ns|              453756 ns|RD-NONSEQ | F832117C | ----- |  1 | -------- |  ----  |SINGLE|    4    | 0 |           0|
   Picked  : |              453756 ns|              453981 ns|RD-DATA   | F832117C |  1/ 1 | -- | 00000283 |  OKAY  | ---- | ------- | - | ---------- |
             |              453756 ns|              453981 ns|RD-DATA   | F832117C |  1/ 1 | -- | 00000283 |  OKAY  | ---- | ------- | - | ---------- |
   Picked  : |              454036 ns|              454041 ns|WR-NONSEQ | F832117C | ----- |  1 | -------- |  ----  |SINGLE|    4    | 0 |           0|
             |              454036 ns|              454041 ns|WR-NONSEQ | F832117C | ----- |  1 | -------- |  ----  |SINGLE|    4    | 0 |           0|
   Picked  : |              454041 ns|              454271 ns|WR-DATA   | F832117C |  1/ 1 | -- | 00000203 |  OKAY  | ---- | ------- | - | ---------- |
             |              454041 ns|              454271 ns|WR-DATA   | F832117C |  1/ 1 | -- | 00000203 |  OKAY  | ---- | ------- | - | ---------- |
   Picked  : |              454726 ns|              454731 ns|WR-NONSEQ | 482601C4 | ----- |  1 | -------- |  ----  |SINGLE|    4    | 0 |           0|
             |              454726 ns|              454731 ns|WR-NONSEQ | 482601C4 | ----- |  1 | -------- |  ----  |SINGLE|    4    | 0 |           0|
   Picked  : |              454731 ns|              455096 ns|WR-DATA   | 482601C4 |  1/ 1 | -- | FFFFFFFF |  OKAY  | ---- | ------- | - | ---------- |
             |              454731 ns|              455096 ns|WR-DATA   | 482601C4 |  1/ 1 | -- | FFFFFFFF |  OKAY  | ---- | ------- | - | ---------- |
   Picked  : |              455151 ns|              455156 ns|WR-NONSEQ | 482601C8 | ----- |  1 | -------- |  ----  |SINGLE|    4    | 0 |           0|
             |              455151 ns|              455156 ns|WR-NONSEQ | 482601C8 | ----- |  1 | -------- |  ----  |SINGLE|    4    | 0 |           0|
   Picked  : |              455156 ns|              455466 ns|WR-DATA   | 482601C8 |  1/ 1 | -- | FFFFFFFF |  OKAY  | ---- | ------- | - | ---------- |
             |              455156 ns|              455466 ns|WR-DATA   | 482601C8 |  1/ 1 | -- | FFFFFFFF |  OKAY  | ---- | ------- | - | ---------- |
   Picked  : |              455521 ns|              455526 ns|WR-NONSEQ | F83212A0 | ----- |  1 | -------- |  ----  |SINGLE|    4    | 0 |           0|
             |              455521 ns|              455526 ns|WR-NONSEQ | F83212A0 | ----- |  1 | -------- |  ----  |SINGLE|    4    | 0 |           0|
   Picked  : |              455526 ns|              455791 ns|WR-DATA   | F83212A0 |  1/ 1 | -- | FFFFFFFF |  OKAY  | ---- | ------- | - | ---------- |
             |              455526 ns|              455791 ns|WR-DATA   | F83212A0 |  1/ 1 | -- | FFFFFFFF |  OKAY  | ---- | ------- | - | ---------- |
   Picked  : |              455841 ns|              455846 ns|RD-NONSEQ | F8321278 | ----- |  1 | -------- |  ----  |SINGLE|    4    | 0 |           0|
             |              455841 ns|              455846 ns|RD-NONSEQ | F8321278 | ----- |  1 | -------- |  ----  |SINGLE|    4    | 0 |           0|
   Picked  : |              455846 ns|              456101 ns|RD-DATA   | F8321278 |  1/ 1 | -- | 00040B46 |  OKAY  | ---- | ------- | - | ---------- |
             |              455846 ns|              456101 ns|RD-DATA   | F8321278 |  1/ 1 | -- | 00040B46 |  OKAY  | ---- | ------- | - | ---------- |
   Picked  : |              456156 ns|              456161 ns|WR-NONSEQ | F8321278 | ----- |  1 | -------- |  ----  |SINGLE|    4    | 0 |           0|
             |              456156 ns|              456161 ns|WR-NONSEQ | F8321278 | ----- |  1 | -------- |  ----  |SINGLE|    4    | 0 |           0|
   Picked  : |              456161 ns|              456421 ns|WR-DATA   | F8321278 |  1/ 1 | -- | 00040B46 |  OKAY  | ---- | ------- | - | ---------- |
             |              456161 ns|              456421 ns|WR-DATA   | F8321278 |  1/ 1 | -- | 00040B46 |  OKAY  | ---- | ------- | - | ---------- |
   Picked  : |              457471 ns|              457476 ns|RD-NONSEQ | F8321278 | ----- |  1 | -------- |  ----  |SINGLE|    4    | 0 |           0|
             |              457471 ns|              457476 ns|RD-NONSEQ | F8321278 | ----- |  1 | -------- |  ----  |SINGLE|    4    | 0 |           0|
   Picked  : |              457476 ns|              457741 ns|RD-DATA   | F8321278 |  1/ 1 | -- | 00040B46 |  OKAY  | ---- | ------- | - | ---------- |
